# HZ S RI R 50   
1 -0.79335545374965 -0.226944658591595 -0.368345971482308 0.198459057438573 -0.000657406980424397 -0.00286981164342717 0.782062657826665 0.0748885118184127
1000001 0.238944639497242 -0.092216582214687 -2.45958531300174 -5.00479568344936 0.0681978432674605 0.0271073887096983 -0.165465521677179 0.313110914990025
2000001 0.13754294839492 -0.0576750261922136 -3.24813227690599 -5.477973978697 0.0748437956093816 0.011512978436656 0.0130754934772828 0.22523599373887
3000001 0.104911852160846 -0.0317074310085049 -3.69039525762037 -5.45400137246543 0.0744776975057179 0.00560065658824926 0.0596065871156925 0.165873513325021
4000001 0.0902925396812662 -0.0165326868449983 -4.01399999463939 -5.36916333136907 0.07347076661622 0.00268517081124505 0.0819083937510967 0.130944165083026
5000001 0.0832002159152129 -0.0152360937074625 -4.22998982867154 -5.25693014812838 0.0729744512123281 0.000783941930506877 0.0954545759844513 0.106811932905405
6000001 0.0839908202272226 -0.00609165393020813 -4.44108066044615 -5.13172404483769 0.0724182753558726 -0.0005260272086283 0.100409016309845 0.0918558837797391
7000001 0.0803579518180596 0.00226815439265417 -4.62239492812926 -5.03191191132385 0.0720237058635009 -0.00111117323355393 0.104547504254714 0.0804679312234208
8000001 0.076544905815657 0.00218447077914007 -4.75109501677873 -4.92754013083215 0.0718193988622872 -0.0015899716620955 0.105262681385256 0.0713536844872495
9000001 0.069506432790387 0.00956956422002745 -4.89537339442024 -4.85015775789666 0.0713440552189845 -0.00221336844439739 0.109566996061146 0.0664261881648818
10000001 0.0707870085704772 0.0119265107843868 -5.02124987885932 -4.73300596438668 0.0709943851951116 -0.00288402879044515 0.11360887330278 0.0580247232036042
11000001 0.0729179375267184 0.00516562892052322 -5.10372916796672 -4.60694919593857 0.070748041740796 -0.00318517019041847 0.113944115455527 0.0538860528694566
12000001 0.0673302305203646 0.00442771675420442 -5.19766932808099 -4.51947898656164 0.0706390377374324 -0.0034001749675725 0.115185684827803 0.0486133130192023
13000001 0.0661342070192447 0.0142635170325566 -5.33589395010314 -4.42106719894214 0.0705105908970017 -0.0037064722749441 0.116384508628478 0.0457068429886668
14000001 0.0692564675716196 0.005878564932274 -5.3976464273569 -4.29189279475678 0.0699507008145006 -0.00389624995251675 0.116839775292715 0.042173070106265
15000001 0.0704927637426318 0.00434822941725002 -5.48322565038614 -4.17623854064723 0.0699827786690407 -0.00386554220501406 0.117440484654525 0.0385211786383398
16000001 0.065534147469073 0.0135396022217131 -5.60431126541556 -4.08585520731287 0.0699022974470672 -0.0044055036692347 0.118644267289483 0.0360094772313323
17000001 0.0623813047704903 0.00669865665505225 -5.65994852324406 -3.98610444291634 0.0698588367123952 -0.00449157628947162 0.118704609122673 0.0342912537349821
18000001 0.064640294074738 0.0139565678785512 -5.77030687336891 -3.86514059530444 0.0694119442159604 -0.00455059204735985 0.119646295477677 0.0314241372216887
19000001 0.0698366465061385 0.0128916761587128 -5.84523640184855 -3.73008843056269 0.0692778157216322 -0.00469062937282447 0.120012634644354 0.0294712507213028
20000001 0.0635624330050357 0.0056564321736764 -5.88947552961966 -3.6413333737491 0.0693511577809422 -0.0047211111302953 0.119854319412003 0.0279876223825146
21000001 0.0644757278637205 0.0124933333751357 -5.99020983025556 -3.52102682207536 0.0690868966248517 -0.00494233627715097 0.12091838096757 0.0257624430092887
22000001 0.0624017217831087 0.00665196856718603 -6.03584567069883 -3.41407334906843 0.0689776686742633 -0.00515582155147611 0.12171793748452 0.0243580343381959
23000001 0.0630045190689551 0.00390744655493459 -6.09180943946445 -3.29535775209938 0.0689595789000199 -0.00491674284157801 0.122249377617159 0.0229245050210137
24000001 0.0602312538436806 0.00509933912229061 -6.16382304247591 -3.18815738192587 0.068701044784804 -0.00527654590320112 0.122421514105988 0.0217472016898793
25000001 0.0645517219795051 0.00970002812148722 -6.24296594371071 -3.04918560367582 0.0685698623474084 -0.00519014098643217 0.122586635716753 0.0199787724366832
26000001 0.0646248982996604 0.00887661828685461 -6.29857670713764 -2.93132051124888 0.0684665450540444 -0.00521790405797312 0.12293007728481 0.0185529079374376
27000001 0.0649364651661501 0.00800211271107422 -6.3539047138963 -2.80798948216701 0.0682503051286616 -0.00537711468469134 0.123057668110035 0.0177329954731149
28000001 0.0648828959033722 0.00708893496519024 -6.40635244083827 -2.68798189454103 0.0683371615247149 -0.00534911604783952 0.123298052653974 0.0162994320571566
29000001 0.0650127653782094 0.0060480124324434 -6.45496969300786 -2.56491201413161 0.0682462117644233 -0.00529902298446188 0.123606037177836 0.0152985172820487
30000001 0.0650106866816688 0.00527572396887753 -6.50292103634403 -2.44277658285774 0.0680579354434174 -0.00556383927951741 0.124248774414226 0.0143373562574937
31000001 0.0651676297373339 0.00413366807396881 -6.54875003523845 -2.31750226615597 0.0678896984991463 -0.00554328432129585 0.124612752152637 0.0134211425760094
32000001 0.0652652710443873 0.00311673364272112 -6.59151602310589 -2.1944479427337 0.0677513315582786 -0.00562256012534363 0.124296055678185 0.0119102478726662
33000001 0.0654602913068148 0.00206797996743054 -6.62991501765121 -2.0676837002174 0.067826911635151 -0.00580011437662045 0.124984450981292 0.0113845338527679
34000001 0.0655080112727987 0.000899110186246931 -6.66888809694735 -1.94295490347901 0.0676957978269133 -0.00563449653485248 0.125143171051358 0.0104706329703337
35000001 0.0655425635101898 -0.00031131740012155 -6.70262702705645 -1.81831655258343 0.0673913756628695 -0.00577288216564826 0.125565700928556 0.00953493423582631
36000001 0.0658114788824881 -0.00142726200946189 -6.7347332836619 -1.69086046628958 0.0675877508776493 -0.00587743018166148 0.125897628267861 0.00870827256388124
37000001 0.065651836685119 -0.00237558481071078 -6.76429838908893 -1.56609059854394 0.0674272359433124 -0.00570923562187526 0.125945701682994 0.00756038407283257
38000001 0.0655860513208639 -0.00374908058953715 -6.79396905914429 -1.44146035121888 0.067181785539771 -0.0058089257138363 0.126350829968016 0.00669975376718496
39000001 0.0656578548161368 -0.0048394863304653 -6.81837709251092 -1.31398855321059 0.0671235520992014 -0.00593475053819578 0.126468314867523 0.00581497098032892
40000001 0.0657415160955306 -0.00623762183607205 -6.83982919559417 -1.18961042966514 0.0672698978553159 -0.00580422162003063 0.127515377241687 0.00463859105560892
41000001 0.0657129298734392 -0.00731917280465226 -6.86096845881725 -1.06349653092328 0.0670341213020179 -0.00556173281855244 0.127625873048683 0.00399258041051779
42000001 0.0658204650986222 -0.00862485320289033 -6.87926896256955 -0.936306031880531 0.0668796626207929 -0.00581932004475276 0.127171229077926 0.00335753209727265
43000001 0.0658673912190516 -0.00977562782569325 -6.89428155983969 -0.808967760997732 0.0667740100483979 -0.00589371465075035 0.127316958501545 0.00241206009700965
44000001 0.0658262848141616 -0.011405064490087 -6.90832698770669 -0.683830169296617 0.0667598213618144 -0.0058969931726157 0.127606002102546 0.00161020248491345
45000001 0.065718324506153 -0.0126951715847384 -6.91947496958872 -0.55691287921945 0.0667737285086265 -0.00595433786536704 0.12762021109305 0.000825705488073499
46000001 0.0656385217952257 -0.0140387494909833 -6.92743746106177 -0.431526263282324 0.0667493997359382 -0.0058077934998054 0.128149210443349 3.52932629124164E-05
47000001 0.0655039117091619 -0.0155490269094001 -6.93251253770201 -0.306616762513899 0.0666184770999742 -0.0058628806592675 0.128119297322393 -0.000645078181132566
48000001 0.0655432862679309 -0.0171242706337224 -6.93810359856064 -0.182893242636738 0.0665026083688619 -0.00595417282259367 0.127676466896566 -0.0019905934258196
49000001 0.065266442629955 -0.0183703030458069 -6.9402529416484 -0.058554143959616 0.0665402762071965 -0.0059910621836005 0.1283697789746 -0.00175974319282849
50000001 0.0650251787239409 -0.0199588175865941 -6.94007474079789 0.0669084285595632 0.0663037896753792 -0.00592722033601241 0.128620962553995 -0.00235057433007437
51000001 0.0646909584551732 -0.0213549459008906 -6.93636344209131 0.187087842693522 0.0665665425653167 -0.00594366880253739 0.128799317966675 -0.00271193207157909
52000001 0.0643911771683596 -0.0231131872656354 -6.9290301124276 0.310450686521666 0.0665074029870673 -0.00594000742277784 0.128984571416776 -0.0035666340631059
53000001 0.0641468403081454 -0.0241931091195144 -6.92603122192549 0.436158454028199 0.0663858521715477 -0.00581160850182696 0.129285565964476 -0.00412458009129643
54000001 0.0641058260352196 -0.0258397166293673 -6.91462018739073 0.560878580208477 0.0663054440271336 -0.00585138457190199 0.129712831172415 -0.00467232673901011
55000001 0.0635986665575428 -0.0273192074339231 -6.90264142219643 0.681609253365147 0.0663219566997399 -0.00572714021485086 0.129975366092932 -0.0050351091042453
56000001 0.0629260040854048 -0.0285184106721449 -6.8928507678637 0.805068302312684 0.0661457130865029 -0.00600262856475093 0.130597877297516 -0.00583811512447976
57000001 0.0628198066490681 -0.0301262947964631 -6.87834630958964 0.927312814092912 0.0662206233742081 -0.00571915333919479 0.130901673221207 -0.00661638933843317
58000001 0.0623327860633058 -0.0315514765556973 -6.8604850654208 1.04947720160411 0.0660756746434387 -0.00572273033084233 0.131077329826617 -0.00731565569558891
59000001 0.0617927427121319 -0.0330266020019002 -6.84238401927219 1.16935056282797 0.0660924338896848 -0.00570158830163351 0.131408590530741 -0.00839011972995182
60000001 0.0611588426251157 -0.0344979270251288 -6.82095943941176 1.28988205189351 0.0660250051381537 -0.00576780138076639 0.13146200033633 -0.00896455124944963
61000001 0.0607679953232776 -0.0359332340776663 -6.79798642353967 1.41252529866148 0.0660333588831152 -0.00554383643454975 0.131823404044091 -0.00934853799450086
62000001 0.0604428307510953 -0.0373585012727504 -6.77093784361935 1.53187337003268 0.0659920484521453 -0.00563111605296933 0.132151138552306 -0.0102358265803338
63000001 0.0597368359531721 -0.0388880585163945 -6.74345321846482 1.65196480291491 0.066116243682672 -0.00557803673413791 0.13253584815803 -0.0105815868924287
64000001 0.0609904232454334 -0.0465999462620203 -6.71683133737728 1.76505238718075 0.0660908495859169 -0.00561935722286698 0.132590949949567 -0.0113191419004572
65000001 0.0605600093744279 -0.0460553306268291 -6.66415852066907 1.88292056675199 0.066034748115605 -0.0056214967419272 0.133021316431143 -0.0121093952411916
66000001 0.0580729064390058 -0.0431139064614995 -6.64919196240152 2.01042496437335 0.0661447066550615 -0.00566081763267421 0.133188889518887 -0.0126450549366091
67000001 0.0573762457908001 -0.0445353085302381 -6.61169854119359 2.12760732534986 0.0660046265240098 -0.00547078586385515 0.133483451942634 -0.013727493154315
68000001 0.0568488501092041 -0.0461117888001996 -6.57373120887306 2.243295016562 0.0662299465930064 -0.00568680831980194 0.133699366360748 -0.0143051830716542
69000001 0.0559888511591171 -0.0474341555757519 -6.53587431242292 2.36014005632215 0.0659669983458332 -0.00542872009636051 0.133950065349549 -0.0149793138867359
70000001 0.0553401206176739 -0.0490445357638546 -6.49131153830085 2.47490560850266 0.0660122099302816 -0.00544588317686907 0.13438016343329 -0.0156174877933322
71000001 0.0545897472595436 -0.0503950006348341 -6.44805586301092 2.5872776148862 0.0660995706329704 -0.00545640288466635 0.134506573789626 -0.0166784440866742
72000001 0.0451192944222192 -0.0649787225943957 -6.40237624658856 2.63620112833799 0.0661532781973153 -0.00516715919926347 0.134601644183323 -0.0172066835892435
73000001 0.0476366538742033 -0.0546835430596272 -6.37067758886656 2.7959753547987 0.0660257208255548 -0.0052466949344381 0.134996162704631 -0.0181216092624877
74000001 0.0522582900058093 -0.0547081749137188 -6.30413610825582 2.9239177989965 0.0661223748631508 -0.00535568438737517 0.135338898810784 -0.0185920239067259
75000001 0.0515341113424872 -0.0560730431074046 -6.25230432112017 3.03761922959205 0.0660367508365996 -0.00539957701801836 0.135417849317256 -0.0193942590778357
76000001 0.050475485410631 -0.0575597237445454 -6.19979369529652 3.14557607073261 0.0661820648958736 -0.00534157862255555 0.13554715894267 -0.0200198097119923
77000001 0.0493386956463311 -0.0589843023622814 -6.14370165768767 3.2514670680475 0.0662774990374579 -0.005228480843828 0.135552941478909 -0.0208438382903045
78000001 0.0485276242375881 -0.0602621490647921 -6.08957740745917 3.35999653793534 0.0661260981510091 -0.00496627517299325 0.13577889733613 -0.0215036146923401
79000001 0.0470760216757227 -0.0615938910196961 -6.0306483216673 3.46566462096603 0.066301287565854 -0.00534834732916604 0.135973638740203 -0.0222595736288617
80000001 0.0462442202698218 -0.0630329156383214 -5.96788571278858 3.57222014797247 0.0663391721947019 -0.0052025107668459 0.135916722998015 -0.023164118803261
81000001 0.0454077554501958 -0.0644322109906518 -5.90586766848667 3.67622083343599 0.0663943451411451 -0.0049844886564848 0.136282020043047 -0.0239772003662867
82000001 0.0442733651615286 -0.0657122114683729 -5.8414900617527 3.78208245933478 0.0663544102580235 -0.00517710623319216 0.136369230345364 -0.0246709567571584
83000001 0.043416096302934 -0.0669396125976404 -5.77485790032423 3.88667729011191 0.0664527174854527 -0.0050468918949626 0.137058678405942 -0.0255940984257437
84000001 0.0420023205731955 -0.0681641947614303 -5.71029457409039 3.98769019208147 0.0664775420969569 -0.00503490757914386 0.136953414383332 -0.026340415645169
85000001 0.0405725273170375 -0.0694965441472782 -5.64438310284209 4.08939716994432 0.0667302740888863 -0.00525797001321728 0.136717287094382 -0.0266627988869978
86000001 0.0396308975111283 -0.0707744110120993 -5.57412475915076 4.19078045904986 0.0666551883810599 -0.00512772804681865 0.136519473036683 -0.028273681588316
87000001 0.0384174610951886 -0.0722813035436048 -5.50207614137024 4.28671025641856 0.0666872991505767 -0.004903876758179 0.13701353610185 -0.0281865936609223
88000001 0.037085979723427 -0.0734205340521763 -5.43252004448857 4.38510456453649 0.0668430213968298 -0.00524244346235063 0.137392164910891 -0.0295154299047251
89000001 0.0357559742230817 -0.0746463014742204 -5.35744821824047 4.4824952017352 0.0668339091166338 -0.00516901973585506 0.137187279296372 -0.0293569721693112
90000001 0.0345623980543409 -0.0756581867367195 -5.28104403625737 4.57642276456607 0.0671932018685673 -0.00497631370760119 0.137028063087949 -0.0304206163284361
91000001 0.0331687635799784 -0.0768459990370956 -5.20771218964463 4.67294659376269 0.0669621015821969 -0.00489761695448904 0.139193016552518 -0.0292951782801805
92000001 0.0319275852277759 -0.078073729859274 -5.12713922170595 4.76298058599121 0.0670647416729062 -0.00494587397595155 0.138493627562865 -0.0299686802795648
93000001 0.030262590586893 -0.0792411161809412 -5.04850627567365 4.85422481685858 0.0670860500811491 -0.00491025119517228 0.137372075519286 -0.0323618327226253
94000001 0.0291216199643535 -0.0804239813196509 -4.96583765806463 4.94371441275704 0.0674334078578704 -0.00477512931802483 0.137710845695681 -0.033029265134353
95000001 0.0277175968446407 -0.0815357060587365 -4.88512844687367 5.03220382595183 0.0673896103358214 -0.00472524754921198 0.1376163924736 -0.0338606761432598
96000001 0.0260232647725824 -0.0825058434906757 -4.79975625633802 5.11963364058785 0.0674106587369127 -0.0048801148828639 0.137185015469858 -0.034176940875114
97000001 0.0247567889496164 -0.0835512247238023 -4.71703440623071 5.2042554972674 0.0676637653763105 -0.00521429843553217 0.137579319830377 -0.0351283622798852
98000001 0.0231716337334916 -0.0845094903191316 -4.62978937347727 5.28937745203392 0.0678528636668863 -0.0047027822986441 0.13764565129107 -0.0357051976460448
99000001 0.0216662398352327 -0.0852521520620202 -4.54205272353557 5.37302094644266 0.0679631226183434 -0.00489959007105816 0.137394263552883 -0.0366197861645466
100000001 0.0201312783486654 -0.0862731876030591 -4.45117813710618 5.45422117537043 0.0680317234751441 -0.00521897449747449 0.137583794314454 -0.0371948813348686
