# HZ S RI R 50   
1 -0.837139979884457 -0.244507541349938 0.239427042622909 -0.0905566742549248 -0.00107842772572617 -0.00150846346426424 0.742559485228731 0.0133507820380925
1000001 -0.00651975413153684 -0.0105430052130684 2.07490818014971 2.97670038308116 -0.000400555936072679 -6.16508699625122E-06 -0.958323919252759 -0.0663756491123192
2000001 -0.0128377966490871 0.00655971587132234 2.289957047529 2.86014577509739 -0.000324960694447921 4.65747857760319E-05 -0.967315142832241 -0.0129152962653914
3000001 -0.0146826375827978 0.0122302345861675 2.423161722338 2.75918004775292 -9.8569506801803E-06 4.04647511478262E-05 -0.955152251247004 -0.0277976397799178
4000001 -0.0156220381100467 0.0146362460796071 2.53188671792445 2.66144639428514 -0.000186513603767288 9.44003872400281E-05 -0.961354334147065 -0.00898674751665699
5000001 -0.0162093369756899 0.0159114516909147 2.62855254398113 2.56455525526297 -0.000216212153075085 0.00040419226814314 -0.951148348162776 0.0322083206817322
6000001 -0.0162648125023336 0.0163272258139205 2.71616205926589 2.46628523327364 -0.000155586833756113 1.25669350460063E-05 -0.95649444789655 -0.00858659791952325
7000001 -0.016267448758819 0.0164901457805401 2.79752680804698 2.36722630771636 -0.000527056377806079 0.000144038530395198 -0.957513707886685 0.00608339349149275
8000001 -0.0162810535066447 0.0166810787555207 2.874890861342 2.26562715741457 2.60720072473147E-05 0.000390605458930879 -0.960659282030758 0.00583204653328127
9000001 -0.016216467451569 0.0164157339396273 2.94690044972765 2.16402753848994 -0.000277003745847871 0.000563898855373865 -0.962038130748616 0.011726975346699
10000001 -0.016127654442549 0.015931951940302 3.01344631707589 2.06061333190911 -8.27246549349191E-05 0.000162364441905124 -0.964361221075305 0.0116266377636542
11000001 -0.0163616551138823 0.0156700215497482 3.07660998322063 1.95651698643903 -0.000117935775278735 6.79966723182117E-05 -0.962984066490835 0.0196354609754662
12000001 -0.0162463974599336 0.0151682245013821 3.13476933304365 1.85186719733337 -1.6992905023321E-05 0.000157072828434032 -0.962609699198098 0.0193501268230294
13000001 -0.0143955722475036 0.0189914853077676 3.19792553191399 1.7407612585294 0.000122177733818018 0.000318686288985638 -0.961767153803955 0.023067704013627
14000001 -0.0178310694472601 0.0192140363727491 3.25163184873517 1.63840383133773 -0.000344665547979628 -6.36313102332594E-05 -0.96637725930025 0.0268759126355425
15000001 -0.0163382327191674 0.0139293364511666 3.28784572201042 1.52943425925776 -0.000311431224413703 0.000301223573069074 -0.968941083487524 0.0271272176448893
16000001 -0.018508840562286 0.0140814138312773 3.33364460955221 1.42355950238991 -0.000228999024473927 0.000199304352804226 -0.963773666008783 0.029772210685611
17000001 -0.0162989199665908 0.0125661298089061 3.36864543961684 1.31206887551335 -0.000183296601806288 0.000457546389203564 -0.966393146755426 0.0326902403555941
18000001 -0.0163229771486246 0.0121266258856019 3.40486632129112 1.20092350728846 -0.000364821843020482 0.000302032987061734 -0.963639635123383 0.035348497168796
19000001 -0.0163397991880825 0.0112391915130307 3.43603868105104 1.08985372697433 -0.000355854226841043 5.57034733980713E-05 -0.963892131888661 0.0379541563574106
20000001 -0.0164528083959459 0.0106648661772411 3.46373905879187 0.981497398533827 -0.000433678790182326 0.00017403781532554 -0.964124650258456 0.0406055888503353
21000001 -0.0164929619499003 0.00996137532654512 3.48819317489722 0.871035767713166 -0.000287684268177425 0.000301586432877579 -0.964391480361196 0.0427264412377398
22000001 -0.0139815249679998 0.0111302138115642 3.51164024289692 0.751762081044684 -0.000385722406948414 0.000448831624616517 -0.96442447367935 0.0455492943230828
23000001 -0.0168492359751463 0.0086459433488278 3.52867963656461 0.645318539368062 -6.25709997899595E-05 0.000549432693160266 -0.965447565717287 0.0429773691045791
24000001 -0.0172382348935788 0.00791276918908684 3.54168909441332 0.536872033313581 -0.000434192454033969 0.000142974933532252 -0.964143958542837 0.0501944488573174
25000001 -0.0173774744601762 0.00726768130729757 3.55220063173044 0.42811469981713 -0.000340663289332699 0.000478177151540541 -0.965011923392567 0.0531947922559486
26000001 -0.0174987252562022 0.00664851613678313 3.55882824284948 0.315388094835121 -0.000782186892821624 0.000411582137762694 -0.962519006826056 0.0558229109726733
27000001 -0.0176934264112789 0.0058782003059451 3.5637995570678 0.200621476611778 -0.000418620677990451 0.000229682724325169 -0.965972383308744 0.0587894079313063
28000001 -0.0182669837930932 0.00524351120405796 3.56334057090268 0.0831546248417459 -0.000334797408229699 0.000383706529823845 -0.966068681860285 0.0608622881112326
29000001 -0.0185226150301559 0.00457652292671933 3.55850788670357 -0.030120215391779 -0.000698654468231771 0.000387878931928519 -0.966097800689284 0.0638567429503588
30000001 -0.0189903875925325 0.00386184071300121 3.55055562074203 -0.138733532584528 -0.000341565349623098 0.000431843894649051 -0.966397606419617 0.0664218260976473
31000001 -0.0193176932677733 0.00312025796484877 3.53744728797119 -0.243594533625887 -0.000455806367969687 0.000508675931458566 -0.966442188104479 0.0688985530799364
32000001 -0.0195698406321384 0.0026453702164112 3.52382022867699 -0.349019738300447 -0.000619911977152228 0.000499050086157161 -0.965421556751633 0.0753717777152605
33000001 -0.0198400825891515 0.0019336921896848 3.50572381261045 -0.456613584139864 -0.000384625550593869 0.000358443128162645 -0.966949793942367 0.0746038973015287
34000001 -0.0201675325892035 0.00134362127284771 3.48655265609506 -0.563240799610102 -0.000710964845669235 0.000777000497324763 -0.967085417166577 0.0775040080844396
35000001 -0.0205927304784178 0.000927220260665496 3.46434046395404 -0.669189744231366 -0.000784267127724291 0.000756957896728359 -0.967045580179025 0.0801427182977047
36000001 -0.021203135286459 0.000156157784309068 3.43633155783353 -0.77756001599541 -0.000274209357126066 0.000719214055432267 -0.96716381791259 0.0829510739820845
37000001 -0.0216542467467968 -0.000726441893177374 3.40359813016887 -0.886487583621606 -0.000750189885073802 0.000946968938371484 -0.96760909441385 0.0855613111066854
38000001 -0.022086444977497 -0.00105226326632932 3.37007466122738 -0.992142725889716 -0.000889244592499176 0.00108133052164333 -0.967627643666532 0.0885458589503341
39000001 -0.0227121680830647 -0.00178257299959521 3.33357019614495 -1.09353614991087 -0.000699214211942558 0.000710258822814174 -0.967393406607899 0.0917158831253069
40000001 -0.023041992085551 -0.00246582940546576 3.29503545890208 -1.19365021903102 -0.000626903820309249 0.000489219788061656 -0.968130349745251 0.0944576031586015
41000001 -0.0238339458349279 -0.00301157005446004 3.25585593676521 -1.29217923702275 -0.000941064590057585 0.00133010475170347 -0.967557002242371 0.0974489739320398
42000001 -0.0243118554664093 -0.00345456953958646 3.21430363512418 -1.38441192152351 -0.000708203140042073 0.00131576621920881 -0.967206121418338 0.100674821478718
43000001 -0.0250006494596798 -0.00389915018141587 3.17103165349434 -1.46800524650608 -0.000911136561553779 0.00117160837158932 -0.967370666262855 0.103267499729261
44000001 -0.025448122316207 -0.00436652206465706 3.12541476245189 -1.54801279355541 -0.000554069075494361 0.00102515231719427 -0.967239536628551 0.106418843218028
45000001 -0.0261800411075132 -0.00493330025296731 3.07598719978874 -1.63172678056202 -0.000687994301867369 0.00103953608139152 -0.967098464466855 0.109579580670976
46000001 -0.0267149722944021 -0.00527446387321555 3.02461127721896 -1.71866549833408 -0.000738684552619826 0.00158289902517341 -0.967310511605932 0.112787891184481
47000001 -0.0275400590472631 -0.00586876399794728 2.9696492038164 -1.80337333602021 -0.000614595058084905 0.00129246421914838 -0.966608032755457 0.115900507166909
48000001 -0.0281196051533267 -0.00623827999079447 2.91233644032005 -1.8889950334162 -0.000757255081387132 0.00160032360046429 -0.966920608169884 0.119876152735337
49000001 -0.0288141309915381 -0.00695080595317457 2.85293211918514 -1.96961248977263 -0.000788180542820362 0.00148091087576985 -0.965895074939912 0.121921864214498
50000001 -0.0296096122409938 -0.00716371726023491 2.79272736374014 -2.04885452581313 -0.00091310143435305 0.00171370018861429 -0.965483802676507 0.125220983478884
51000001 -0.030287560026449 -0.00751017303728918 2.73167046149546 -2.12607525356327 -0.000299273513502482 0.00191892802106804 -0.964530557493472 0.128239842261002
52000001 -0.0308251420001689 -0.00797311216030526 2.66771708395729 -2.20389218461917 -0.000555794651561985 0.00185161891243897 -0.963845850186862 0.131177409154408
53000001 -0.0315356899299831 -0.00819693053367477 2.5994048598801 -2.2826630419637 -0.000450594449004593 0.00182502528011858 -0.963427022717699 0.134506222578002
54000001 -0.0323460530798759 -0.00859988210779426 2.52564922275944 -2.35885954042906 -0.000577396895149854 0.00200123691908425 -0.962633241422216 0.137261832694731
55000001 -0.0332278599494211 -0.00865391749797781 2.44736930442739 -2.42838250245264 -0.000359203798665325 0.00180867379174725 -0.961787789329562 0.140101050128294
56000001 -0.0340505139220634 -0.00865831187689455 2.36628858621099 -2.49006564073672 -0.000396745494746874 0.0020025850874386 -0.961064064957086 0.143304922228514
57000001 -0.034762190212174 -0.0087256871977735 2.28710974288716 -2.54431667246784 -0.000265821543488237 0.00203543447401241 -0.959682037107483 0.145836221640557
58000001 -0.0356284840910563 -0.00860231922699616 2.20731687071458 -2.59556166830269 -0.000399372057078778 0.00206266242092418 -0.958560281883404 0.148632919910775
59000001 -0.036288275797931 -0.00885761889795603 2.1280008952788 -2.64349911215021 9.26174412859832E-05 0.00243334074927178 -0.958144067495116 0.151385480470976
60000001 -0.0371489231925761 -0.00870576341469191 2.04775052594931 -2.68992515352484 -0.00014391343117751 0.00223913605347304 -0.95625180404344 0.154027492742217
61000001 -0.0377199747077619 -0.00865431203015502 1.96770761446803 -2.73469945691743 0.00039815104809564 0.00262421289775173 -0.954861522163935 0.156579255828964
62000001 -0.0384486882907186 -0.00872713498395593 1.88668974367319 -2.77656456198356 -1.24398155514185E-05 0.00248975852179686 -0.95350040424249 0.158958594078222
63000001 -0.0390124722391235 -0.00838341778463951 1.80524582573246 -2.81755391458 0.000441687982479155 0.00224512877680288 -0.952037157452297 0.161405093617481
64000001 -0.0397395791976702 -0.0082989555069892 1.71918157819558 -2.85489681744551 0.00023454299388186 0.00233121616351624 -0.951168409635294 0.163825517265268
65000001 -0.0401994675258538 -0.00808978618308598 1.63776909058389 -2.89130850161338 0.000374862507563944 0.00273514794275077 -0.949302548236225 0.165690804195846
66000001 -0.0409509483777171 -0.00818231783760597 1.55440580087555 -2.92421694925864 0.000416485183904 0.00254084077455511 -0.947746227589408 0.167523141692214
67000001 -0.041254599216354 -0.0079795555651063 1.47176833560257 -2.95698228328413 0.000562897418105581 0.00282346878745062 -0.946435004593654 0.169542493872969
68000001 -0.041725935547642 -0.00787735195803345 1.39000807401413 -2.98762080882232 0.00083001049111916 0.00229704932092047 -0.945081891019997 0.17148131488595
69000001 -0.042113280283873 -0.00795157219409004 1.31253272917707 -3.0187483596406 0.000655434281996825 0.0029277383246063 -0.943731391569895 0.172919192247373
70000001 -0.0423954492213549 -0.00781560746256067 1.23781837074249 -3.0521082818031 0.000893614078798209 0.00246232808335327 -0.942508569889758 0.174527204185777
71000001 -0.0429192093830402 -0.00823772732171785 1.16855190950175 -3.08445776269995 0.00112021998987995 0.00236725572547722 -0.940986346913371 0.175908401589388
72000001 -0.0435066203576293 -0.00814287537510975 1.10162043851705 -3.11831763132875 0.00103469159754545 0.0024847666738935 -0.93996394565316 0.177575633603694
73000001 -0.0443747274529764 -0.00831488473617514 1.0284555643473 -3.14760975837133 0.00140287658514257 0.00239129450925222 -0.93880547769285 0.178733826609362
74000001 -0.0449573504240803 -0.00845945822019722 0.949371413485987 -3.17602480593574 0.00167393357429354 0.00241149420655624 -0.937967189417948 0.180379479179284
75000001 -0.0455053114057834 -0.00846601275101802 0.864108748711143 -3.20168263893905 0.00123535807400596 0.00230158533773568 -0.937371634566136 0.18121447614628
76000001 -0.0462332311295816 -0.00842915038754923 0.772847921261551 -3.22487311948981 0.00147235082880358 0.00239580130396892 -0.936381831767417 0.182495600628711
77000001 -0.046865464532395 -0.00837861501805133 0.679625274968281 -3.24611532880135 0.00149965331992862 0.00208807058999146 -0.935706249569024 0.183466738697986
78000001 -0.0473746133424221 -0.00837891236300153 0.583266003741737 -3.26469412859287 0.00133431498497762 0.00234658705595489 -0.936198707350483 0.184333707865553
79000001 -0.0480755034275783 -0.00875039205204643 0.48597813226957 -3.27953894053563 0.00187812903310216 0.00177190322058072 -0.934514830002651 0.186019005428139
80000001 -0.0486097084373676 -0.00868699361157082 0.385878512581318 -3.29242157072621 0.00168864897287007 0.00216890710440081 -0.928719076607832 0.188471222611725
81000001 -0.049213891143574 -0.00882920027993914 0.282577131344167 -3.30390230853398 0.00182251791922666 0.00199567687319407 -0.93293710855578 0.189326558722845
82000001 -0.0499593632977461 -0.00915384630272549 0.179449097834795 -3.31140873040009 0.00187031334704221 0.00203942426011938 -0.924975595786019 0.191164339766776
83000001 -0.0508051171934314 -0.00961005771274051 0.0731435597217146 -3.31609508983398 0.00193863445500466 0.00200672335534335 -0.93657885534844 0.200507609773762
84000001 -0.0515183610968652 -0.00954467778380193 -0.03550356784684 -3.31769795796264 0.00180260051772367 0.0018311061163753 -0.938621291846144 0.197224609314353
85000001 -0.0521513281475098 -0.00974505546594323 -0.145908361755401 -3.3151668658886 0.00191067046036548 0.00164475431240547 -0.933752204643474 0.193679953895793
86000001 -0.0531262398927755 -0.00984975992354788 -0.25842034159119 -3.30840770777675 0.00195565381315286 0.00187272990284945 -0.93813861231531 0.196388419374207
87000001 -0.0539367846559177 -0.0102854662328214 -0.372007151106672 -3.2962610043548 0.00196548555154303 0.00170016126061023 -0.934857852875282 0.196576666951069
88000001 -0.0549732270579518 -0.0104653399730185 -0.488375976436 -3.27880738724897 0.00171811251461341 0.0013967437693471 -0.936319453734846 0.197656825531614
89000001 -0.0560715847967705 -0.0107311229635509 -0.605317551395605 -3.25524128809577 0.00175336912197881 0.00153626295331999 -0.935885496250146 0.199554086879844
90000001 -0.0570657571912864 -0.0107104664636667 -0.724747301536406 -3.22377038476141 0.00243871405154366 0.00144308908648516 -0.936242629425736 0.200703004596428
91000001 -0.0584046813231698 -0.010948332303336 -0.843261306863855 -3.18711597386846 0.00201118843629304 0.0012731951347929 -0.937890052098752 0.208011656542397
92000001 -0.0597235336317579 -0.0109814135804415 -0.957772693576627 -3.14470554231346 0.00171688537040415 0.00140119258913157 -0.937580698690818 0.204877216660624
93000001 -0.0609836894559866 -0.0110277338613111 -1.06986196439477 -3.09496134219717 0.00164228434669366 0.0011818483896168 -0.938297945705986 0.206656492417038
94000001 -0.0623326718927415 -0.0109472215589167 -1.17780984156311 -3.04149935922291 0.00234004185262008 0.00111816670631668 -0.939108653065287 0.208282678240989
95000001 -0.0638258810778117 -0.0107775258457653 -1.27753288779977 -2.98486465690635 0.00207380443584918 0.00120610119582461 -0.939741041336665 0.210367968693832
96000001 -0.0652805061667417 -0.0106443339906369 -1.37163367859637 -2.92505402045593 0.00203284498662321 0.0011448089904121 -0.940897991162749 0.212214627532997
97000001 -0.0668624099979251 -0.0103838638951109 -1.45864748567937 -2.8669284508142 0.00195752310425941 0.000792863253523273 -0.941069302569254 0.214435631364921
98000001 -0.0682223570333655 -0.0095405952506205 -1.5406626030748 -2.8067911474695 0.00199240256223143 0.000976428122351314 -0.942000328342005 0.216155783042117
99000001 -0.0696072567795357 -0.0089468187372666 -1.61661106939029 -2.74693790029743 0.00199117543184096 0.00120227976422517 -0.942590626718148 0.218643848993895
100000001 -0.0711506767432171 -0.00829104973454237 -1.68665759625361 -2.68955758251611 0.00174657996210127 0.00078525838872364 -0.943828566195326 0.221135035770491
