# HZ S RI R 50
1 -0.8296968120250272 -0.2741369430882565 0.2110865238369977 -0.0983325753006903 0 0 0 0
1000001 -0.007481305720040878 -0.01107131306522179 2.098796040933699 3.031434594402877 0 0 0 0
2000001 -0.013773090450436341 0.006610906236179825 2.3215263690963255 2.9130786129066184 0 0 0 0
3000001 -0.015537798662415963 0.01222967925724823 2.457580425063559 2.8100276787676703 0 0 0 0
4000001 -0.01591976574779713 0.014076383702416073 2.567780036551832 2.7098722666355135 0 0 0 0
5000001 -0.016289384794785276 0.015612070401440853 2.666935468278887 2.6111628771640127 0 0 0 0
6000001 -0.016388635264818013 0.016135006666202722 2.756087435208499 2.5109546443199138 0 0 0 0
7000001 -0.016641847115348534 0.016383307427396816 2.8399801604932917 2.411731953064872 0 0 0 0
8000001 -0.01674196672837742 0.01633679758917843 2.9179122708135363 2.310054912339455 0 0 0 0
9000001 -0.016865683114151646 0.01628224560521483 2.99118393801599 2.2068778878454016 0 0 0 0
10000001 -0.01980781841250146 0.014970290135068311 3.057983292158454 2.1096243853107897 0 0 0 0
11000001 -0.016975285984953396 0.01605030313096497 3.1252064805049877 1.9976681898114323 0 0 0 0
12000001 -0.016447043836949282 0.015252019808544967 3.184172241736825 1.8906931569794465 0 0 0 0
13000001 -0.017046394197748005 0.015079003218755176 3.240911225146894 1.7840927266796414 0 0 0 0
14000001 -0.01641763789487315 0.014397139449325866 3.2921504863478934 1.674094271525423 0 0 0 0
15000001 -0.016545074638154158 0.013941660595855603 3.34071720855184 1.5644738917002445 0 0 0 0
16000001 -0.01482672291979158 0.016586311063837168 3.3915278081829032 1.4484047681539487 0 0 0 0
17000001 -0.016600411473352037 0.012773088791270646 3.4255433169714693 1.3437758446764436 0 0 0 0
18000001 -0.01653118130366443 0.012055426044525117 3.462801435849582 1.232269877298849 0 0 0 0
19000001 -0.016783744030109456 0.011516265684733185 3.495748392702272 1.119980796969866 0 0 0 0
20000001 -0.016839526559239947 0.010899981809701887 3.5244483505286555 1.0097920575328456 0 0 0 0
21000001 -0.01686229203005561 0.010192426421377035 3.5504268934035568 0.8994265662934251 0 0 0 0
22000001 -0.01708713455443847 0.00961649770719572 3.573841630771773 0.7833405611038611 0 0 0 0
23000001 -0.01381094725056174 0.014277488911776125 3.599970091254988 0.6581155415812474 0 0 0 0
24000001 -0.014254788549323381 0.01046509085331217 3.6087483716039297 0.5507234154143708 0 0 0 0
25000001 -0.017642927068226847 0.007577219619359239 3.61841560310385 0.44783428303310385 0 0 0 0
26000001 -0.017631954231918066 0.0069539453109433765 3.626801605229665 0.3329935570000396 0 0 0 0
27000001 -0.01791573770974502 0.006277095807940372 3.633147350139622 0.21708250176552032 0 0 0 0
28000001 -0.018195017127359023 0.005634206342351896 3.634466195637112 0.09642039299524831 0 0 0 0
29000001 -0.01841442177687139 0.0049987344608772 3.6294160991984006 -0.019323389659576258 0 0 0 0
30000001 -0.018862732684577516 0.004156092439747326 3.621104800751755 -0.1310171505943935 0 0 0 0
31000001 -0.019129735583935145 0.003884580531624157 3.6115235536625017 -0.23774777224587834 0 0 0 0
32000001 -0.019521351984727264 0.0032002578618239752 3.5972803497991697 -0.34587860743423415 0 0 0 0
33000001 -0.019824166003623744 0.002424195229499412 3.581185118230883 -0.4558507787512359 0 0 0 0
34000001 -0.02019427959562485 0.0018097162608207583 3.5622079803678286 -0.5667667440310978 0 0 0 0
35000001 -0.02082658734555679 0.0011841982749512844 3.5395816977005286 -0.6761126069918741 0 0 0 0
36000001 -0.02106076691286084 0.0004133592364189902 3.512156350999601 -0.7884306824888367 0 0 0 0
37000001 -0.021552951646260327 -4.779974743222985e-05 3.4797972922765603 -0.9011732810449501 0 0 0 0
38000001 -0.022052420007611293 -0.0005954231817032834 3.4447643006864546 -1.0097052703270364 0 0 0 0
39000001 -0.022520168725805794 -0.0012355530455804976 3.4088505789125088 -1.1159162815508437 0 0 0 0
40000001 -0.02302487227318801 -0.0018602542767916558 3.3701138532457304 -1.2196705459711732 0 0 0 0
41000001 -0.023678743610503795 -0.0022227154671718864 3.3293540529202676 -1.3206090946011173 0 0 0 0
42000001 -0.024138232835793718 -0.003064661506512777 3.2851288641583585 -1.4150751003990867 0 0 0 0
43000001 -0.024628975570385882 -0.0034283922325125367 3.2413536326193686 -1.5024606811426595 0 0 0 0
44000001 -0.025274672880920217 -0.0039031613710265975 3.194774333321171 -1.5838699362575432 0 0 0 0
45000001 -0.025793174683285458 -0.004351344437209289 3.144831385763173 -1.6710407907101483 0 0 0 0
46000001 -0.026258014926537506 -0.004783433456956908 3.0904157974585442 -1.760021061897889 0 0 0 0
47000001 -0.02713637247287318 -0.0052094419617459186 3.0347797299971844 -1.8497065870012417 0 0 0 0
48000001 -0.02782183560399368 -0.005840580828029414 2.975205121395622 -1.9359385843182748 0 0 0 0
49000001 -0.028377169216881055 -0.005949877691731133 2.913325905644597 -2.0199219084569857 0 0 0 0
50000001 -0.029119444534633044 -0.006553406717465585 2.8510934572476434 -2.1007209861259537 0 0 0 0
51000001 -0.029779458811047616 -0.006993453319099283 2.788356472838784 -2.180921061332586 0 0 0 0
52000001 -0.030481323868628476 -0.007344839785203317 2.7224668627102497 -2.261325676998739 0 0 0 0
53000001 -0.03103034894625875 -0.007624802825048635 2.65072260307444 -2.342480127866447 0 0 0 0
54000001 -0.0317160034120928 -0.007804873254008704 2.5745691279007246 -2.421881736930571 0 0 0 0
55000001 -0.03249678776246218 -0.008039213764387659 2.4913626815090195 -2.4930982426508654 0 0 0 0
56000001 -0.03312147829456983 -0.007960523006415157 2.4089552331064614 -2.556641008819487 0 0 0 0
57000001 -0.03406857868910679 -0.008043985994239467 2.3259881991105504 -2.6102756090246473 0 0 0 0
58000001 -0.03467868445171636 -0.008066777564302019 2.2428687219992396 -2.662825603506244 0 0 0 0
59000001 -0.03528581225373632 -0.008244665653772366 2.1612996425172097 -2.7110393474574432 0 0 0 0
60000001 -0.03610512609865748 -0.00801690011164948 2.078421868860104 -2.7578025789569263 0 0 0 0
61000001 -0.036945983856581446 -0.007924436913653351 1.9949726126823355 -2.8031079436568995 0 0 0 0
62000001 -0.03760267498871594 -0.007934887064836497 1.9122822113636464 -2.845154983722355 0 0 0 0
63000001 -0.03804615754666281 -0.008044216250242287 1.8253369461630973 -2.886188410536789 0 0 0 0
64000001 -0.03750419132396152 -0.0052077278804051365 1.735963175149465 -2.930251921059845 0 0 0 0
65000001 -0.03936528743015731 -0.0075433864776038246 1.65493731574193 -2.9610669992055443 0 0 0 0
66000001 -0.03951191994683226 -0.00751205501952778 1.5674932151156311 -2.9951032494523084 0 0 0 0
67000001 -0.03994379276173434 -0.007510174512709675 1.4825788444876422 -3.0281789466939126 0 0 0 0
68000001 -0.04036744875387487 -0.007536204080405201 1.3995807721160516 -3.0600626707479606 0 0 0 0
69000001 -0.040535686609770694 -0.007545057982278042 1.3196848483319914 -3.092351720989104 0 0 0 0
70000001 -0.040946269663265436 -0.007769076040264787 1.243613703065961 -3.1256440788114945 0 0 0 0
71000001 -0.04119149395464451 -0.007914010452751473 1.1708549042924632 -3.1593957837820286 0 0 0 0
72000001 -0.04190098590486603 -0.00823165176521721 1.099741747566172 -3.192671760910845 0 0 0 0
73000001 -0.04241304350997436 -0.008130403569592777 1.0250865806757559 -3.222456136542924 0 0 0 0
74000001 -0.043187678054353064 -0.008243851260246118 0.9437709056575339 -3.249433016354322 0 0 0 0
75000001 -0.04389227311117531 -0.008316755580472145 0.8558429502718198 -3.2742272868490425 0 0 0 0
76000001 -0.044314101917708196 -0.008367065322242509 0.7619190120547634 -3.296347576977336 0 0 0 0
77000001 -0.04503004040827513 -0.008520688408544462 0.667555284527302 -3.3161564337156713 0 0 0 0
78000001 -0.04137273527237329 -0.005836728494954369 0.5588831093823247 -3.334065262592184 0 0 0 0
79000001 -0.046019514043388235 -0.008872003759692607 0.4676098761801362 -3.3478648416913406 0 0 0 0
80000001 -0.04678798402835573 -0.009216183076430205 0.3654271857610603 -3.359285372147615 0 0 0 0
81000001 -0.047273022633763435 -0.009296247667264158 0.25996946355586953 -3.3690463364525693 0 0 0 0
82000001 -0.04797955763632113 -0.009447289924260647 0.15328202224636459 -3.3753394963538876 0 0 0 0
83000001 -0.04870462909565631 -0.009897515641206209 0.043013437116492415 -3.378213458220359 0 0 0 0
84000001 -0.049475234702641764 -0.010160901997757057 -0.06849105775559369 -3.37669940110276 0 0 0 0
85000001 -0.050081232672834985 -0.010260889434135152 -0.18205107321153402 -3.3717135267290077 0 0 0 0
86000001 -0.05103807824818943 -0.010709456810209381 -0.29666881396312555 -3.3618318212430016 0 0 0 0
87000001 -0.051908804029979605 -0.011050150668328618 -0.4148605421037372 -3.346461626515344 0 0 0 0
88000001 -0.05256351167648752 -0.011281332132820364 -0.5346023818483805 -3.3248846220976196 0 0 0 0
89000001 -0.05385289102615671 -0.011514669040236895 -0.6530983452195398 -3.2986718141140194 0 0 0 0
90000001 -0.05498269506349884 -0.011702202329894272 -0.7735530930901641 -3.2633245366145185 0 0 0 0
91000001 -0.056262647981936725 -0.011850169744549815 -0.8922574647886776 -3.2225775547150595 0 0 0 0
92000001 -0.057462809662420296 -0.01208705676415888 -1.0069475534225758 -3.1764399474477054 0 0 0 0
93000001 -0.05880270177819083 -0.012238520167932967 -1.1177250843422029 -3.1243512602478267 0 0 0 0
94000001 -0.060394705421791525 -0.012109900060991621 -1.2226240627634657 -3.0682854201824643 0 0 0 0
95000001 -0.061832220636334784 -0.0119359589058022 -1.3207020855794007 -3.0087539986804637 0 0 0 0
96000001 -0.0630816021227033 -0.011961537050333171 -1.4104278058864184 -2.950073190266767 0 0 0 0
97000001 -0.06457282159707932 -0.011552426458867839 -1.4957291513995568 -2.8881903670205364 0 0 0 0
98000001 -0.0663030910361035 -0.011036379262333307 -1.573585285146233 -2.8295435659606505 0 0 0 0
99000001 -0.0675785748045623 -0.010414935219427515 -1.646295965447301 -2.7716993053093955 0 0 0 0
100000001 -0.06877646164409815 -0.00970447010680169 -1.7143105453338197 -2.714531609678385 0 0 0 0
