# HZ S RI R 50
1 -1.0188211050396718 0.6876103133271181 -7.752227835346266 -1.0057862336979837 0 0 0 0
1000001 0.9808297836404243 -0.001257202384847452 -2.826417584650701 2.25361469913852 0 0 0 0
2000001 0.9803874943882632 -0.001973388901066267 -2.420906470706045 2.69370376927421 0 0 0 0
3000001 0.97976428851948 -0.002361246775832672 -2.3066718887048165 2.7384700456834814 0 0 0 0
4000001 0.9791493132007908 -0.0031892212817625485 -2.161827141773635 2.772711942234102 0 0 0 0
5000001 0.97924407575406 -0.004835065036705258 -2.1009236223011603 2.7374979888307718 0 0 0 0
6000001 0.9789533153938526 -0.005223704802438119 -1.985941117705758 2.8266554133157187 0 0 0 0
7000001 0.9782235838797284 -0.005942556934299653 -1.869097228613132 2.8384464971023755 0 0 0 0
8000001 0.9778550437091152 -0.011391251016712317 -1.7685006360820619 2.792014280607069 0 0 0 0
9000001 0.9865066778326345 -0.00901356041982767 -1.752423812213316 2.6662655807877202 0 0 0 0
10000001 0.9800234872572717 -0.007430933854908822 -1.7353609565646706 2.529225370112281 0 0 0 0
11000001 0.9728278331124455 -0.017720004786096744 -1.7113778000465665 2.38870306947869 0 0 0 0
12000001 0.9736575111012917 -0.009904663407707421 -1.7234018336981072 2.254373463585466 0 0 0 0
13000001 0.9690503505773144 -0.012039326230979582 -1.7389206464623777 2.127631292734565 0 0 0 0
14000001 0.9633511150382154 -0.009118785070368614 -1.7498497242752071 1.9793386205896486 0 0 0 0
15000001 0.9664021296191466 -0.008053467699142794 -1.70053232355922 1.8510407595652683 0 0 0 0
16000001 0.9667562163478386 -0.01403005105739991 -1.6840464878212495 1.7269611140276253 0 0 0 0
17000001 0.9586796767652294 -0.015693756480605617 -1.7196232925825852 1.6018020098229404 0 0 0 0
18000001 0.9506750461388773 -0.015574946502246844 -1.7146165969992397 1.4764703258478982 0 0 0 0
19000001 0.9713714290497512 -0.01130546671071817 -1.758986927941258 1.3596742933854806 0 0 0 0
20000001 0.9678102268837105 -0.011038828966863883 -1.8138568093826997 1.2443968175454412 0 0 0 0
21000001 0.9681113339455896 -0.01144409216457982 -1.8865926962139854 1.1424623980799296 0 0 0 0
22000001 0.9683166823833735 -0.012426693387691612 -1.9768846295497844 1.050281698723975 0 0 0 0
23000001 0.9609823049293292 -0.01046442448368284 -2.0949974489816054 0.9868537505432756 0 0 0 0
24000001 0.967283556742379 -0.012178296555030787 -2.209309984357328 0.8947450136759301 0 0 0 0
25000001 0.9689380697230905 -0.015024532876985719 -2.3384391988721474 0.8253375395731118 0 0 0 0
26000001 0.9692487852300865 -0.01629010087441746 -2.49056479799248 0.7689193413776901 0 0 0 0
27000001 0.9695685657696791 -0.01766411187721684 -2.6596509180283543 0.7229097240255047 0 0 0 0
28000001 0.9695791004503654 -0.018871893910369947 -2.8270078542401613 0.6794332601008699 0 0 0 0
29000001 0.97012150150194 -0.01985648962110426 -2.9974345078283817 0.6492153380449346 0 0 0 0
30000001 0.9700182963024473 -0.021123908831540847 -3.178393437670378 0.62475759795112 0 0 0 0
31000001 0.9702614337941038 -0.02313004426384522 -3.376435159406827 0.5973583227864747 0 0 0 0
32000001 0.9700537181010002 -0.02463629188031235 -3.578742073616991 0.5697721521039658 0 0 0 0
33000001 0.9698046426282224 -0.025947732067841994 -3.845455619075531 0.5206990385149513 0 0 0 0
34000001 0.9695915405474237 -0.027558305421349388 -4.12653145472993 0.48303857231363034 0 0 0 0
35000001 0.9691986872603459 -0.02951375790878787 -4.4284663080886615 0.47416666449229106 0 0 0 0
36000001 0.9692101772633698 -0.030862956983921247 -4.732363261740963 0.4841781668843046 0 0 0 0
37000001 0.969033399575788 -0.032869940039729456 -5.046971218114637 0.503323667771387 0 0 0 0
38000001 0.9691819142968172 -0.03445707804583927 -5.378624901198808 0.5172843467583901 0 0 0 0
39000001 0.9689202711064968 -0.0367879789643592 -5.716620489309451 0.5391343659057317 0 0 0 0
40000001 0.968404479203985 -0.038712550284152915 -6.043677215619084 0.5991495551845674 0 0 0 0
41000001 0.9695824513292912 -0.041294775756522316 -6.257662048724487 0.816732533373917 0 0 0 0
42000001 0.9701693521026109 -0.04432810548120321 -6.474342232184967 1.0544556479543972 0 0 0 0
43000001 0.9708236104496426 -0.04700000469709986 -6.685031309235306 1.3163423943422776 0 0 0 0
44000001 0.971133026910422 -0.05009999552988828 -6.880417993235673 1.612334921556807 0 0 0 0
45000001 0.9714390279267886 -0.05314769961112681 -7.028425475436606 1.9280660217512007 0 0 0 0
46000001 0.9724956762301938 -0.05651414839293461 -7.147216584422617 2.2316334862040828 0 0 0 0
47000001 0.9728074491172475 -0.05886850230806566 -7.307502851769883 2.498879502657885 0 0 0 0
48000001 0.9732419864503895 -0.060660945090069494 -7.433789739641623 2.779601721972193 0 0 0 0
49000001 0.9733709360727423 -0.06269626657323683 -7.505520617094164 3.0921556434649373 0 0 0 0
50000001 0.9734232678478637 -0.0639525104386931 -7.496348532558615 3.3962897694610166 0 0 0 0
51000001 0.9738109598084279 -0.06604212809971445 -7.392334252783 3.6139007188360375 0 0 0 0
52000001 0.9744436629356084 -0.06807456737245263 -7.197473861161961 3.7628914815201595 0 0 0 0
53000001 0.9748091486948892 -0.07042537069851548 -7.049909323224392 3.879259915103889 0 0 0 0
54000001 0.9750019922418446 -0.07241318881900084 -6.949956168078876 3.9809789979679104 0 0 0 0
55000001 0.9750966734839844 -0.07392256739207806 -6.879675165688203 4.104357874034497 0 0 0 0
56000001 0.974561381004909 -0.07541927368841198 -6.850453793504006 4.257443949784346 0 0 0 0
57000001 0.9747408444550124 -0.07676326546829115 -6.7992580654693 4.385623149473989 0 0 0 0
58000001 0.9745479430332217 -0.07824976223190983 -6.687965981383929 4.531855909678288 0 0 0 0
59000001 0.9744246617941236 -0.0797713778346535 -6.539965314140161 4.6786204115432986 0 0 0 0
60000001 0.9746644044714922 -0.08123980701730794 -6.403782020826126 4.822353121721221 0 0 0 0
61000001 0.9743372791121456 -0.08226343348951146 -6.286969209746561 4.9390331705356 0 0 0 0
62000001 0.9741855709904218 -0.08354260202330775 -6.214122984332201 5.041659021261297 0 0 0 0
63000001 0.9741241038936194 -0.08538009865779693 -6.195561504032183 5.135279286691831 0 0 0 0
64000001 0.9735214224318913 -0.08701021252925978 -6.2030649236578785 5.23724765331104 0 0 0 0
65000001 0.9735865510249762 -0.08801403763054992 -6.121944456228671 5.452666270288369 0 0 0 0
66000001 0.9727861879322458 -0.0891903212409613 -5.807621262923711 5.727926388364782 0 0 0 0
67000001 0.9728966350132656 -0.09042554719876805 -5.457860616278785 5.963253337280283 0 0 0 0
68000001 0.9727362084672682 -0.09123931674187502 -5.21361827967649 6.116155298685971 0 0 0 0
69000001 0.9721045043518737 -0.09233794886694079 -4.971924281497019 6.2300928538979745 0 0 0 0
70000001 0.9722880181889475 -0.09363326255860464 -4.741542168684909 6.302145276320822 0 0 0 0
71000001 0.9715703822093303 -0.09483539435819986 -4.527084446071553 6.3559817932287705 0 0 0 0
72000001 0.9716622443218271 -0.09577176507122129 -4.406124161806724 6.420585764125044 0 0 0 0
73000001 0.9709125947140642 -0.09710196570959177 -4.302682840697598 6.498098173998308 0 0 0 0
74000001 0.9708128810158161 -0.09863308841328862 -4.137265626155693 6.553139848812558 0 0 0 0
75000001 0.9704986130127766 -0.0996257520180896 -3.8742197776334892 6.57843089733981 0 0 0 0
76000001 0.9701674388468894 -0.10105709876616654 -3.551306268451305 6.562610476349881 0 0 0 0
77000001 0.9703931975962177 -0.10244605822263868 -3.205122955103149 6.522361117030063 0 0 0 0
78000001 0.957346094290519 -0.10085752317153161 -2.848833859496426 6.449132057285639 0 0 0 0
79000001 0.969567274708532 -0.10447620600025578 -2.52038716494155 6.422456788028902 0 0 0 0
80000001 0.9642408888660637 -0.10494264569447742 -2.232105295583685 6.333352654231991 0 0 0 0
81000001 0.9696637195319355 -0.10656645733158927 -1.9785949883054623 6.2891421657282836 0 0 0 0
82000001 0.9692650813910332 -0.10757232500800952 -1.7846447220715658 6.242643294005128 0 0 0 0
83000001 0.964910294195597 -0.11418065608541539 -1.611286097454878 6.179674174613291 0 0 0 0
84000001 0.9675655739430492 -0.10815964156058923 -1.485641657889523 6.132877354856399 0 0 0 0
85000001 0.9676315241109011 -0.11109761762897645 -1.3643733234846405 6.078904200388324 0 0 0 0
86000001 0.9674210496332093 -0.11252992477672114 -1.2624107550161165 5.995453453643954 0 0 0 0
87000001 0.9669937463053169 -0.11399405907278329 -1.1421813520295379 5.864713037311292 0 0 0 0
88000001 0.9669096638190782 -0.11464682421207309 -1.0001307652190112 5.703271594575378 0 0 0 0
89000001 0.9670402275962048 -0.11595212324363242 -0.8170021453154692 5.545876176316391 0 0 0 0
90000001 0.9670953146977492 -0.11728107280683098 -0.6249463513901234 5.398004887876885 0 0 0 0
91000001 0.9706413069714095 -0.1305023289719767 -0.38324487809977414 5.281368640119474 0 0 0 0
92000001 0.9672395702103506 -0.11873074253675497 -0.20454899780863856 5.141169669753862 0 0 0 0
93000001 0.9673442832284175 -0.12029357426339159 -0.010415644170459704 4.998203251302658 0 0 0 0
94000001 0.9673116427164212 -0.12074071774286062 0.1562498168230506 4.849907981952725 0 0 0 0
95000001 0.9677714506437364 -0.12181548859905443 0.2821905360562571 4.689593790488635 0 0 0 0
96000001 0.9665242630818323 -0.12531444953097903 0.3681587169874707 4.517855128274155 0 0 0 0
97000001 0.967595926054343 -0.12444639429624615 0.3892891663929834 4.375917478189365 0 0 0 0
98000001 0.9674958534667963 -0.12577027955547054 0.4154076678748069 4.241314736744112 0 0 0 0
99000001 0.9671147839101781 -0.1268233084332452 0.44833622164780573 4.1159909402446315 0 0 0 0
100000001 0.966467850290783 -0.1282945589687804 0.5008931419558091 3.9984281738125107 0 0 0 0
