# HZ S RI R 50   
1 -0.82665549126054 -0.23894256248939 -2.92978921095737 -0.716801285267961 7.28612797009284E-05 -5.57206178624043E-05 -1.43645161886809 0.270882480953406
1000001 0.976180290957323 0.342232508455634 -3.68026958032984 -0.956274489449405 6.89751318258111E-05 1.00462346520284E-05 0.117868464421055 -0.016503478888868
2000001 0.983458814943138 0.322264700913242 -3.824371781752 -0.30075643509092 7.09758834650159E-06 0.000118543206971698 0.149818699512217 0.0330710452073385
3000001 0.988735764631823 0.301652558094828 -3.82270091666858 -0.168772243537644 0.000329522677803445 0.000164781871154461 0.155560464824349 0.0251102270564154
4000001 0.993293676221209 0.28173343788899 -3.80648686632734 -0.0213703980964517 0.000255392219388351 0.000171313138994958 0.135138037428421 0.0498358464184871
5000001 0.998157642353461 0.256146709056484 -3.82745492742661 0.0465740329781619 -1.19707183600066E-05 0.000447853932581591 0.149369145512565 0.0755225300040648
6000001 1.00120477325844 0.24171831242112 -3.88750337598449 0.272392161263022 9.81542682555715E-05 0.000369086161583372 0.167332591777135 0.102592313323634
7000001 1.00461330166566 0.221365289886172 -3.88371190695299 0.487620323650715 0.0002494570375597 0.00038308474832774 0.191178616510957 0.12545754371229
8000001 1.00775306546742 0.202109171587292 -3.85679875180335 0.675063628537065 0.000502822667834893 0.000343962237605335 0.237344771813304 0.137682066329552
9000001 1.01061496496521 0.181445692037959 -3.81761967456754 0.742492484361607 0.000433885341495358 0.000250281703412879 0.296283189832347 0.100099511075318
10000001 1.01170026101395 0.161933045540174 -3.81689923851627 0.745338094273885 0.000335849017326627 0.000240685844599443 0.267580019885394 0.0301848740148455
11000001 1.01472676434103 0.141252657846042 -3.77398405701042 0.961504243360807 0.000362738405242778 0.000267384855910624 0.219648560504125 0.0445280756343401
12000001 1.01620619897839 0.1214863107682 -3.70928583918931 1.16241705161743 0.000198100698616441 0.000322934782740953 0.217007036145388 0.0755967345499798
13000001 1.014545468383 0.0961220067396974 -3.61878383672964 1.30379699187045 0.000350931299757631 0.000447037194377042 0.224006555637025 0.100003188158493
14000001 1.01758711302722 0.0769222104924874 -3.53701871761522 1.44178748640681 8.93425814771488E-05 0.000287425130613835 0.237523971140998 0.118124979108498
15000001 1.01842688197236 0.0612575900350701 -3.46903228745203 1.55938286144837 0.000293582362717021 0.000178800801256987 0.254292239261528 0.129774201027901
16000001 1.01626727139904 0.0425615620971782 -3.38613102120977 1.65160681343544 0.000337514631304863 0.000458950602403468 0.274044314118904 0.141972012044996
17000001 1.01427191731949 0.021432410156156 -3.29600471809344 1.73155630109868 0.000469957445614433 0.00045202707929259 0.28878631186697 0.148895715370619
18000001 1.01720712501747 0.0011872467874096 -3.20346118743347 1.81791658002546 0.000336989391810432 0.000489109723944282 0.30746633757433 0.158456915710746
19000001 1.01592585153156 -0.0186510519111338 -3.11409651135029 1.88695691315831 0.000349023555469027 0.000451456664768975 0.325890229610527 0.168057165321651
20000001 1.01430002101877 -0.0387260940849135 -3.02581277374653 1.94325584640622 0.000366623736379522 0.000560045368092187 0.339049729772267 0.17531244889766
21000001 1.01240544903447 -0.0584500971047277 -2.94365140492371 2.00211943806717 0.000365155764504969 0.000268718273623973 0.354552984092269 0.178543796563351
22000001 1.00891276539293 -0.0808035131516163 -2.84940363701829 2.04617694610315 0.000250328527842588 0.000302058550227538 0.368001869567324 0.183543424013857
23000001 1.00453993251116 -0.0965798142585983 -2.7764322073681 2.08605677867118 0.000521477266070504 0.00060454640219498 0.378741883644028 0.188073027001902
24000001 0.989331317737046 -0.105550767274584 -2.73737606796558 2.11904395812888 0.00043909332743827 0.000475115114461861 0.389066079984499 0.188859613746233
25000001 1.00037262666085 -0.135901834963768 -2.60888828040376 2.16857654081557 0.000476744653883004 0.000330388145641184 0.397011620309952 0.186506044544771
26000001 0.977865628946935 -0.137722270385504 -2.59344992251571 2.19198395992374 0.000549284025682508 0.000656738201878717 0.403422874658238 0.17924387617984
27000001 0.992241790326493 -0.17412419976615 -2.44778582454096 2.22659383242739 0.000392272214833522 0.00040898742273538 0.405309464988081 0.170214574397963
28000001 0.987279381659858 -0.193051265718637 -2.37324795905374 2.24817459524367 0.000459510877249869 0.000573484497758089 0.398743890428134 0.162997940459683
29000001 0.98246830125266 -0.211761431400531 -2.29943707151979 2.27087286640227 0.000468684977268992 0.000551464794142223 0.393038450506762 0.157384759267723
30000001 0.976840415585666 -0.230252466211539 -2.227180111635 2.29065918828781 0.000410301979797833 0.000358962794649791 0.390283645391872 0.151839004384029
31000001 0.970867673934878 -0.248369008752872 -2.15654727847774 2.30385120938472 0.000444216096142695 0.000576739815397314 0.387925578536208 0.151177821974997
32000001 0.9649417236863 -0.26657360902193 -2.0822929756999 2.31572854062211 0.000289504352259199 0.000643636988048624 0.388328761338323 0.155257706678416
33000001 0.958831149501679 -0.285098668281665 -2.00925815115607 2.32621942068805 0.000369847467662029 0.000400474841430535 0.396679099740749 0.162285880528167
34000001 0.951816369977981 -0.303062364066887 -1.9401038078614 2.3336422028923 0.000273831609091801 0.000540440930003069 0.41062750474884 0.170568168289428
35000001 0.944707224911341 -0.320942715031404 -1.87283807685225 2.33797950628899 0.000110751948123255 0.000532392076681419 0.416299767665979 0.170914779551978
36000001 0.937216791439883 -0.338225996391178 -1.80904358071718 2.33894320596111 0.000189339196923527 0.000637623548588972 0.428487570651778 0.176394496180178
37000001 0.929955833087708 -0.355160361470698 -1.74425853327956 2.33898212326017 0.000336834674783785 0.000839283583414669 0.441438270174557 0.177413417862974
38000001 0.921449663152112 -0.372046631306266 -1.68321520615282 2.33921965179448 0.000272909957068927 0.000798287546190827 0.449153571874858 0.176067607199504
39000001 0.913093214354615 -0.389000299389572 -1.62107527481225 2.33850082617569 0.000466054302863004 0.000983547718020594 0.463001501998996 0.167317822264661
40000001 0.904576332704584 -0.405304169625286 -1.55982199434322 2.33659859545091 0.000375622568044759 0.000966756040363856 0.474279284932183 0.156555832479881
41000001 0.895903965853837 -0.421177641502454 -1.50085318043159 2.3316989705293 0.000127858400638005 0.000960907824922543 0.47829865568363 0.147016130209307
42000001 0.88678599034965 -0.437373991804781 -1.43981016364818 2.32399691821454 0.000448504379204021 0.00104802178811158 0.487861504604122 0.137645549193964
43000001 0.877187763804993 -0.453668713762735 -1.37857932593156 2.31106920347417 0.000711852762632625 0.000828989491731232 0.499266903634813 0.127361702078061
44000001 0.86776403797103 -0.470046166012282 -1.32212964238654 2.2961122390742 0.000685234541467443 0.00118836150686714 0.504321936611184 0.1262485579072
45000001 0.857943058096001 -0.485982571038507 -1.27133787807642 2.28214939346993 0.000389217310295426 0.0014591693699656 0.506630982589771 0.107816012654467
46000001 0.847933019475697 -0.501747480195595 -1.22838639281315 2.26740632120937 0.000498681786796622 0.0012339967470345 0.514341766442859 0.0868375372250375
47000001 0.837515382391044 -0.517153604001155 -1.17828645233073 2.25374288716408 0.000480211342476696 0.00119933782135728 0.520250375252608 0.0729524342608443
48000001 0.827425016013307 -0.532645916054263 -1.1306255413969 2.23810409990274 0.000971450751069636 0.0012237203687083 0.526731837642971 0.0660657301173126
49000001 0.816435342423573 -0.547889761178149 -1.08456135239742 2.22136112653827 0.000647767614210426 0.0012592869292738 0.531557181151176 0.0567425054599926
50000001 0.805434177608785 -0.562475984586362 -1.04150041007171 2.20907175478996 0.000680781361403196 0.0010152743189314 0.535440341328522 0.0479821515009326
51000001 0.794821935004479 -0.577124352891414 -0.995351267120308 2.19416233152217 0.000682101697926363 0.00119589488346167 0.536248112487357 0.0412037580594121
52000001 0.783488777022898 -0.591681559152741 -0.949541754071693 2.18039058330965 0.000739382629005574 0.00116283194468486 0.543622510438255 0.0330837758356631
53000001 0.772129628179112 -0.606394109882307 -0.909075892610465 2.16417084123312 0.000645383375773691 0.00119032706712814 0.548508234097431 0.021190011608533
54000001 0.759826107366042 -0.620528282631262 -0.879886730946114 2.14644729247497 0.00104222066794975 0.00125828045909416 0.542723956751799 0.00123459156293752
55000001 0.747423510412468 -0.634164740165848 -0.857853537888919 2.12755619757216 0.00123467747130639 0.000993810211662793 0.533080915172295 -0.0151299103333446
56000001 0.734757209073924 -0.647535139575757 -0.840050726184734 2.11136684695992 0.000735344350628587 0.00106256801566216 0.521839036369382 -0.0271378388407655
57000001 0.721902048903327 -0.66099539121342 -0.825904547273947 2.09332443841927 0.00102829224472679 0.00103718187774806 0.510114592283021 -0.0382257561804603
58000001 0.70870222280125 -0.673730504745218 -0.814011051972618 2.08033173079427 0.00108056426655443 0.00109595942881839 0.500684565347243 -0.0476428010727354
59000001 0.695743612992874 -0.68667126445538 -0.801288194146223 2.06558026183406 0.00113590772867085 0.00129155973842417 0.490256836885492 -0.0558311569037815
60000001 0.682143252565183 -0.699044125633143 -0.79340251137737 2.05598287335942 0.000739937679332328 0.000832435289107532 0.482771045184168 -0.0596711158303706
61000001 0.66856238413064 -0.711207913424871 -0.785426420342222 2.04797827231472 0.00133148297099748 0.00109247956756027 0.476391666905929 -0.0602957783468705
62000001 0.654863591007265 -0.722958094284867 -0.775394151487501 2.04510540003553 0.00122123795906445 0.000656525123413567 0.474083309011624 -0.0537752813313011
63000001 0.640491144593479 -0.734776435516007 -0.766917650057081 2.04489277711715 0.00138172778115258 0.00105644364740678 0.474002849379979 -0.0427183093852083
64000001 0.626336034876194 -0.746055468876661 -0.748434754463865 2.04506163920201 0.00126819245173347 0.000847609729111202 0.474123160176491 -0.0202772318997679
65000001 0.611037160705798 -0.757221968761398 -0.744075918452652 2.03913876049928 0.00112691599095125 0.000611482219084833 0.478555052213414 -0.00575869947789476
66000001 0.59657560293873 -0.768066327817248 -0.739319161509492 2.03088671276705 0.00137903318197779 0.000709499153423172 0.493975209519964 -0.00322609023258536
67000001 0.581658617065609 -0.778797395272729 -0.744588338132103 2.02233042277819 0.00145969012672245 0.000630956748671934 0.499642474820173 -0.0263101921637261
68000001 0.566780309492129 -0.789086701623356 -0.756579355860022 2.01767375514978 0.00131872662611014 0.000229986334883079 0.501163133110338 -0.0468334811097068
69000001 0.551143895400606 -0.798842396549851 -0.766665602361351 2.0163701726383 0.0011770292731807 0.000509699959466987 0.507916291063855 -0.0498731138978923
70000001 0.535524393501427 -0.809443317926667 -0.770429521021182 2.01965930827443 0.00109665523099127 0.000379657035623228 0.519491454829465 -0.0472259019055997
71000001 0.519838573018711 -0.819433269395064 -0.774304670001341 2.02499353872212 0.00128393132179216 0.000729984842030863 0.530438165576949 -0.0398935343490093
72000001 0.503882772489598 -0.829225045218489 -0.779616617492469 2.03246147391423 0.00147500172137996 0.000696358362530618 0.548808095165998 -0.0295978473962295
73000001 0.487952140359939 -0.8379549800181 -0.784110161537202 2.04493747791853 0.00151326057548827 0.000407227059256093 0.559656069477061 -0.0254414709706225
74000001 0.471719320167948 -0.846705060227828 -0.788385686809433 2.05874414289508 0.00095393717566333 0.000634805493827838 0.568512102753048 -0.0226197336195888
75000001 0.455626696733924 -0.855564327863826 -0.792574235515347 2.07360090741111 0.00121930607378619 0.000373084956022257 0.590377460932258 -0.0136445083218253
76000001 0.438926707601403 -0.863312725647488 -0.795201420527574 2.09417492966274 0.00122708289233822 0.00103678754581359 0.600221495448812 -0.0152727968965125
77000001 0.422761617335341 -0.871562276078566 -0.797321613664243 2.11241462153259 0.00133909004377789 0.000630419426361027 0.608079747624933 -0.0177745417743116
78000001 0.40622597288273 -0.879079033273843 -0.798243423759905 2.13573166398046 0.00124215261314657 0.000785448674341841 0.617698090147649 -0.0139404624954594
79000001 0.389299156309964 -0.885979342082294 -0.796553570251268 2.16184572672106 0.00152797469052072 0.000762233365940716 0.630056820613564 -0.0124723802529263
80000001 0.372336898627023 -0.892630248201311 -0.793811232911089 2.18889514009632 0.00164498769400575 0.000835449880323978 0.639545852003403 -0.010603746158431
81000001 0.354834658566957 -0.899132246468492 -0.790800546131205 2.21685856929575 0.00131713685806061 0.000719546523580591 0.642523087990737 -0.00590892729590334
82000001 0.337727769848027 -0.905280736578722 -0.782155486367753 2.24111045659127 0.00154347170674344 0.00113040181725761 0.647917782700544 -0.00801324817186129
83000001 0.320180072990719 -0.911171463699631 -0.773774574119554 2.26698507141521 0.00145220917540853 0.00120694255675428 0.655377823012396 -0.00747278737248409
84000001 0.302709924987408 -0.916572675686976 -0.763026157568246 2.29052545373239 0.00157371766789774 0.00113628720010192 0.655631274701461 -0.0130538287143015
85000001 0.2854750042402 -0.921834596864181 -0.747166351427518 2.30739651236213 0.00169790387101126 0.000755081107439529 0.658618970045072 -0.0253069868057638
86000001 0.26724059790265 -0.927068333191121 -0.735414881913883 2.31742894613595 0.00162297459074411 0.000938701914925895 0.657462599437015 -0.0356567076387321
87000001 0.249801391772348 -0.931997195858759 -0.727343802749023 2.32077324052804 0.00158802205647631 0.00106514254888075 0.652106796124227 -0.0446261029002051
88000001 0.232289310445043 -0.936684414025929 -0.728559594122611 2.33059245762961 0.00168586017934756 0.000339705719219331 0.644622938193557 -0.0538067766927708
89000001 0.214676681766582 -0.940865468854088 -0.738041305152706 2.35881953461733 0.00183842659172847 0.000702437560338334 0.634661870454076 -0.0627642953255655
90000001 0.197161692711073 -0.944698093980175 -0.743740478122851 2.40577584580885 0.0017792772090453 0.000465814097125166 0.624912263754778 -0.0674002425486735
91000001 0.179441273072272 -0.948030898016038 -0.746073378059987 2.45971949989547 0.00181622149025889 0.000578387042770787 0.616789113125726 -0.0758266798294161
92000001 0.162386894395589 -0.951161338755675 -0.741954901716401 2.5151002764853 0.00154146797412109 0.000681992883216384 0.604543560920991 -0.0739018767683595
93000001 0.144567000510848 -0.953908690883311 -0.735954555770508 2.57418168567744 0.00144768525145916 0.000822187900675605 0.596748494237635 -0.0820778456346791
94000001 0.127366361669278 -0.956321638374167 -0.724240698725036 2.63439146623108 0.00126454960260548 0.000748361755760806 0.584805737127697 -0.0905433688731545
95000001 0.109808982219104 -0.958444587194712 -0.708040248393099 2.69126268390394 0.0014562214956298 0.000879947860393304 0.575456158542572 -0.101955322839656
96000001 0.0922132009045627 -0.960366081321157 -0.690671460335094 2.74804872408904 0.00148729637219889 0.000677062332715649 0.5673379074418 -0.115216947834245
97000001 0.0749146065873409 -0.961951682227607 -0.66909883282291 2.80416359706295 0.00148125316059605 0.000616580111664783 0.560284914252858 -0.126611150891222
98000001 0.057366994801245 -0.963151016943051 -0.644740078128967 2.86179385798621 0.00131016780455454 0.000717711649863518 0.557347582727019 -0.139962786098321
99000001 0.0400715862974225 -0.963653566451682 -0.612969828935058 2.91954004215487 0.00109485278446466 0.000618837720811468 0.556110345497548 -0.152330856858044
100000001 0.0226500354441328 -0.964542346577567 -0.58227919255974 2.97347636528946 0.00119487076811083 0.000583286292188775 0.556616372864711 -0.165613800656666
