# HZ S RI R 50
1 -0.8265397877541537 -0.26782082749281005 0.008194438042565966 0.054555055847353075 0 0 0 0
1000001 -0.01023526215804296 0.026690306293999967 0.021649587767245675 0.05859649306684398 0 0 0 0
2000001 -0.007486470292679188 0.027756749766459293 0.009811262158073255 0.07047218680373919 0 0 0 0
3000001 -0.011056202327783291 0.027636490741052712 -0.001139564333385876 0.08285537287816137 0 0 0 0
4000001 -0.008304762852155171 0.028021740736526815 -0.010820310183053147 0.09639431280372854 0 0 0 0
5000001 -0.007630522419146313 0.02774308099447146 -0.019820382718963542 0.1107843205037906 0 0 0 0
6000001 -0.006843147164930027 0.02721584382788682 -0.027675050939213682 0.12573751227017582 0 0 0 0
7000001 -0.006440083186201051 0.02658776305905061 -0.034260038386888195 0.14161229544929713 0 0 0 0
8000001 -0.005256422227926744 0.026282427186780036 -0.040030097847039384 0.1580750622231665 0 0 0 0
9000001 -0.005288860620219278 0.025755101750046337 -0.044474393537585956 0.17559600504970685 0 0 0 0
10000001 -0.005042092533351336 0.0246147803823466 -0.04787302796637038 0.19334833605564333 0 0 0 0
11000001 -0.004340541972798229 0.023785785377946768 -0.04987686050672937 0.21205080355503528 0 0 0 0
12000001 -0.0038364401420960415 0.022967857821677918 -0.05048798456268454 0.23134869781307915 0 0 0 0
13000001 -0.0036512208561778558 0.022348469331794036 -0.049919001652429164 0.2510247560984534 0 0 0 0
14000001 -0.0035164102065670445 0.02141946387729643 -0.04772058716750927 0.27140614830652904 0 0 0 0
15000001 -0.0029557015718299474 0.020603878712657935 -0.043979307258174324 0.29223010385983367 0 0 0 0
16000001 -0.002395756509398814 0.019778623842458747 -0.03857855625162761 0.313393385773265 0 0 0 0
17000001 -0.002674317940105907 0.019012158399856257 -0.031602691436880985 0.33481984921583885 0 0 0 0
18000001 -0.002135674293290337 0.018217873963137534 -0.022662339877590774 0.3566361113142084 0 0 0 0
19000001 -0.0018341672090503654 0.017352199606802374 -0.011745891632326323 0.37852488348633573 0 0 0 0
20000001 -0.0017333632845459178 0.01657064471480309 0.0008293373382305745 0.40064388663864525 0 0 0 0
21000001 -0.0014301169981235492 0.01587454603136448 0.015707628835602477 0.42240348837832875 0 0 0 0
22000001 -0.0012316315339695886 0.01523349091379784 0.03281530282714081 0.44398004287117887 0 0 0 0
23000001 -0.0013449949154914198 0.014592022544382318 0.052100134967083454 0.46531114030036896 0 0 0 0
24000001 -0.0009447336329875504 0.013910350887256525 0.07383386163539024 0.4858191441779527 0 0 0 0
25000001 -7.2670106419371e-05 0.012862285536381834 0.09789505404420845 0.5052861015419796 0 0 0 0
26000001 0.0004899570211670674 0.012000862581979162 0.12463667037502736 0.5236984708240603 0 0 0 0
27000001 0.0009261271546309314 0.011202959431237319 0.15360577126659214 0.5412777118395227 0 0 0 0
28000001 0.0014407680804586218 0.010301280739983074 0.18512648176834046 0.5566381432745588 0 0 0 0
29000001 0.002078562193590876 0.009411497465048931 0.21915288352938816 0.570631086963807 0 0 0 0
30000001 0.00311673129859524 0.008334130882448903 0.25550580912429305 0.5817941226002433 0 0 0 0
31000001 0.0036510518584561445 0.006901591582956563 0.29394285520408997 0.5907148003081014 0 0 0 0
32000001 0.0047325544075423765 0.005819487863887338 0.3346315157170854 0.5962755998924297 0 0 0 0
33000001 0.005661720964536876 0.004240767848237739 0.37698550614186493 0.5989940684510592 0 0 0 0
34000001 0.006353584372212485 0.002201817962506764 0.42094093246861425 0.5980398875643844 0 0 0 0
35000001 0.007329073237040969 0.00015197186469128576 0.465754720199207 0.5926961281758123 0 0 0 0
36000001 0.006606223634699606 0.0005405385090355421 0.5127435644369542 0.5846622126458735 0 0 0 0
37000001 0.008726942708540271 -0.0049947335776802096 0.5577268985897842 0.57025408862951 0 0 0 0
38000001 0.00910467815168131 -0.007764559934838557 0.6033865036235752 0.5524387750328484 0 0 0 0
39000001 0.008640007775545267 -0.010971524443299843 0.6484867058544335 0.5300222336968946 0 0 0 0
40000001 0.008869034191870457 -0.014540505143933152 0.6918762857724151 0.5032493863149687 0 0 0 0
41000001 0.008266482175236456 -0.01788193455644726 0.7335648707974517 0.4720890892083581 0 0 0 0
42000001 0.007153351555819994 -0.02168459942766153 0.7728216333042913 0.4367953122953705 0 0 0 0
43000001 0.0054677653618793835 -0.025476786601183802 0.8089497954921888 0.3978453809599299 0 0 0 0
44000001 0.0034128222163080776 -0.028902910924317248 0.8420546322329499 0.35528471594197264 0 0 0 0
45000001 0.0008259718189924169 -0.03256001707803117 0.8712608644284984 0.30974809549331084 0 0 0 0
46000001 -0.002708328322904679 -0.035802478841977486 0.8967561682567365 0.26219456103299693 0 0 0 0
47000001 -0.006142261335114164 -0.03859859847080006 0.9174851993749494 0.21193144323858726 0 0 0 0
48000001 -0.010478621184623407 -0.0403984542188076 0.9345161145317108 0.1600733825223262 0 0 0 0
49000001 -0.014800835104914903 -0.041661621325569366 0.9468315436159034 0.10732556896546354 0 0 0 0
50000001 -0.01884662260571457 -0.04444182217682322 0.9537992769398334 0.05404818679067391 0 0 0 0
51000001 -0.023230887449291034 -0.0449612580938971 0.9565321836682404 0.000818240597961109 0 0 0 0
52000001 -0.026967454039062633 -0.045345859746125206 0.9547600027502626 -0.05239475429175393 0 0 0 0
53000001 -0.032226723083049594 -0.04491983482895117 0.9492298803090075 -0.10371218415415229 0 0 0 0
54000001 -0.036809653604473795 -0.044230963703838166 0.9391604365704779 -0.1544879532907219 0 0 0 0
55000001 -0.03895357432364446 -0.0407566056897724 0.9258368569073473 -0.20502807300868167 0 0 0 0
56000001 -0.0445007102392628 -0.04128145512066236 0.9086403010452048 -0.2505189961292255 0 0 0 0
57000001 -0.04786489717946145 -0.03930677776293948 0.8882756081957995 -0.29464271218330806 0 0 0 0
58000001 -0.05121411117743858 -0.037097936116911374 0.8652904856811117 -0.3368134122773818 0 0 0 0
59000001 -0.05367205576690694 -0.03441708192122987 0.8395066419849244 -0.37627321081251885 0 0 0 0
60000001 -0.05617636834026404 -0.03200125337584823 0.8119803394831004 -0.4124516288749088 0 0 0 0
61000001 -0.058183022803808444 -0.029283327899654217 0.78251134897622 -0.4460992740462617 0 0 0 0
62000001 -0.059937802865693716 -0.0267217867352186 0.7519483666644787 -0.47604518433039006 0 0 0 0
63000001 -0.061151555303767355 -0.024029126819516106 0.7200095170896365 -0.5038406026036778 0 0 0 0
64000001 -0.06216549731601653 -0.0214267457808442 0.6873013054546123 -0.5287492259200716 0 0 0 0
65000001 -0.0632082247730195 -0.018360262069864776 0.6545318669739257 -0.551016479664444 0 0 0 0
66000001 -0.06364702419429313 -0.016140917493832903 0.6211704332366886 -0.569934457629496 0 0 0 0
67000001 -0.06374798123976996 -0.013668140040021062 0.5877436428014874 -0.5868574181908832 0 0 0 0
68000001 -0.06385466379060095 -0.011269958469704093 0.5548519128136474 -0.6011433456138319 0 0 0 0
69000001 -0.0635743547281698 -0.009503542267795628 0.5218944589588207 -0.6132049467645929 0 0 0 0
70000001 -0.06350789021346649 -0.0076975924630206 0.48987668986632904 -0.6228302125457817 0 0 0 0
71000001 -0.06317020608252953 -0.005891347143973072 0.4583143114182349 -0.6307841063439106 0 0 0 0
72000001 -0.06260909702142761 -0.004200535119265422 0.42695741180240054 -0.6371194731890673 0 0 0 0
73000001 -0.062151897433142936 -0.0028179293169887194 0.3969467487140023 -0.6413236101110776 0 0 0 0
74000001 -0.0616539357128374 -0.0013196016016308494 0.36786846406938895 -0.6444377717144845 0 0 0 0
75000001 -0.061177584961364266 -0.0003237985474563645 0.339427449773232 -0.6460080909693416 0 0 0 0
76000001 -0.06038593391830126 0.0009352259558642286 0.31184229724698354 -0.6462131998594844 0 0 0 0
77000001 -0.059748075224819806 0.0021554790285044636 0.28500613365290844 -0.6454865237814312 0 0 0 0
78000001 -0.05804452021713526 0.0031139331398797143 0.2588538708445838 -0.6432858843198095 0 0 0 0
79000001 -0.05874946404201667 0.0034453710902571334 0.23458952103142316 -0.6405328887714583 0 0 0 0
80000001 -0.05734573310072194 0.003695440759883397 0.21041642680568068 -0.6367370260687483 0 0 0 0
81000001 -0.05763559853759492 0.004650741104964095 0.18764225059460848 -0.6325020071591291 0 0 0 0
82000001 -0.057209189428387604 0.005286277669730639 0.16559903984614313 -0.6274810989833435 0 0 0 0
83000001 -0.055438808483300996 0.005645741836417903 0.1438567226633905 -0.6216472168428273 0 0 0 0
84000001 -0.055974950682672386 0.00542906459027367 0.12383699651931718 -0.6151768547490809 0 0 0 0
85000001 -0.05599102972905978 0.006451924947660103 0.10419820830940486 -0.6090130200032258 0 0 0 0
86000001 -0.05545917071393929 0.0066749264810230975 0.08539376038785908 -0.6018867810653342 0 0 0 0
87000001 -0.05531636488262638 0.006842849937820586 0.0674486733728019 -0.5945450539058843 0 0 0 0
88000001 -0.05509870213297028 0.007149336153689744 0.050323872123216644 -0.586708004803202 0 0 0 0
89000001 -0.054945754625740646 0.007382878711374873 0.03413579982940028 -0.5786026777228764 0 0 0 0
90000001 -0.05437854986130355 0.0075950855878398945 0.01847348481665098 -0.5705564640053515 0 0 0 0
91000001 -0.05435106232289132 0.0076255825975032766 0.003184983925684665 -0.5620816028432476 0 0 0 0
92000001 -0.05433531876711331 0.007773857907832326 -0.010794212306024757 -0.5533000497125484 0 0 0 0
93000001 -0.054253844390545695 0.008082521355293148 -0.02451979524958796 -0.5448463554395888 0 0 0 0
94000001 -0.054201230188337605 0.00816341574302287 -0.03779743433838539 -0.5356972926382588 0 0 0 0
95000001 -0.054163512814261704 0.008327834777072031 -0.05004931318376368 -0.5266076800072319 0 0 0 0
96000001 -0.05435216916109026 0.008389753485531464 -0.06207933735533026 -0.5175138117814915 0 0 0 0
97000001 -0.05438307918964118 0.00847902627160369 -0.07327658925346756 -0.5083897172743841 0 0 0 0
98000001 -0.05455797001640362 0.008510702614224852 -0.084213223102163 -0.49933215681356813 0 0 0 0
99000001 -0.054875439551382944 0.008818205462178236 -0.09450707388590522 -0.48999027017940633 0 0 0 0
100000001 -0.05482372666338829 0.009115699844250551 -0.10439790159638955 -0.4807831816571767 0 0 0 0
