# HZ S RI R 50
1 -0.820127480483561 -0.2265887798856283 0.01619482222151434 0.060427987477375274 0 0 0 0
1000001 -0.010181059475227438 0.027374444733413432 0.02150641266790495 0.05866503833407227 0 0 0 0
2000001 -0.008689699099715772 0.028885246144008572 0.009864568103484959 0.0703825520629835 0 0 0 0
3000001 -0.009272799147598657 0.029307888933685283 -0.001062704910866966 0.08299663912172552 0 0 0 0
4000001 -0.008133522819996696 0.0291025455315197 -0.011033587857848168 0.09635615449378375 0 0 0 0
5000001 -0.00785027873493497 0.02963218784314221 -0.01994546772298129 0.11095097826401856 0 0 0 0
6000001 -0.007204613210879311 0.029487339321516697 -0.028164663881484434 0.1258693606990266 0 0 0 0
7000001 -0.006551181496972117 0.029284599465698044 -0.03491766837948658 0.14171127064492528 0 0 0 0
8000001 -0.005864360725470844 0.029040689765398486 -0.04049117109860719 0.15833036529942268 0 0 0 0
9000001 -0.005268938007635825 0.0287224377659922 -0.04522844484312817 0.17583439221407837 0 0 0 0
10000001 -0.005262746540405537 0.02857575326749491 -0.04871234623596774 0.19385140033412307 0 0 0 0
11000001 -0.004454563124657377 0.02800270483826363 -0.05084206073945067 0.21258062158243304 0 0 0 0
12000001 -0.00402264249155165 0.02752859141047734 -0.05163074179481141 0.23198926157982253 0 0 0 0
13000001 -0.0035971763725886545 0.026688282729239458 -0.05109637955075576 0.2516942843461772 0 0 0 0
14000001 -0.003322714651946786 0.02637614300024061 -0.04895699255748607 0.272248404358159 0 0 0 0
15000001 -0.0027739834666889924 0.025875789240188105 -0.04524398417352579 0.29329878336223963 0 0 0 0
16000001 -0.0025038812929653828 0.02548639412082746 -0.04010378808411684 0.31426532231732374 0 0 0 0
17000001 -0.001908798584999862 0.025108551277487963 -0.03314373343513652 0.3360354001245252 0 0 0 0
18000001 -0.001475717083209444 0.02424362683635726 -0.024453892815734058 0.3579878783215328 0 0 0 0
19000001 -0.0011478472491413393 0.02364746462270478 -0.013849090325140468 0.3800491144832764 0 0 0 0
20000001 -0.0008369743686217934 0.023178639428411127 -0.0010876730828243352 0.4018816615855292 0 0 0 0
21000001 -0.0005476017370260722 0.02267100927847402 0.013481817074580642 0.42409286503563337 0 0 0 0
22000001 -0.00022259218023958622 0.02196527794423174 0.03041288350045838 0.44578444580194715 0 0 0 0
23000001 -7.333928009171704e-05 0.0213384803029654 0.049499646351418326 0.46721850533094583 0 0 0 0
24000001 0.00016133729035346727 0.02098089421826803 0.07085111244907825 0.4880991886151458 0 0 0 0
25000001 0.00040587686387254945 0.02051732386552478 0.09492041476094383 0.5082424632533988 0 0 0 0
26000001 0.0008357042752899787 0.019711805596442193 0.1211933903006377 0.5269521671767221 0 0 0 0
27000001 0.0013513257431374591 0.019454237817803408 0.1502554854328586 0.5447278349753297 0 0 0 0
28000001 0.0018237985965055097 0.018857902514430893 0.18156804724977738 0.5607224240112072 0 0 0 0
29000001 0.002187418750466356 0.018227985145555615 0.21550661142332003 0.5749380271117741 0 0 0 0
30000001 0.002725674415900983 0.017810611685848174 0.2517534744857885 0.5870424203846375 0 0 0 0
31000001 0.0032184887083271684 0.01722060991361218 0.2906024487888264 0.5966132629688545 0 0 0 0
32000001 0.0037523135328172696 0.01626578769631982 0.33117405121727633 0.6030594226253193 0 0 0 0
33000001 0.004435085232519129 0.015494366300332074 0.37398045822528864 0.606172315550881 0 0 0 0
34000001 0.005247767825531205 0.014533189370564832 0.41822247225875114 0.6060177758895312 0 0 0 0
35000001 0.006109907266393518 0.0133263158932307 0.463825503325078 0.601720721201225 0 0 0 0
36000001 0.006820002568814165 0.012182091837606117 0.5103250106907388 0.5932323732393037 0 0 0 0
37000001 0.007406294975440125 0.010717490045477247 0.5572520733779379 0.580292874147055 0 0 0 0
38000001 0.008365344426842662 0.008982537274393484 0.6040718295818973 0.5627659134388824 0 0 0 0
39000001 0.008788585202686524 0.0071875741835929225 0.650139958112397 0.5407251241891413 0 0 0 0
40000001 0.0092858934968986 0.00518519650266993 0.6949725398503436 0.5137437460719507 0 0 0 0
41000001 0.009527634737057863 0.002862441203317568 0.7377948328675734 0.48225629850682106 0 0 0 0
42000001 0.009384468031575352 0.0005011836352218079 0.7781846752836341 0.44676429789023503 0 0 0 0
43000001 0.009177439541268366 -0.0017050003013869349 0.8160768738156409 0.40677284793270424 0 0 0 0
44000001 0.00864171313078792 -0.004412113583742728 0.8495930530487067 0.36336003795537963 0 0 0 0
45000001 0.007601151798250738 -0.007032962508244978 0.8794577872251426 0.3163891724593035 0 0 0 0
46000001 0.006362992953554945 -0.009822268277131452 0.905100622322195 0.2671199657523178 0 0 0 0
47000001 0.0046464100275485495 -0.012078812184728364 0.9262867808226134 0.21561715678645488 0 0 0 0
48000001 0.002721246707191943 -0.014335085702423823 0.9421873658948483 0.1625348713343258 0 0 0 0
49000001 0.0005316529365890278 -0.016162006689052474 0.9539526564149948 0.10832180310294498 0 0 0 0
50000001 -0.0019784767341570067 -0.017828031556409475 0.9605498419705082 0.053986915408692306 0 0 0 0
51000001 -0.004690920918079323 -0.019304540255871 0.962216890842137 -0.0004839165155226184 0 0 0 0
52000001 -0.005033720347584407 -0.017677100562736116 0.9597254782209785 -0.05551631641792753 0 0 0 0
53000001 -0.010547697921440252 -0.021032037323116787 0.9526376304729207 -0.10604084888383666 0 0 0 0
54000001 -0.013426888248631363 -0.021062240020245752 0.9415299131973675 -0.15705419610951882 0 0 0 0
55000001 -0.016295485952716463 -0.021052024989646072 0.9269033875161302 -0.2057969568021205 0 0 0 0
56000001 -0.019172406502947124 -0.019840184273995826 0.9086508811358166 -0.252562248177 0 0 0 0
57000001 -0.021583765783263084 -0.01998892985553902 0.8871584472101766 -0.29599366903159424 0 0 0 0
58000001 -0.02390651839591216 -0.01911185021306901 0.8630180625902673 -0.33737821479863517 0 0 0 0
59000001 -0.02496049796185308 -0.017070232217581048 0.8365587090246888 -0.37654683350932805 0 0 0 0
60000001 -0.028090435335015655 -0.016525320851008954 0.808451759841497 -0.4115770596101167 0 0 0 0
61000001 -0.029948337922833062 -0.015042625335656772 0.7786735108293297 -0.44404350858155756 0 0 0 0
62000001 -0.03147088468314928 -0.013453239161211984 0.7477554748085039 -0.4736715660745856 0 0 0 0
63000001 -0.032812639102540224 -0.011787445262380099 0.7159617969149429 -0.5007559018528606 0 0 0 0
64000001 -0.032261184776283515 -0.010257794601966113 0.6824782167246994 -0.5244267101279927 0 0 0 0
65000001 -0.03477248628888728 -0.008363269389703666 0.6501569666442335 -0.5453608399164519 0 0 0 0
66000001 -0.03520675741383583 -0.006622243606528539 0.6169871333287775 -0.5640377131036713 0 0 0 0
67000001 -0.035824565348807125 -0.0048813109582284955 0.5837439616145405 -0.580288578922961 0 0 0 0
68000001 -0.03592265790535036 -0.0031770276449020712 0.5509360745220143 -0.5939046442666437 0 0 0 0
69000001 -0.036000230068585944 -0.0017221885493243247 0.5185271093050755 -0.6052481126509396 0 0 0 0
70000001 -0.03612868961708899 -0.0001688814477338955 0.4868603385937033 -0.6146207892933081 0 0 0 0
71000001 -0.03587944047506373 0.0012281772271512665 0.45509035761907607 -0.6220920622350377 0 0 0 0
72000001 -0.03555942212845464 0.002314906898724543 0.4248169713121807 -0.6279544865958707 0 0 0 0
73000001 -0.03535109360579475 0.003487131724053337 0.3949853149708022 -0.6316382874585027 0 0 0 0
74000001 -0.034946774082919116 0.004691386743712437 0.36576842592733644 -0.6343395979964024 0 0 0 0
75000001 -0.03440474787654531 0.005721795893451829 0.3378428132885182 -0.6354846712966988 0 0 0 0
76000001 -0.03388812332772511 0.006614201549435477 0.31077538839560653 -0.6356184090491365 0 0 0 0
77000001 -0.033103272858804746 0.007260145299472163 0.28445699795307705 -0.6342475143790046 0 0 0 0
78000001 -0.03269503876258402 0.008103277611570248 0.25895592646970866 -0.6319476937812973 0 0 0 0
79000001 -0.031975089313897684 0.008728505433849766 0.23444106947746618 -0.6291705017749981 0 0 0 0
80000001 -0.031209859000291985 0.009249850001389313 0.21082927386043132 -0.6247364720333993 0 0 0 0
81000001 -0.030868020714553298 0.009950102190242251 0.18804560703101067 -0.6204226851879505 0 0 0 0
82000001 -0.03010230769208931 0.01035151563497117 0.1663036257525842 -0.6149418871703657 0 0 0 0
83000001 -0.029443793215539527 0.010621580592816069 0.14538240019834583 -0.6090948993689612 0 0 0 0
84000001 -0.02882839734685853 0.010983006976346544 0.1253562224400284 -0.6027862468654384 0 0 0 0
85000001 -0.028220639962504797 0.01119742006363368 0.10598341425286394 -0.5955978268789881 0 0 0 0
86000001 -0.027532386366190632 0.01160657131020064 0.0876003853613688 -0.5886043805907991 0 0 0 0
87000001 -0.026931694662520198 0.011418775135880212 0.0701608275515644 -0.5809526648086805 0 0 0 0
88000001 -0.026415327463342884 0.011588328272412496 0.05335103980854282 -0.5730044980370138 0 0 0 0
89000001 -0.025901034723271033 0.01172582390066275 0.037538181892738845 -0.5648797840093107 0 0 0 0
90000001 -0.025287261930529156 0.011609542696656436 0.022034071606537125 -0.5562296317392547 0 0 0 0
91000001 -0.02484255402751005 0.01170470405987263 0.0076214332515216155 -0.5479054685232773 0 0 0 0
92000001 -0.02437405804071048 0.011642459741764831 -0.006326458920200871 -0.5389155096993052 0 0 0 0
93000001 -0.024069018499056773 0.011260388854660632 -0.01964192981107939 -0.5298971570024926 0 0 0 0
94000001 -0.023505570784282077 0.01150303743323688 -0.03231644032509299 -0.5208455921163822 0 0 0 0
95000001 -0.02313924994149255 0.0112758064015906 -0.04429024695437233 -0.5114629549570762 0 0 0 0
96000001 -0.022806466607774977 0.011146158425393578 -0.055679958182139055 -0.502702456906737 0 0 0 0
97000001 -0.022492600989031674 0.011020778569535167 -0.06676337901701844 -0.49316263669479565 0 0 0 0
98000001 -0.022244678776628356 0.010952064459370038 -0.076855067980399 -0.4840074523912216 0 0 0 0
99000001 -0.02191305955033151 0.010640515924296049 -0.08682982128797988 -0.4746375531018839 0 0 0 0
100000001 -0.021584161832674666 0.010695385643447844 -0.09618616312305743 -0.4650665756623276 0 0 0 0
