# HZ S RI R 50
1 0.5471111518977189 -0.07503553290013351 0.016988529798833574 0.0022176135629451412 0 0 0 0
1000001 -0.00863367342792654 0.00030992760682280705 0.040284668642264605 0.012106366290920162 0 0 0 0
2000001 -0.008820349507799636 0.0008472338204940523 0.040872507401657855 0.023876676946002394 0 0 0 0
3000001 -0.00885217041988147 0.00025971452443023375 0.04193153553555568 0.03557030011713316 0 0 0 0
4000001 -0.008399320513386531 0.0003285303078427112 0.042993094031454585 0.04719267107698245 0 0 0 0
5000001 -0.008284087223158513 0.0008503990256955502 0.0449067392949396 0.05892329445533436 0 0 0 0
6000001 -0.007654168996489596 0.0004711626995811947 0.04673722689578179 0.07050140550084175 0 0 0 0
7000001 -0.007796873696035242 0.0004001897728781765 0.04869492779458619 0.0821273779485499 0 0 0 0
8000001 -0.009856494867056097 0.00039034143033904694 0.0516104762540601 0.0937719246046328 0 0 0 0
9000001 -0.00735595470931116 0.002505402975385086 0.05443170497838574 0.10503628440222437 0 0 0 0
10000001 -0.0053179254485622674 0.00015360599069454587 0.05779040729301112 0.11641176668285941 0 0 0 0
11000001 -0.006333733218926587 0.0010892122113164912 0.06145758116137467 0.1279254410728887 0 0 0 0
12000001 -0.006249837095278822 -0.0005256068954753545 0.06538498962386537 0.13934535118781693 0 0 0 0
13000001 -0.005615340172494847 -0.00043264169086061296 0.06958822645408712 0.15066175225119707 0 0 0 0
14000001 -0.005336419612428049 -0.00046361950744408997 0.0736750641598335 0.16203125516142358 0 0 0 0
15000001 -0.00522620382536033 -0.001088869122130528 0.07909382220531791 0.17340609546029678 0 0 0 0
16000001 -0.005073166100081379 -0.0014203019545464958 0.08450615815135008 0.18419764042343667 0 0 0 0
17000001 -0.005208804187262302 -0.0020288828369070967 0.09013860400058012 0.19559368515596212 0 0 0 0
18000001 -0.004564755268702746 -0.002346985229444498 0.0963033910453796 0.207066065416981 0 0 0 0
19000001 -0.004423170002177736 -0.002707615535842409 0.1026927754622983 0.21802969855851592 0 0 0 0
20000001 -0.003970901345029835 -0.003103903165243067 0.10973965747880972 0.22903529982862506 0 0 0 0
21000001 -0.0037596688537427443 -0.0035973815088699655 0.11703805007907325 0.24022699166342257 0 0 0 0
22000001 -0.0036138043780666444 -0.0040355872690222665 0.12484940601059792 0.25081552981045496 0 0 0 0
23000001 -0.003278362061191657 -0.0045105051802448205 0.13316537751322616 0.2618106453537438 0 0 0 0
24000001 -0.0030005690320545004 -0.004856636750714399 0.14182188288588718 0.2725390497691397 0 0 0 0
25000001 -0.0025149906203558673 -0.005332221424389411 0.15105680604859173 0.2832044508932546 0 0 0 0
26000001 -0.002349703821596623 -0.0057571332555432396 0.16048835374959614 0.29384516061240135 0 0 0 0
27000001 -0.0021527615776848795 -0.0064627670560424766 0.17074489328225553 0.3039868071152398 0 0 0 0
28000001 -0.002156386136475126 -0.0072682330825045134 0.1813350660028902 0.3140743210036444 0 0 0 0
29000001 -0.0018883225820168084 -0.007810529407861088 0.19245644235387616 0.324250333478441 0 0 0 0
30000001 -0.0015176438095724817 -0.008176572256390173 0.20427436527478635 0.3338348413186274 0 0 0 0
31000001 -0.0013667394748177178 -0.008973711145349868 0.21635603020644212 0.34340048571507004 0 0 0 0
32000001 -0.0011446808676099853 -0.009667003716747962 0.22923043577695632 0.3527934769599514 0 0 0 0
33000001 -0.0009520569681075343 -0.010204043237023635 0.24246011390066688 0.36162603189118175 0 0 0 0
34000001 -0.0009758783148362098 -0.011135690229955336 0.2564793111091707 0.37078059012510717 0 0 0 0
35000001 -0.0006635688557437904 -0.012013481891619734 0.2710729509821969 0.379144063975544 0 0 0 0
36000001 -0.0005909988089000419 -0.01263068620390115 0.2864188062612812 0.38697484141130534 0 0 0 0
37000001 -0.0005425029040699798 -0.01369439877419604 0.30215539282249254 0.394645737583126 0 0 0 0
38000001 -0.00046922588582670136 -0.014528389608703767 0.3183586417122488 0.4016607283138323 0 0 0 0
39000001 -0.0005904775399452524 -0.015272682324846036 0.3353454289092256 0.4080870994367311 0 0 0 0
40000001 -0.00040747474375620453 -0.016519203134454905 0.35306017173329884 0.41428641958335266 0 0 0 0
41000001 -0.00046021104033813445 -0.017564042380848625 0.37129335320895207 0.4200824542773104 0 0 0 0
42000001 -0.0004632846825767191 -0.018452465162793703 0.39026138058841303 0.4249662969700534 0 0 0 0
43000001 -0.0007013545809869074 -0.019831601323637166 0.4092987197996064 0.42916079090370146 0 0 0 0
44000001 -0.0008263818542318487 -0.02104629068562251 0.42947526757709986 0.4324996795205429 0 0 0 0
45000001 -0.001218240163774359 -0.021953571199412523 0.45002728768782296 0.43535899133218986 0 0 0 0
46000001 -0.0015517406207188802 -0.022962051063248223 0.47151088105459693 0.4369959976198506 0 0 0 0
47000001 -0.0017741781635221873 -0.02445597765161611 0.49326397821028944 0.4382544823199134 0 0 0 0
48000001 -0.0026445653243150997 -0.02539911304925004 0.5156885629402921 0.43785190767497584 0 0 0 0
49000001 -0.0032096961480357193 -0.02650832407765503 0.538638375505686 0.4369444540670359 0 0 0 0
50000001 -0.0036252777888457636 -0.02765407837428431 0.561645452807389 0.43450415406429177 0 0 0 0
51000001 -0.004483698349063562 -0.02925683545053821 0.5855621010038744 0.4308930633971201 0 0 0 0
52000001 -0.00548755373128948 -0.030263973946779092 0.6091104370851363 0.42623644929169513 0 0 0 0
53000001 -0.006549588467382893 -0.03147525018757272 0.6334266538799287 0.4202231294085213 0 0 0 0
54000001 -0.007441812462712764 -0.03259763809594571 0.65788856025995 0.41279242010416745 0 0 0 0
55000001 -0.008768554269819113 -0.03340516267076415 0.6824000767309587 0.40403623946181894 0 0 0 0
56000001 -0.009781527859843547 -0.03443942314308135 0.7070846919881165 0.39349938806828216 0 0 0 0
57000001 -0.011339620167935927 -0.03566610459058976 0.7313366550964605 0.3816600791975561 0 0 0 0
58000001 -0.013012717475241183 -0.03651865456634694 0.7550889104284464 0.36792079287220797 0 0 0 0
59000001 -0.014691930620484886 -0.03737925674273057 0.7789209506599658 0.3526691636321103 0 0 0 0
60000001 -0.016245504386893483 -0.038302739735238255 0.8020531668894574 0.3355673035483068 0 0 0 0
61000001 -0.017927358468517392 -0.03861872892712458 0.8245070341770688 0.31750176311624534 0 0 0 0
62000001 -0.019652499009288286 -0.03917314329381611 0.8456719015104293 0.2972952778582731 0 0 0 0
63000001 -0.021704332160132466 -0.03935337844645585 0.86718860974847 0.2755106636659485 0 0 0 0
64000001 -0.02385926073696612 -0.03944214559413632 0.8864808734613925 0.25220165131225913 0 0 0 0
65000001 -0.025767613687457534 -0.03960617986382945 0.9048609007442692 0.22794552778229557 0 0 0 0
66000001 -0.02763616399687819 -0.0392783456395381 0.9222915994391824 0.20133564987484528 0 0 0 0
67000001 -0.029444432173810847 -0.038957151971183206 0.9368123197889382 0.17407886271781323 0 0 0 0
68000001 -0.03184581677795424 -0.038552214529944576 0.9507743005052419 0.1455673204553709 0 0 0 0
69000001 -0.03345834184718599 -0.0378218833002952 0.9621485330808873 0.11603657594907603 0 0 0 0
70000001 -0.035129081671761556 -0.03669215209660677 0.9723228710413709 0.08593122242495943 0 0 0 0
71000001 -0.037067652952962445 -0.03595520587670669 0.9800786460030487 0.05511441201073661 0 0 0 0
72000001 -0.038680057538884614 -0.03494853534229108 0.9855077807749669 0.023838917439637036 0 0 0 0
73000001 -0.04024574557743303 -0.03347254623037905 0.9892705908767272 -0.008435738424424438 0 0 0 0
74000001 -0.04140680511597766 -0.031738852597190885 0.9907360399351003 -0.03991850854077496 0 0 0 0
75000001 -0.04284638036111204 -0.030715291471251075 0.9907315166949348 -0.07178635005768025 0 0 0 0
76000001 -0.04397237933890878 -0.028809902171714794 0.9879453468819119 -0.10260156264772106 0 0 0 0
77000001 -0.04481740428085634 -0.027351242975571823 0.9829286161601422 -0.13391112347298254 0 0 0 0
78000001 -0.04542619873750846 -0.025693688588454392 0.9760258395424551 -0.16350037234432985 0 0 0 0
79000001 -0.04601483559887752 -0.02414902400152406 0.9684559203856944 -0.19286564753916094 0 0 0 0
80000001 -0.04659957399771735 -0.02239075711944286 0.9588337755475812 -0.22052756637517443 0 0 0 0
81000001 -0.046573733816465075 -0.020515058855472355 0.9467107924403702 -0.24804687682113286 0 0 0 0
82000001 -0.04668599190084899 -0.01881235285686351 0.9332422980009685 -0.27410467743418176 0 0 0 0
83000001 -0.04699256841218886 -0.017166662826144725 0.9196649836349056 -0.29838086713242323 0 0 0 0
84000001 -0.04700907343910859 -0.01588983342860511 0.9042473497050995 -0.32170853151900886 0 0 0 0
85000001 -0.04658450932570341 -0.01417484445341549 0.8878291314324765 -0.3434127575544901 0 0 0 0
86000001 -0.046005904060298995 -0.012493922340317034 0.8712009585553375 -0.36356511762792015 0 0 0 0
87000001 -0.04544137406041865 -0.011560185982726817 0.8536870499421833 -0.3827818873579451 0 0 0 0
88000001 -0.044884022850252864 -0.010158255576005722 0.8352401788662884 -0.3999627052102865 0 0 0 0
89000001 -0.04425289171513931 -0.009199546783483566 0.8168799093077099 -0.4161825429134455 0 0 0 0
90000001 -0.04349620352185332 -0.007947842795674108 0.7980240736036359 -0.43071185672874707 0 0 0 0
91000001 -0.04258556591560497 -0.006568654907690259 0.7790752360752283 -0.4443979423533466 0 0 0 0
92000001 -0.04166441854925078 -0.006499851201300486 0.7598366426856972 -0.4560212762454339 0 0 0 0
93000001 -0.040699257109787786 -0.0055531969036461916 0.7408647718194761 -0.46662883077674366 0 0 0 0
94000001 -0.03976476370877487 -0.004955878413663924 0.7222655002408952 -0.4762120002528214 0 0 0 0
95000001 -0.03889570400868028 -0.00469231065085559 0.7036885794107767 -0.4845524886558727 0 0 0 0
96000001 -0.03817595799622447 -0.004091008271488299 0.6851293643853525 -0.49169771991232714 0 0 0 0
97000001 -0.03702480786258018 -0.0035580952092878564 0.6666714341105088 -0.4987046529771415 0 0 0 0
98000001 -0.036185116429338055 -0.0035513783896097893 0.6489636500724083 -0.5038286121093566 0 0 0 0
99000001 -0.03525930705832247 -0.0035776069856000396 0.6317464181480488 -0.5084862667764709 0 0 0 0
100000001 -0.03439584974490065 -0.0035830444703916923 0.6147194712131915 -0.5123266366355063 0 0 0 0
