# HZ S RI R 50
1 0.43131832462493336 -0.1892660397402427 0.018050521630282 0.007653621696649621 0 0 0 0
1000001 -0.008129522860527191 0.0002682546108787133 0.031378502116458686 0.008178964414718612 0 0 0 0
2000001 -0.00843030357980496 0.0004376351826749142 0.031474013388567354 0.01629888482621722 0 0 0 0
3000001 -0.008388708211045516 -5.3371607076816e-05 0.03197615883572436 0.02423676568508319 0 0 0 0
4000001 -0.008175441411152418 6.839561287834154e-05 0.0324536333985566 0.03235451407992381 0 0 0 0
5000001 -0.00670319767269316 0.0005085105204449815 0.033506040014885385 0.04033700485488774 0 0 0 0
6000001 -0.007402658264141271 0.0008985475442280415 0.0342434053845959 0.048404340970270916 0 0 0 0
7000001 -0.007841327045924884 0.000493974154878017 0.03536615673342717 0.056471132057198795 0 0 0 0
8000001 -0.010045103806052792 0.0005391445070238754 0.03680912408615371 0.06436977532363039 0 0 0 0
9000001 -0.007820570181780541 0.0025760217896146523 0.03817826490771607 0.07243642880602953 0 0 0 0
10000001 -0.005313533455182683 0.00032134685608441546 0.03999919737393562 0.08010083322626552 0 0 0 0
11000001 -0.0067130991087611305 0.0015046115578941602 0.04161594160752888 0.08818446671936747 0 0 0 0
12000001 -0.006715326594330454 9.136633739618809e-05 0.043577842136802616 0.09602304087198928 0 0 0 0
13000001 -0.00603364578014258 0.00028322312298215683 0.04582873062199137 0.10383840703624896 0 0 0 0
14000001 -0.006181310452587277 0.00035627752968360926 0.047873690708352006 0.11165847235022026 0 0 0 0
15000001 -0.005892941705107813 -0.00013212115522702377 0.05051789224233811 0.11947595250477433 0 0 0 0
16000001 -0.005440113487588432 -1.5599675967210843e-05 0.0531931694627747 0.12704734922461766 0 0 0 0
17000001 -0.005737359933188412 -0.000538867550809042 0.05599800987313588 0.135063015858264 0 0 0 0
18000001 -0.005117075414232607 -0.0004512695801506129 0.0589047651340861 0.14308160487521338 0 0 0 0
19000001 -0.00491025561839388 -0.0004132791027893355 0.06201865146269233 0.15070048635196226 0 0 0 0
20000001 -0.004169561189584223 -0.0007883576206860997 0.06547168304924678 0.15830220306678727 0 0 0 0
21000001 -0.004288663952475182 -0.0007469350583478995 0.06896712021739809 0.16614386626468233 0 0 0 0
22000001 -0.004157383564158182 -0.000871994453946549 0.07247969667835608 0.17367260437378038 0 0 0 0
23000001 -0.0035700579997589594 -0.0011125031053062328 0.07654194896118924 0.18141459914451424 0 0 0 0
24000001 -0.00312931187037805 -0.0008652832851186611 0.08047026170785354 0.1889726367627068 0 0 0 0
25000001 -0.002778907906990035 -0.0013566946657233795 0.0848621292195343 0.19670606527286943 0 0 0 0
26000001 -0.00200589705464649 -0.0013227396168932074 0.08925811546955878 0.20420049032120705 0 0 0 0
27000001 -0.0018042619399226169 -0.001326678389105876 0.0939891048726708 0.2114505149133113 0 0 0 0
28000001 -0.001448624820545505 -0.0017780918652225508 0.09868491174453112 0.21900392106791144 0 0 0 0
29000001 -0.0008269281410106021 -0.001562967192208726 0.10392091832322609 0.22655754873915923 0 0 0 0
30000001 -0.0003834356507168243 -0.0016356049054229212 0.10928334708355163 0.2337076657072928 0 0 0 0
31000001 1.8415791695354296e-05 -0.0019513169447007012 0.11468202626712946 0.24097059096716153 0 0 0 0
32000001 0.0006344835538442619 -0.002136506457312366 0.12038751907390408 0.24812460156576044 0 0 0 0
33000001 0.0012051417408223788 -0.0019896834428655375 0.12607708270961776 0.2552606074003395 0 0 0 0
34000001 0.0017405089808299435 -0.002222844821796907 0.1323822804828224 0.26253191439137574 0 0 0 0
35000001 0.002372829160933284 -0.002529737353711195 0.1387315383917529 0.26955264220869385 0 0 0 0
36000001 0.0029756042737182887 -0.0024467392668140043 0.14551018818443376 0.2765228820338771 0 0 0 0
37000001 0.0036130569272555856 -0.0028746077544665152 0.1523461297533693 0.28325819769614813 0 0 0 0
38000001 0.004511865461135433 -0.0028566447401507525 0.15924996428266922 0.29004637433264624 0 0 0 0
39000001 0.004851192912600896 -0.003108716520661529 0.1664444639757522 0.2964710032124608 0 0 0 0
40000001 0.005945171561597546 -0.003631243636857219 0.17386668067849742 0.30304459186048943 0 0 0 0
41000001 0.006764079182214488 -0.0036789566729965944 0.18157479501413293 0.3098299494175247 0 0 0 0
42000001 0.007525540997709451 -0.003809352766376641 0.18963966227654877 0.3158729684112706 0 0 0 0
43000001 0.008339247632116194 -0.0041187864462067176 0.19743676244044212 0.32232097892707745 0 0 0 0
44000001 0.009287006797860544 -0.004574118212311808 0.20584590750643722 0.32815502711548006 0 0 0 0
45000001 0.010022996257720882 -0.00476590554124545 0.21456664910570933 0.33410444380718324 0 0 0 0
46000001 0.011001009138666692 -0.004936813112532798 0.22362021668041418 0.3398534832917858 0 0 0 0
47000001 0.012028142225460307 -0.0056150733749038015 0.23274654667051295 0.34560258856510995 0 0 0 0
48000001 0.01289280151664342 -0.005801324819510186 0.24207556204366518 0.35067331992258227 0 0 0 0
49000001 0.014233148956846306 -0.006132239299407434 0.2517168359874787 0.35607993377016417 0 0 0 0
50000001 0.015346508379068207 -0.006544130915913139 0.2612132780011615 0.3610436931775599 0 0 0 0
51000001 0.01637447687282991 -0.0072310200891668565 0.27128857595165645 0.36591721241310854 0 0 0 0
52000001 0.017478178329882663 -0.0073624327336038456 0.2816244689352693 0.3704598744779972 0 0 0 0
53000001 0.018655453987193232 -0.008424480867718919 0.29213863904522913 0.3752814385598986 0 0 0 0
54000001 0.020114539928656805 -0.008740416378541428 0.3030928091702573 0.3792088514466988 0 0 0 0
55000001 0.021341653888271646 -0.009239241741382305 0.31378212526027927 0.3836133907883861 0 0 0 0
56000001 0.022662326787142313 -0.010130185963092514 0.3250609023923405 0.3872426160591444 0 0 0 0
57000001 0.02401313959583336 -0.01108911935972891 0.3364116223397036 0.39086874147060774 0 0 0 0
58000001 0.025301655616060403 -0.011875807034616574 0.34808060744104347 0.3939600334254694 0 0 0 0
59000001 0.026726139825208377 -0.012908298664746203 0.3600117631263087 0.3969855085566147 0 0 0 0
60000001 0.028037573330145976 -0.013939473968721541 0.37217687493393575 0.3996834885808375 0 0 0 0
61000001 0.029740066692726445 -0.014847080272024788 0.3845885329662443 0.40217316913548273 0 0 0 0
62000001 0.031069806925902003 -0.01604887314646687 0.396789910312871 0.40417838092143105 0 0 0 0
63000001 0.03279568309722464 -0.017196280270320555 0.4096216338835001 0.406161666070413 0 0 0 0
64000001 0.034084095495812886 -0.018238469052657365 0.422512450434202 0.40773161990111445 0 0 0 0
65000001 0.03565685883850072 -0.01998927452786254 0.4354217018416897 0.4091463220577014 0 0 0 0
66000001 0.037269949941683075 -0.02130204404618053 0.4487599018843177 0.4097434551967189 0 0 0 0
67000001 0.03913840873211805 -0.02293344303140198 0.46216477681940754 0.4103618682439346 0 0 0 0
68000001 0.04045377445696025 -0.024777559324102843 0.4758337563186722 0.41050200927128694 0 0 0 0
69000001 0.04191685100054653 -0.02654553728776367 0.48969835775877374 0.41062021530544907 0 0 0 0
70000001 0.0435131996969109 -0.02827432359270699 0.5036236076865588 0.4102947591432344 0 0 0 0
71000001 0.04498732808625892 -0.03049264061132207 0.5178145651177304 0.4089523927077274 0 0 0 0
72000001 0.043865647440341694 -0.030680504027293557 0.5330705689485301 0.40787500264909565 0 0 0 0
73000001 0.04803739954956286 -0.03487278742929541 0.5462174336939327 0.40592076848410735 0 0 0 0
74000001 0.04947069010710481 -0.03734317463629025 0.5606289327741114 0.40424632105911745 0 0 0 0
75000001 0.050923550561832745 -0.04004436325867412 0.5754870330846099 0.40173558024453554 0 0 0 0
76000001 0.05184685448868627 -0.04238237913268241 0.5899470632679381 0.39883280672191435 0 0 0 0
77000001 0.05300185902762173 -0.04550931689763762 0.605091833442838 0.3953708472587047 0 0 0 0
78000001 0.05439294456869745 -0.04831700220938721 0.6199682389315161 0.3917785801798652 0 0 0 0
79000001 0.05553350999097085 -0.051592560858318696 0.6350928319886512 0.387448932255748 0 0 0 0
80000001 0.056399278059238875 -0.05478836057211788 0.6503524747559875 0.3829764342469666 0 0 0 0
81000001 0.0571849805436461 -0.05789794253512045 0.6657710528189966 0.3778873997401929 0 0 0 0
82000001 0.05766934227360774 -0.061411872811899436 0.6809262411182516 0.37194033817814964 0 0 0 0
83000001 0.058213727137940645 -0.06517410127952837 0.6962231832183626 0.3661014797580856 0 0 0 0
84000001 0.058610754778577676 -0.06878713703706901 0.7115503342500826 0.35860207924421195 0 0 0 0
85000001 0.05881269723935197 -0.07199198161570006 0.7267783289271468 0.3513452729189264 0 0 0 0
86000001 0.05856374767496403 -0.07586027369868725 0.7418195279898198 0.3428082422362534 0 0 0 0
87000001 0.059015096526550556 -0.07942629919042454 0.7574819614606332 0.33435964047930383 0 0 0 0
88000001 0.05845889482357888 -0.08368577216228586 0.7730013031316373 0.325101866293665 0 0 0 0
89000001 0.05819248791478644 -0.08710511130382627 0.7883663600584757 0.315691897839677 0 0 0 0
90000001 0.057435970783424654 -0.09101228792922798 0.8035121264272295 0.3047109202543832 0 0 0 0
91000001 0.05658682265748166 -0.09485659250208096 0.8182657074700206 0.29361345148403256 0 0 0 0
92000001 0.05557269305037188 -0.09869539579327916 0.8333770504932709 0.28099957484866234 0 0 0 0
93000001 0.05417309078099903 -0.10215780015788281 0.8480741469503789 0.2686618007811042 0 0 0 0
94000001 0.05300360503012398 -0.10632262359815177 0.8627795244814177 0.25531089992565914 0 0 0 0
95000001 0.05112164771586207 -0.11010065483078879 0.8767951861325735 0.24094803582699195 0 0 0 0
96000001 0.04739695080610569 -0.11180361914064144 0.8910526092328798 0.22435042921974846 0 0 0 0
97000001 0.04719753087408738 -0.11721077166215582 0.9041194047271621 0.2099778916460968 0 0 0 0
98000001 0.04508542747001458 -0.12057259028155416 0.9171284309306933 0.19323892395231076 0 0 0 0
99000001 0.04236509026267917 -0.12383182425446342 0.9295005156421948 0.17640557633846513 0 0 0 0
100000001 0.0400137339895516 -0.12738166858036373 0.9415257884592538 0.15858653293117544 0 0 0 0
