# HZ S RI R 50   
1 -0.822253362892385 -0.242054423667334 -1.76763023586309 -0.640689832828871 -0.00279731086366113 -0.000519081523977414 0.185680544367256 -0.595314840436472
1000001 0.490666584200944 0.1992465398455 -5.66160450807195 -3.80776585266611 9.24932391797917E-05 2.2819013355002E-05 -0.00825229061595296 -0.0144020562563225
2000001 0.496333507615275 0.189160280315095 -5.78886591821759 -3.68795853959723 -6.00647954155691E-05 0.000366106632016033 -0.00909701764197975 -0.00250798620479856
3000001 0.490091861993927 0.197971398983331 -5.88171576334782 -3.58409760103629 -4.10053395833508E-05 0.000345151310083013 -0.00854953199911421 0.00228272131851694
4000001 0.491127382210168 0.199168665042636 -5.93713209264933 -3.42950930462548 -0.000107968343680382 0.000463106721899369 -0.00779389552979028 0.00671110095424283
5000001 0.502915300708029 0.179792314570962 -5.93417841838927 -3.20610988692647 -9.58095832790804E-05 0.000543959367232754 -0.00680364096469654 0.00929582664028706
6000001 0.499688496900985 0.190576864984999 -6.05509011585404 -3.06354848616099 5.1659438829235E-05 0.000517589341541839 -0.00505188853749047 0.0133219944879354
7000001 0.498622022171772 0.200222856513812 -6.18564361172132 -2.90358854774655 -1.71579712776325E-05 0.000851417862326346 -0.00451511914067691 0.0166072706286312
8000001 0.508997432127105 0.197925090997062 -6.28517271666327 -2.67236929017333 8.50203040116708E-05 0.00106745898958824 -0.00618476776059252 0.0192576474459922
9000001 0.506126891178522 0.198802312782803 -6.38824874080155 -2.48284063518333 0.000218263839147006 0.000956426893464478 -0.00370002310107598 0.0237949612904719
10000001 0.508498399278578 0.194430137348903 -6.47226704860664 -2.24635495752945 4.34045414913654E-05 0.00090879823092575 -0.000988753668213011 0.024744493174364
11000001 0.514927319276433 0.197304980965239 -6.57720986154497 -1.9677028183898 0.000164902834561385 0.00111705229192521 -0.000903471929925536 0.0285747291518291
12000001 0.519922268552755 0.196604792955653 -6.65432810958174 -1.67325824187584 0.000488918739899565 0.00103077347762969 0.000668534047142512 0.0294324524473376
13000001 0.525497814479569 0.195703710785168 -6.70889185383025 -1.35061545829489 0.000336565050983277 0.00124815447098954 0.00228063318030035 0.0318232159822821
14000001 0.531217616271729 0.194544857017137 -6.74275256506947 -1.0155887209168 0.000202064850170583 0.00118585059516215 0.00356282411152235 0.0335148104397713
15000001 0.537798681536135 0.193282154235966 -6.75085580244097 -0.654985810452319 0.000386298030350654 0.00142307782074769 0.00538978564992448 0.0352838828617628
16000001 0.543627016089124 0.18283595655625 -6.69593179815303 -0.282259774112072 0.000416252316252297 0.00130375874137732 0.00681990489165893 0.0365252293932995
17000001 0.552192846794317 0.180183491625495 -6.64900883433819 0.0949566538125213 0.000717742271152212 0.00158823571504394 0.0080691690132141 0.0383128734151067
18000001 0.560325808401581 0.190075847459955 -6.60109035902992 0.533101814365583 0.000518080117985337 0.00156585946999872 0.00968548329872245 0.0396181878921527
19000001 0.569121974751658 0.188369407139744 -6.48642577801371 0.933781239116507 0.000543585335015568 0.00158834906064369 0.0114020789662429 0.0418340057732242
20000001 0.577955172798099 0.185641836437842 -6.33851584917584 1.31545118697127 0.000654115352548336 0.00185525191907101 0.0135171243489 0.0433804859123999
21000001 0.587430031493295 0.183061267763911 -6.15861797181544 1.6994175148727 0.000609267821762483 0.00183781675528117 0.0151686664999884 0.0442409768600756
22000001 0.597159576106289 0.180010899349621 -5.95667416147044 2.05555102645612 0.000692171600978496 0.00182754593221324 0.0163550846911438 0.0458012550016728
23000001 0.606060565635088 0.174994231744872 -5.75606884088684 2.35675951882787 0.000850732111012216 0.00202631432726486 0.0191523173391164 0.0467440361904277
24000001 0.616583871498686 0.170232105196751 -5.50132971247301 2.67157328728538 0.00083373276148409 0.00174547419739379 0.0211857650636229 0.0482447408328312
25000001 0.627068385095362 0.165276953304364 -5.24741498374481 2.9572939864915 0.000908372262863468 0.00202146256850372 0.0227978304731965 0.0492217778309804
26000001 0.636196473138278 0.158310700253724 -5.02247959618631 3.1821636495941 0.000813890013704539 0.00215545344120649 0.0251600384875876 0.0499093555060517
27000001 0.643907753691731 0.150248779717882 -4.82171365685879 3.36359876707338 0.000859598581191972 0.00192770316054348 0.0267444506974914 0.0510427796927368
28000001 0.651886033275626 0.142066276293799 -4.62188965705812 3.53273056929712 0.000990008320394118 0.00204994975531245 0.0287450873951068 0.0518725029799762
29000001 0.658443331225966 0.132197231514221 -4.4305953892402 3.6615953846514 0.00103998094511328 0.00225372840600397 0.0310127899577901 0.0527818329237089
30000001 0.664183228473463 0.122280027983275 -4.26273996728867 3.77486116658785 0.00114173511403002 0.00224713382607053 0.0334398009120046 0.0536615018608962
31000001 0.670871454072486 0.112984729531516 -4.08063501206657 3.90583141492074 0.00122504521918634 0.00238416994201855 0.0352284737673964 0.0538187772351637
32000001 0.677559524899854 0.103633527398826 -3.89528886433296 4.01039276596076 0.00144628042393656 0.0020956033512256 0.03751607195535 0.0542567503584809
33000001 0.683627894604467 0.0938392096880977 -3.73550594743483 4.12399931916183 0.00141387529279412 0.00214829312766852 0.0395041519285527 0.0549201514711226
34000001 0.688497126797575 0.0834697545755346 -3.58297504907591 4.21550907564232 0.00136697668284715 0.00233578612279486 0.0415246067061563 0.0552218614837598
35000001 0.694021785213777 0.0723220185575367 -3.41521423886698 4.30089150818629 0.00130486783729704 0.00243033701837337 0.0431369090583155 0.0554123371788005
36000001 0.6989839066186 0.0619223092443433 -3.26298233447786 4.38018173034556 0.00156454641853925 0.00245252601219927 0.0457490417979869 0.0557652368780562
37000001 0.704331585569627 0.0506078749853917 -3.09829268072005 4.46089116670841 0.00155220857462962 0.00251384118798811 0.0476729595030512 0.0561632636139883
38000001 0.708479421515429 0.039325217415697 -2.93560089964813 4.52155726344823 0.00154975630932968 0.0025613592854878 0.0495127222695186 0.0560310122689233
39000001 0.713157951514532 0.027116369817343 -2.7706178206453 4.57824429708107 0.00167572434718877 0.00244816304774691 0.0515924340645413 0.0560045881967122
40000001 0.7179828820322 0.0156390222233974 -2.59701506544907 4.63526393529616 0.00180685104945906 0.00251096248123282 0.0539608532507137 0.0561139149667242
41000001 0.723540164766248 0.00320590638167825 -2.4156037654238 4.68279531052742 0.00178279299620819 0.00265935028855453 0.0561254412166314 0.0561143550054104
42000001 0.728813713228237 -0.00866184995303629 -2.23157668494885 4.7389931529902 0.00174768162518757 0.0025835968576408 0.0577081183679964 0.0557330574619644
43000001 0.733890441403275 -0.0208811904033008 -2.04410960952331 4.7776828263355 0.00162437736008601 0.00257624411575503 0.0592697455623908 0.0553909149191797
44000001 0.738011212416135 -0.0335813394063258 -1.88466338840238 4.80660967248796 0.00187360556202853 0.00267989989343577 0.0614442320674921 0.055247062997107
45000001 0.741961990286411 -0.0461846064238183 -1.71481101679224 4.83904108475604 0.00189033410225856 0.00256155410212668 0.0631160103013013 0.0547674254310491
46000001 0.746882705368306 -0.0594024859691409 -1.51082556501405 4.85810437263785 0.00197351760013212 0.00262613647945491 0.0652863018509282 0.0546167089491446
47000001 0.749674968494574 -0.0732883843625535 -1.36835801863272 4.85421093355353 0.00197883855714116 0.00268985580057443 0.0668512831518077 0.0538013018850015
48000001 0.753917008798515 -0.0867146340349563 -1.19895101750452 4.86264646797312 0.00218153645375334 0.0026048011745444 0.0685033249883495 0.0530974869956708
49000001 0.758041462471746 -0.0999546383708857 -1.00083049498712 4.87944972455194 0.00223331179589439 0.00266773748897187 0.0701704194736585 0.0532728347609763
50000001 0.762119925060382 -0.114055314703362 -0.82879778796105 4.85942433658296 0.00206884401631453 0.0027138188358706 0.072175501854982 0.0527620723148764
51000001 0.769273550644684 -0.129005969573388 -0.616675183616999 4.83475562886479 0.00234682355916359 0.00269830300044096 0.0734788475494704 0.0520240554752058
52000001 0.771914578945662 -0.143518074951704 -0.446738239440012 4.82327956861672 0.00204649058775573 0.0026096846939394 0.0745478634584688 0.0517528122089159
53000001 0.775753222687802 -0.159036057555284 -0.246107217711523 4.80550663791194 0.00214578803266027 0.00272883327055468 0.0759887014830993 0.0508358912401525
54000001 0.776890750426968 -0.174342077514716 -0.116445369833043 4.75668894134469 0.00220852510407719 0.00265381227379631 0.0778133393269944 0.0504375976828234
55000001 0.781018811362768 -0.190072804865381 0.053130472758034 4.70641361939233 0.0024067660120715 0.00269805466471882 0.0790323847695665 0.0499908530541243
56000001 0.781477828768237 -0.205384150193531 0.191266461717202 4.68108961559167 0.00229358991779339 0.00256914074598068 0.0806648611496456 0.049196877985563
57000001 0.78334817290241 -0.222405372381538 0.36676994521124 4.63138153750614 0.00233763025925315 0.00278262040592818 0.0816481866252368 0.0482132690950422
58000001 0.785430664778185 -0.238395888146461 0.520607149403787 4.57121334308393 0.00224539800139644 0.00267365880948674 0.0829416846881577 0.0474177068376446
59000001 0.789279805274832 -0.25466040838506 0.687343664156649 4.4935614973658 0.00234078947898423 0.0027639320940169 0.0842019266848696 0.0465715871874523
60000001 0.792851393714675 -0.272155375994156 0.856501942679293 4.41852657252603 0.00252349175935405 0.00259309157603851 0.0853080284922169 0.0457727012537021
61000001 0.793062366123113 -0.289563817444135 0.998413131091804 4.34623842972712 0.00263138224919695 0.00267325327129125 0.0863504992849031 0.0452266347260014
62000001 0.795119549676466 -0.309077413837874 1.16052667417358 4.23906005003699 0.00253755449895635 0.0027470379464057 0.0876820159604617 0.0445269261617603
63000001 0.797047322235384 -0.327771022570272 1.31729968219746 4.13176907083035 0.00262958860623785 0.00268575131403654 0.0884142497103522 0.0436849459046613
64000001 0.798151997098131 -0.346929117837339 1.45378825281536 4.00943087952434 0.00260759458920615 0.00262899054986346 0.0892122658813452 0.0426214017419997
65000001 0.804222469761797 -0.367418112500309 1.64080381538562 3.85750060149474 0.00269885163820675 0.00280871409865369 0.0905303354840692 0.041494530501624
66000001 0.802590313711614 -0.386519448810965 1.74493099819441 3.74939537355068 0.00258554604435586 0.00274299070259254 0.0911230620864489 0.0407800866185827
67000001 0.798640499515966 -0.405081216451567 1.82547427872327 3.64604308453546 0.00263912656130107 0.00286091387566314 0.0922583534225681 0.0393868771198224
68000001 0.796172318018891 -0.426096167293856 1.90994556525995 3.51381381741825 0.00270686824126791 0.00270754450859864 0.092917399654236 0.03886286660887
69000001 0.792081002792107 -0.444526731072589 1.97747251576454 3.4094163297112 0.00256603953728079 0.00286116469206989 0.0935912004432727 0.0381907440506178
70000001 0.786689127003606 -0.461104446738 2.03358907476902 3.32309635319117 0.00240549197415116 0.00281444905262461 0.0944236787166988 0.0370055421882156
71000001 0.771984937294824 -0.48010720148642 2.01601870861827 3.21377452011046 0.00258046064513344 0.00263995755789648 0.0952352599750882 0.036089737238512
72000001 0.768140121323462 -0.499667463139525 2.07718347499417 3.09460010265789 0.00265809152790428 0.00283643384092529 0.0961378502421121 0.0347588886555037
73000001 0.755840138398655 -0.518880630367722 2.09176147354659 2.99402210935589 0.00267744781701226 0.00282472684959848 0.0963625463414447 0.0340159456433704
74000001 0.746788642703658 -0.53512722872754 2.10995554652908 2.93030169606406 0.00292072114116955 0.00283869012616632 0.0969518709083355 0.0332231002386561
75000001 0.738841948133248 -0.55335313282825 2.14218933946415 2.83802941392696 0.00279621158798615 0.00278882883277078 0.0976730941029148 0.0318175170476818
76000001 0.729228378109797 -0.569736768006517 2.15947375967138 2.76242259083788 0.0028083595591158 0.00274499088735688 0.0978738126746239 0.031009936393293
77000001 0.719101766650789 -0.583202119241007 2.16237100651386 2.72497195245022 0.00264369144172597 0.00266627483736756 0.0985075986228112 0.0293864712148147
78000001 0.708810634446916 -0.596816258084165 2.16906611490033 2.69649956866427 0.00267549336947217 0.00294904337108612 0.0995286828190796 0.0295149767042721
79000001 0.697312562243648 -0.610616057228649 2.16910745382688 2.66645092711813 0.00281106345564897 0.00275613974142996 0.0995396371536308 0.028003141314581
80000001 0.684952140813907 -0.625635560893733 2.16493442600359 2.62788943702147 0.00270335314713376 0.00283520855518516 0.0999594548895115 0.0268469532527596
81000001 0.671119361336777 -0.640560029212699 2.14708901584285 2.59436836246677 0.0027064135399115 0.00280335352735981 0.100346350251637 0.025257167200842
82000001 0.659485745061238 -0.651860941619517 2.15620267776425 2.57436567761913 0.0026972075452268 0.00290184051936988 0.1003564983492 0.0254903895473913
83000001 0.646159324336575 -0.666215434089202 2.14443155306625 2.54331771548291 0.00286789347818597 0.00299188524621402 0.101705616569209 0.0228752737645344
84000001 0.6307538464657 -0.67858749726542 2.0881317000222 2.52417407498733 0.0027075537334978 0.00296867609496746 0.101867995697905 0.0222923096960327
85000001 0.614524088230679 -0.687342022849491 2.11407435388885 2.6027911609684 0.00286466661078277 0.00276013221439528 0.10103917247018 0.0218448406689553
86000001 0.602728407597573 -0.701111896476418 2.12999822516417 2.5584915095256 0.00271103209648069 0.00283318388960531 0.101454929117004 0.0203206135494979
87000001 0.587284442995226 -0.714350957945256 2.12076334724014 2.55058681143272 0.00284865873744006 0.00293520368260197 0.101791836459453 0.0198701246104784
88000001 0.570655705570219 -0.726575597419627 2.11433098863318 2.55860262258678 0.00266598657856521 0.00279959697866797 0.102276729561532 0.0186386490798518
89000001 0.554257655622212 -0.739559227113521 2.07254338882648 2.55631127087399 0.00253262186000512 0.00283546319605521 0.102143284540776 0.018287230222462
90000001 0.539901967083981 -0.748144660756922 2.0996897793475 2.5480456053117 0.00290330411646956 0.00300985752207137 0.10245077039586 0.01672748535169
91000001 0.525072093075571 -0.759531245249951 2.10584829367169 2.54081157789579 0.00264833155418099 0.00309788621266135 0.103085635571503 0.0155819020950754
92000001 0.509270194651399 -0.76999497005216 2.10654895623953 2.54920397273124 0.00272794154439545 0.00288649062265668 0.103222012731475 0.0156837041144083
93000001 0.492883252194269 -0.780242780787168 2.10576421914227 2.55996487777322 0.002789924345427 0.00295796862370895 0.102824794428663 0.0138458729484332
94000001 0.475872635921833 -0.789992017506593 2.10829245578829 2.56954498945503 0.00276576264980295 0.00297827701225896 0.101900953495193 0.0135269947678891
95000001 0.459829522694445 -0.80038694910806 2.11344959670518 2.57012599915138 0.00273659508843682 0.00296168386909789 0.103371435097096 0.0122034624585778
96000001 0.443773837078038 -0.808216381723506 2.12310122224524 2.60124025985283 0.00276170197849441 0.00287031237821317 0.103812401476591 0.0111661048510579
97000001 0.427609940396966 -0.815470769348478 2.12986505180771 2.64643820604822 0.00302437120527799 0.00289808909290875 0.104134759434186 0.010322685880337
98000001 0.410857153840791 -0.823269532746258 2.13848303753479 2.67778250905783 0.00299765143298387 0.00312789784137128 0.10392076705577 0.00958452844379801
99000001 0.394033211298557 -0.83044521364702 2.1537543488091 2.70708036747327 0.00279726751080243 0.003027126137151 0.103859867705452 0.00841860168102546
100000001 0.376807381228518 -0.838144306527289 2.17063026582882 2.73489957302966 0.0028420841293882 0.00292250168209002 0.104251174099886 0.00740772760916563
