# HZ S RI R 50
1 -0.8133153364935344 -0.2500101942030908 -0.0651605774345815 -0.06676682446458855 0 0 0 0
1000001 -0.010951137591590134 0.007726667323192609 -0.22762491061671403 -0.2997058643481756 0 0 0 0
2000001 -0.013768929888124152 0.01710472882247491 -0.23753293429282202 -0.2939958828640718 0 0 0 0
3000001 -0.01462587776143959 0.020175195206450357 -0.24527145237712059 -0.2880126625846166 0 0 0 0
4000001 -0.014969494572098145 0.02137165228142869 -0.2524555355063678 -0.2816900457616471 0 0 0 0
5000001 -0.016273460505900644 0.02236850487976539 -0.25922058112767854 -0.2755350154643779 0 0 0 0
6000001 -0.01588259227772507 0.02213646752542513 -0.2660516903815254 -0.2689221741120663 0 0 0 0
7000001 -0.01500176488387763 0.022707221876379052 -0.27243542997008086 -0.2622724366205795 0 0 0 0
8000001 -0.01566718691549151 0.022415891578263552 -0.2786666289352379 -0.25581564813519214 0 0 0 0
9000001 -0.014832113186557687 0.02241447645647297 -0.28470780246117033 -0.2485256087175065 0 0 0 0
10000001 -0.014428167194535924 0.022516183842607427 -0.29059982571499043 -0.24161621392508778 0 0 0 0
11000001 -0.014990176223342035 0.02231370619989695 -0.2961116472323511 -0.23468921683567937 0 0 0 0
12000001 -0.014923405587406747 0.022468603712823446 -0.30192011858595896 -0.22735855146620357 0 0 0 0
13000001 -0.014238655656063246 0.02213071406681678 -0.30706484883104784 -0.22005406619580395 0 0 0 0
14000001 -0.014910512757795863 0.021863004996989836 -0.31241630338865184 -0.21270662498713458 0 0 0 0
15000001 -0.014136534967672823 0.02165742771403572 -0.31729461324873726 -0.205081245523613 0 0 0 0
16000001 -0.01398264415541581 0.021357320243135622 -0.3222168669706558 -0.19735310752226562 0 0 0 0
17000001 -0.013785479189943297 0.02125835963868438 -0.3266933553828179 -0.18929807196198692 0 0 0 0
18000001 -0.01382504576502175 0.020691882738853782 -0.33109783154246114 -0.18170397155820525 0 0 0 0
19000001 -0.013670962966442778 0.020405640030264932 -0.33548430258566536 -0.1737162706156995 0 0 0 0
20000001 -0.013555619950704588 0.020192144471168797 -0.33941585734478674 -0.1657807563460154 0 0 0 0
21000001 -0.013451405987163208 0.019691503175242007 -0.34328258283722896 -0.15755553855334883 0 0 0 0
22000001 -0.013498071158421334 0.01949101359610236 -0.3470969276994194 -0.1494102929640379 0 0 0 0
23000001 -0.013310806095668407 0.019139279829817578 -0.35064792989262406 -0.14123418133476937 0 0 0 0
24000001 -0.013355589467438908 0.018871017154270902 -0.3540234097342638 -0.1328758293768576 0 0 0 0
25000001 -0.01334106018433572 0.01851551654545014 -0.3570382678336435 -0.12427215792201289 0 0 0 0
26000001 -0.012992098601200585 0.01800789605579564 -0.36011156058564014 -0.11582846706791472 0 0 0 0
27000001 -0.013229827430716599 0.017905246033985068 -0.3628967546450105 -0.10762974716402021 0 0 0 0
28000001 -0.013175427922299544 0.01723550315963543 -0.3653129686211537 -0.09888737738098542 0 0 0 0
29000001 -0.013140977148007143 0.016982333460865022 -0.3677686416319081 -0.0902350235431319 0 0 0 0
30000001 -0.01315774811880147 0.01640273514367257 -0.37002941430852454 -0.08161791674495744 0 0 0 0
31000001 -0.013219212256123478 0.016121727198297065 -0.37197533326554155 -0.07278355500130972 0 0 0 0
32000001 -0.013275005753367947 0.01592019248167526 -0.373812374156012 -0.06390477644548674 0 0 0 0
33000001 -0.013155442299889184 0.015618458420927829 -0.375482786067775 -0.05518842456880166 0 0 0 0
34000001 -0.013251170758627468 0.015025097602891165 -0.3767825111806197 -0.04649426186962419 0 0 0 0
35000001 -0.013340649429760768 0.014800469121808883 -0.37820138255064034 -0.03792019858512223 0 0 0 0
36000001 -0.013301943477612835 0.014456366469111559 -0.3791094959672327 -0.028836739488978757 0 0 0 0
37000001 -0.013273683658068485 0.014052528655791404 -0.38004631518714027 -0.020015782391735307 0 0 0 0
38000001 -0.013449239733588383 0.01362184611746105 -0.3806529625461861 -0.01113904268441843 0 0 0 0
39000001 -0.013379237189163406 0.013311115447301732 -0.3810196829110815 -0.002309168696245865 0 0 0 0
40000001 -0.013526988002824345 0.012927925774702467 -0.381068174052779 0.00638647270089702 0 0 0 0
41000001 -0.013483251462653653 0.012604495669684659 -0.38146434573160337 0.015472220759956766 0 0 0 0
42000001 -0.013453773692577302 0.011950454849452515 -0.38114928852649993 0.02434187312796169 0 0 0 0
43000001 -0.013767547672126495 0.01181705755345624 -0.3809750042367908 0.03319815185660095 0 0 0 0
44000001 -0.01359259898017559 0.011397979970000463 -0.3803396547579672 0.042043228992801336 0 0 0 0
45000001 -0.014012028014441565 0.011057092507192775 -0.37952355302814345 0.05075093611372429 0 0 0 0
46000001 -0.01390731348667297 0.010817987742545252 -0.3786019924283312 0.05978854670291323 0 0 0 0
47000001 -0.013945684997805517 0.010424974182070973 -0.37758260451952513 0.06831908536091424 0 0 0 0
48000001 -0.01422383882757279 0.01017563239238316 -0.3764565340530405 0.0773849414735189 0 0 0 0
49000001 -0.014185779668575664 0.009518187228055754 -0.37485686237974 0.08583291994680908 0 0 0 0
50000001 -0.014308591598525634 0.009247961421680889 -0.3732135319743896 0.09458697877169915 0 0 0 0
51000001 -0.01448694528868049 0.009110608390183024 -0.37161066898018175 0.10335358342156611 0 0 0 0
52000001 -0.014691103553535475 0.008635763214061959 -0.36942189818020554 0.11193056703704492 0 0 0 0
53000001 -0.014862555712644795 0.008108757861539383 -0.36724735626350297 0.12061158503532952 0 0 0 0
54000001 -0.014929988314812907 0.008039221777459464 -0.36499979762248214 0.12907824891802433 0 0 0 0
55000001 -0.015307697687024316 0.007724799850460413 -0.36256513024999765 0.13740741413114752 0 0 0 0
56000001 -0.01540856881000983 0.007271340541348022 -0.35967500452772977 0.14579545128421093 0 0 0 0
57000001 -0.01546155158834382 0.0070501211027980985 -0.35680036679501753 0.15417411640716083 0 0 0 0
58000001 -0.015715542948955892 0.006521134318198189 -0.35362881269463586 0.16260894567780784 0 0 0 0
59000001 -0.015964721110490628 0.006123183721037347 -0.35038048899035695 0.1710851856587055 0 0 0 0
60000001 -0.01620303954113129 0.005926855726729832 -0.34694335958343775 0.17905964706333932 0 0 0 0
61000001 -0.016425623220955365 0.005479263331398723 -0.3433518206117158 0.18724957722701616 0 0 0 0
62000001 -0.01655949964933873 0.005448088510341179 -0.3394465097959602 0.19560661550772074 0 0 0 0
63000001 -0.016878390252626566 0.005139967563435372 -0.33516439111365376 0.20375806587607717 0 0 0 0
64000001 -0.016959378452796884 0.004882019603054823 -0.3309822082045272 0.21180843367316973 0 0 0 0
65000001 -0.017223636167007634 0.004736229011274252 -0.3266488278282178 0.21967504910645647 0 0 0 0
66000001 -0.0173821649383349 0.004565660937437584 -0.3220554964415504 0.22752465826317592 0 0 0 0
67000001 -0.017502702908722863 0.004162301151966774 -0.31733196514675793 0.23517865269466257 0 0 0 0
68000001 -0.017769586736632707 0.003916308159660263 -0.31234476377121123 0.24253498853222766 0 0 0 0
69000001 -0.01795890608594147 0.0035648902522116195 -0.307394598440438 0.2502454888801623 0 0 0 0
70000001 -0.018239497564509363 0.0035239807818234874 -0.3023373328893478 0.25748601690881684 0 0 0 0
71000001 -0.018428331471741746 0.0030968156552531115 -0.29690264274130634 0.26486560796253605 0 0 0 0
72000001 -0.01860862351890608 0.0028035625155015858 -0.29105255956606985 0.2723052708234766 0 0 0 0
73000001 -0.01893221747835228 0.00273304160609735 -0.2853955196883708 0.27932362452704623 0 0 0 0
74000001 -0.019334501305101313 0.002130582695017646 -0.2795533585770084 0.28636931507045044 0 0 0 0
75000001 -0.01937856264219674 0.002123444191866189 -0.273427661799231 0.2934035429637797 0 0 0 0
76000001 -0.019571734115623553 0.001976290128949375 -0.26721422163875974 0.3000030334913389 0 0 0 0
77000001 -0.019958193995178463 0.0018680509572545933 -0.2607855133578998 0.30689182306422286 0 0 0 0
78000001 -0.02014093988824155 0.0016293814614347858 -0.25424454929750384 0.31355700039254725 0 0 0 0
79000001 -0.020345225716081647 0.001450706365626157 -0.24755486195806412 0.31976809749242746 0 0 0 0
80000001 -0.020846787009561104 0.0007408408823304868 -0.2404080740103018 0.3260487197608299 0 0 0 0
81000001 -0.020926067933972278 0.0007463799659194975 -0.23351174002310604 0.3323758589045973 0 0 0 0
82000001 -0.02127551500396373 0.001093305483953849 -0.2261143268157731 0.3385224906767687 0 0 0 0
83000001 -0.021480407142987715 0.0008540870564601919 -0.21876711856404832 0.3444822047054319 0 0 0 0
84000001 -0.02175818534282733 0.0007284990338802359 -0.2112561139263084 0.35017946606698647 0 0 0 0
85000001 -0.022020758928794487 0.0005715483378591011 -0.20360544833987132 0.3560036192189794 0 0 0 0
86000001 -0.022295683839365605 0.0004570850711020788 -0.19576498983349294 0.36143876708358585 0 0 0 0
87000001 -0.022417938219102145 0.00037734960649024965 -0.18794985905681644 0.36677624285624194 0 0 0 0
88000001 -0.022748024960129225 0.00022183073552260987 -0.1797618516765247 0.3723237212034113 0 0 0 0
89000001 -0.02310328328186942 0.00016794926151265978 -0.17168312675826536 0.3774019215773487 0 0 0 0
90000001 -0.023326439125167072 0.00015721907376432147 -0.1634278891203978 0.3825615759181311 0 0 0 0
91000001 -0.023710424134744685 -7.12992472071435e-05 -0.15474944562117932 0.38714591459661973 0 0 0 0
92000001 -0.023834840251611044 -5.990913604624163e-05 -0.14635120133648696 0.3921373303789599 0 0 0 0
93000001 -0.024088438095679815 -2.577901716582645e-05 -0.137573655954844 0.39663493862396537 0 0 0 0
94000001 -0.02428265635789317 -0.0001609136752141268 -0.12874729136524912 0.4012052675114187 0 0 0 0
95000001 -0.024593621013579304 -0.00043908718193126043 -0.11975212676904015 0.40536372693674955 0 0 0 0
96000001 -0.025023236314607473 -0.0002546639931481781 -0.11058673227075354 0.40951729041747736 0 0 0 0
97000001 -0.02518005220279977 -0.0003942735809676314 -0.10098246402080839 0.41325759766738474 0 0 0 0
98000001 -0.025457077257901372 -0.00029037745752456844 -0.09135873630994061 0.4171009707183689 0 0 0 0
99000001 -0.0256492970164696 -0.00026535476648209587 -0.0818656357475686 0.42030728128021777 0 0 0 0
100000001 -0.026045876854033274 -0.00025309889074631064 -0.07223311867192195 0.423503054334655 0 0 0 0
