# HZ S RI R 50   
1 0.699656390689469 -0.176330344646983 -2.41773826955029 0.188995392631516 -0.0292611170092054 0.0173484161337399 -1.62952659199808 0.817506132747483
1000001 -0.0699346086605724 0.0132381148322796 -8.00325592716416 -0.195288874137004 0.0355999227380825 0.00412739882910837 -0.184531315180885 0.00640482381375328
2000001 -0.0504128078583467 0.011393814667104 -8.0978202122728 -0.260455832794485 0.0356980236690926 0.00360263711570762 -0.178830077127311 0.000696972585364003
3000001 -0.0460635546753171 0.00909395097575251 -8.12846774387711 -0.397213937090432 0.036578663517186 0.00336284250935113 -0.181427490337143 0.00760724002409577
4000001 -0.0445557524688572 0.00883812211125239 -8.13816555914405 -0.523644201519941 0.0367905692902931 0.00268265201007411 -0.179926220757333 0.00757410356116892
5000001 -0.0439421048468435 0.00962927185957031 -8.16287169297445 -0.610212673537989 0.0368626238634225 0.00233551381399858 -0.169168751068202 0.00234846818655392
6000001 -0.0440182311419541 0.00900644664906299 -8.17090234875725 -0.747966826441372 0.0369424355710495 0.00210758993977247 -0.173909807596595 0.00852355346175503
7000001 -0.0442264329798049 0.00890417298148103 -8.19196781328295 -0.839064302751006 0.0373796608399494 0.00137274860523238 -0.177819221914609 0.00898925618980721
8000001 -0.0364948407820222 0.00474803767230298 -8.17872185300895 -0.877042347236551 0.0372991803179841 0.000940082507346714 -0.173778260078189 0.0115473637322612
9000001 -0.0337611495961153 0.00378012847192007 -8.18676391707176 -0.937592063773488 0.0376359312605857 0.000430301706851845 -0.176711981820589 0.00615451363655588
10000001 -0.0396655184730432 0.00895278148117611 -8.25351795435951 -0.989577210888187 0.0376358342225002 -0.000106840941066823 -0.176313513745991 0.00796263161536977
11000001 -0.0430426733984335 0.0103544345133942 -8.27949114971095 -1.03311010907997 0.0379731684456994 -0.000740547955662277 -0.174224769906412 0.0103689112475172
12000001 -0.0433893845554195 0.00939379756141194 -8.29112598772717 -1.03653415252848 0.038036783286324 -0.000864616436008645 -0.171787845849343 0.0096671601158074
13000001 -0.0366255437884258 0.0101853498425045 -8.29079683702616 -0.990139943158651 0.0378370801406923 -0.00156504469347533 -0.174138006286221 0.0118701971958985
14000001 -0.0428744522869619 0.0104082339512392 -8.31186114982126 -0.984952509864199 0.0375558025923194 -0.00200969630781996 -0.17401667568893 0.0118360565024282
15000001 -0.0427275712329588 0.0105479943392219 -8.30859778513165 -0.926269149375417 0.0378756639100662 -0.00257641948891428 -0.174012444367232 0.0122304981112537
16000001 -0.0417398480880687 0.0114599723449903 -8.29833137758076 -0.849563974321578 0.0376202927124435 -0.00273697148738526 -0.172693636068613 0.0133826692131104
17000001 -0.0430972301360087 0.0112585002221307 -8.29832171101425 -0.76877203336279 0.0376789959612115 -0.0030772763418511 -0.172693140602124 0.0133724580135693
18000001 -0.0353944195481041 0.00299585216477861 -8.23306596222531 -0.66168999736365 0.0378720985902479 -0.00360222325683154 -0.17105408028032 0.0139872805070629
19000001 -0.0422114831868333 0.0120482239791349 -8.26891762752748 -0.554035582174446 0.0373756752322568 -0.00400396154880807 -0.17189469492542 0.013853817432211
20000001 -0.0417737777673868 0.0120547661553832 -8.2459755963452 -0.433535481186858 0.0372431503844345 -0.0046404883349546 -0.171136445032225 0.0141101959743246
21000001 -0.0415732674130846 0.0124714076067289 -8.22142522999717 -0.309937521915992 0.0372888779179407 -0.00516754737473592 -0.170532177275067 0.0145712631926983
22000001 -0.0415345097036469 0.0128288098403045 -8.19093892328588 -0.180448475336391 0.0369912159256692 -0.00549106159512266 -0.170602361693585 0.0149786076776222
23000001 -0.0414252670496768 0.0133572398698008 -8.16741028094877 -0.0552317859722504 0.0370468097377307 -0.00570331689219235 -0.168934279691273 0.0146331867492343
24000001 -0.0409659729607568 0.0140017869374925 -8.13564273802736 0.0720669811768908 0.0365617709675532 -0.00635943378419559 -0.169134449790326 0.0148511190851737
25000001 -0.0409466170494484 0.0139237158367373 -8.10032833929206 0.192770076817512 0.0364602282270794 -0.00662057608269135 -0.168783585070662 0.0157790847396392
26000001 -0.0406330350299638 0.0148747742720061 -8.07111815107052 0.32010634454046 0.0362289290679418 -0.00650809750134878 -0.16837466398897 0.0162057091488239
27000001 -0.0400832568609 0.0151170178539566 -8.03173080240069 0.43455959641765 0.035884960734825 -0.00743713555723077 -0.168163980515275 0.0160694919758923
28000001 -0.0400727462899966 0.0151637712562678 -7.99428163693015 0.550501944275735 0.0357727303857114 -0.00758835011046502 -0.167774963160857 0.0164917159621441
29000001 -0.0395587125296697 0.0158527277308988 -7.96036618857477 0.663554664265281 0.035598821296325 -0.00778615367170276 -0.167483546485304 0.0167967561618044
30000001 -0.039403785772013 0.0162488753489972 -7.92077023877857 0.766290535382938 0.0351030847760721 -0.00834271813340692 -0.16692979648679 0.0169872173268849
31000001 -0.0390860583552787 0.0163464896001917 -7.88378424616829 0.867201339751603 0.035047615213567 -0.00813808110266302 -0.166954157666756 0.0167864170696224
32000001 -0.0392275486311462 0.0189999757105493 -7.8569830473473 0.967704428460259 0.0348676664520115 -0.00839508529272868 -0.16689672866543 0.017406868740822
33000001 -0.0386854849952815 0.0174627494270409 -7.81476342405472 1.05258390174524 0.0343761389361223 -0.0087629818527111 -0.166104416412077 0.0176359735959316
34000001 -0.0300673502425606 0.00749512336261962 -7.72489685533627 1.11962883542353 0.0339777390055913 -0.00902280577838009 -0.166084517838244 0.0177856037011701
35000001 -0.0380906522659784 0.0181650146119963 -7.75106582255968 1.22530456422759 0.0337914295048327 -0.00909404864415446 -0.165782597307965 0.0176589423052867
36000001 -0.0309164545205353 0.00459616025632844 -7.66816349904293 1.26523977017804 0.033684186592269 -0.00917145172013057 -0.165421719064553 0.0176850370747299
37000001 -0.0373752565940994 0.0190206007348391 -7.69017503130821 1.39054261539553 0.0334410838464491 -0.00939755299406116 -0.165248467548557 0.0176332889983952
38000001 -0.0367724008426593 0.0190566581110766 -7.66079884697848 1.46291345836688 0.0329574436912814 -0.00958594863437461 -0.165238376295132 0.0175067100662585
39000001 -0.0356785979546165 0.00990531140435808 -7.62042750883747 1.49632347198792 0.0331898870516913 -0.00961739207622934 -0.164874914504959 0.0171616634148449
40000001 -0.0362881075455436 0.0200836761316597 -7.61934031896865 1.60283426483074 0.0326076238576022 -0.00981898085518078 -0.16480621613138 0.0169487020415037
41000001 -0.0355433387428091 0.0203611592473311 -7.59899942325279 1.67635423024747 0.0324051252673015 -0.0099784446948716 -0.164870376468852 0.016857625473272
42000001 -0.0352713793039793 0.0206426702731431 -7.5823764584187 1.74131452357005 0.0323125547068999 -0.00997569850609525 -0.164517664933778 0.0165040043223072
43000001 -0.0348612532415525 0.0209640275297603 -7.56747305306148 1.80495496741588 0.0319984263837199 -0.0103488771667334 -0.164091989186461 0.0169019381577271
44000001 -0.0342755803616085 0.0211811928540911 -7.55515130311864 1.87107803284093 0.0318355683445242 -0.0102455946910829 -0.163831153105606 0.0165140322895749
45000001 -0.033898163825083 0.0213000897400626 -7.54648329877334 1.93647296928956 0.0313779537023398 -0.0100460342449184 -0.163345308072647 0.0168672340789858
46000001 -0.0334930142478857 0.0222090570687482 -7.53240252031655 1.99961481034837 0.0311781784676931 -0.0102356011079426 -0.162773505178257 0.016673985832384
47000001 -0.0327251557747018 0.0218648032559227 -7.52689643982332 2.06255814329797 0.0309425065296812 -0.0101914912075497 -0.162933634755558 0.0167666699761832
48000001 -0.032252935998376 0.0225989181773388 -7.52131357744505 2.12964406369208 0.0309460038474467 -0.0100931238833058 -0.162130928564983 0.0172027489113007
49000001 -0.0317637651028518 0.0227587851268568 -7.51048543580251 2.19108909323281 0.0306543291441761 -0.0102370180538285 -0.161876891993114 0.0170730097501893
50000001 -0.0313079378858317 0.0229804066418096 -7.50414925332923 2.25254635761791 0.030479913890858 -0.0104045922554379 -0.161357659436767 0.0172849925756653
51000001 -0.0309866695454229 0.0230049708742795 -7.50118810060034 2.31759942732157 0.0304298616550083 -0.0103623853997236 -0.161043063096466 0.0176626384419449
52000001 -0.030549739571403 0.0235768977889866 -7.49479622768909 2.38000129269558 0.0303426081796076 -0.0102872036010119 -0.160569014619446 0.0180725774543223
53000001 -0.0299858498883573 0.0238555004774849 -7.491385512393 2.44489044250638 0.0298036514402059 -0.010084715980936 -0.160339774217647 0.0189095438259844
54000001 -0.0292266254296736 0.0239235641749899 -7.48681587172143 2.50681951921598 0.029828942166223 -0.0101295114022324 -0.159718606594607 0.0190753194683078
55000001 -0.0290155167643486 0.0243318012429749 -7.48685667803991 2.56758077543551 0.0296498825000478 -0.0101340558192831 -0.159327482214898 0.0197020059068439
56000001 -0.028324530736092 0.0245505408512613 -7.48482094059738 2.63450021046144 0.0293654241468325 -0.00997250847079028 -0.159148093987561 0.020251808023443
57000001 -0.027634300792565 0.0245673402201863 -7.47722934719892 2.69456087039802 0.0293865350985787 -0.0099641797166821 -0.159135706480187 0.0202357168100665
58000001 -0.0275674610410494 0.0246897284740542 -7.47266638267762 2.75801312037206 0.0292008938273206 -0.00986613281923713 -0.158779037834945 0.0211259928886958
59000001 -0.0267630818249111 0.025250282191807 -7.46972240545413 2.82277022029616 0.0292281892910998 -0.00979425550158986 -0.15889995648121 0.021093042235802
60000001 -0.026513593530176 0.0249537045233347 -7.46323803634787 2.8868225888194 0.0287885771252112 -0.00974975914062829 -0.158766798241861 0.0217774977497771
61000001 -0.0257645167206131 0.0252095701508823 -7.45462189418819 2.94580818038078 0.0290655796647964 -0.009465498877332 -0.158499672458734 0.0220816724834638
62000001 -0.0251535188260081 0.0253639416030596 -7.45155668302202 3.0110806545968 0.0290383909587414 -0.00978636543010331 -0.158462424101946 0.0223122063428675
63000001 -0.024662239772302 0.0256300207641616 -7.44307934679659 3.07359393186431 0.0289355491511058 -0.00944188173125919 -0.158149329738399 0.0230960876555455
64000001 -0.023897914962886 0.0256410521365227 -7.46100094745505 3.14124196111798 0.0290775903883599 -0.00960613194365137 -0.157840135626632 0.0235164295931492
65000001 -0.0242125048090606 0.0257221799727421 -7.43197903088461 3.19490682904707 0.0289789845491337 -0.00948949408085882 -0.158190764769805 0.0236910061046747
66000001 -0.0234177491534768 0.0258192064381292 -7.4200462373849 3.25546514031087 0.0290875144546255 -0.00951052152536414 -0.157565309188565 0.0241818601963524
67000001 -0.0228894287076525 0.0257757302280222 -7.40380966544871 3.31426427826666 0.0290839804090526 -0.00935203732805191 -0.157525701990821 0.0246653525527651
68000001 -0.0222608574658438 0.0259804137421835 -7.39093347946405 3.37071953938933 0.0291587199259002 -0.00934924325082818 -0.157661712999782 0.0251318383293228
69000001 -0.0216783460596145 0.0263780839928919 -7.37682744896769 3.43303259673933 0.0291835985138732 -0.00928441470138884 -0.157350681671798 0.0251398494836891
70000001 -0.0213076781924622 0.0263671236205599 -7.36793744994275 3.49143954066677 0.029087574193349 -0.00932930408631505 -0.157284522400984 0.0254140619693013
71000001 -0.0209336023299887 0.0266243329993659 -7.35331505016812 3.55184976668986 0.0292107832335424 -0.00933770253205252 -0.156824350099116 0.0259132230209844
72000001 -0.0202028263007256 0.0262004820396044 -7.33742370040263 3.60607141891381 0.0293801100849665 -0.00924091819996131 -0.156806236340238 0.0264239801042753
73000001 -0.0198928828207136 0.0264855367867803 -7.31988105928511 3.66375851982901 0.0296740346504263 -0.00911791979817448 -0.156633735625234 0.0266032222098449
74000001 -0.0193049693262757 0.0267859856447247 -7.30141485693585 3.72277559938829 0.0294927668911926 -0.00922108800908572 -0.156371040597791 0.0271060231918365
75000001 -0.0187057291168173 0.02644543241439 -7.28581085408733 3.77865790589934 0.029556708751753 -0.00931545707834117 -0.156122179043784 0.0272407083226211
76000001 -0.0181180185449348 0.0266385059732931 -7.2709460109992 3.83093430189219 0.029534554570822 -0.00928160784568222 -0.155633111651107 0.027448477217131
77000001 -0.0178281026231769 0.0265704754514556 -7.25104100858312 3.88863172593034 0.0298627643688745 -0.00936165345461595 -0.155029798890116 0.0273383062032893
78000001 -0.0171971044442967 0.0265208298718725 -7.23011883975761 3.94686869137517 0.0302118922666109 -0.00948520509256895 -0.155304700489238 0.0277398966664292
79000001 -0.0167214503114515 0.0263372469527321 -7.21206278094247 3.99871095155695 0.0302953756107105 -0.00951694078188238 -0.155087050651228 0.0277831469282402
80000001 -0.0163222706359757 0.0263561175722559 -7.19384155835744 4.05144866716212 0.0304612150222216 -0.00957721197711747 -0.154723941896906 0.0284312017394517
81000001 -0.0156186141062529 0.0261296085387323 -7.17118303459745 4.10500083833122 0.030465548674475 -0.00977902083141743 -0.154264828014255 0.0283740064406723
82000001 -0.0151633704291912 0.0259842874783964 -7.1480158801117 4.15634622375562 0.0308207124116203 -0.00991166294308064 -0.153895335233982 0.0284211672088256
83000001 -0.0144459220980421 0.0262292160349661 -7.12326105212892 4.2107549576165 0.030899577949546 -0.00968715314067718 -0.153242320457818 0.0284828669953999
84000001 -0.0143704773590377 0.0258151573312595 -7.103304148444 4.25901393018628 0.0310985035861451 -0.00991699955847091 -0.153123876171596 0.0285902333308093
85000001 -0.0137581823278955 0.0258117408273958 -7.07880734830232 4.3042759356729 0.0313196348444752 -0.0101813551429722 -0.153274622709197 0.0294131534669461
86000001 -0.0130099712615899 0.0259408655587659 -7.05888203543941 4.35881615206568 0.0313031621794081 -0.0103822125821333 -0.152970312053913 0.0294295056505721
87000001 -0.0130900226766528 0.025384092917791 -7.04245914002449 4.40205493830657 0.0314871027413468 -0.0105924366587798 -0.153077045922599 0.0294451871828253
88000001 -0.0126229920378881 0.0254613022350187 -7.01943657048963 4.45085481080857 0.0318326640303046 -0.010917946162702 -0.152412760103857 0.0297191584240023
89000001 -0.0121787807353596 0.0253125676928374 -6.99725652129058 4.49854268153662 0.0320025773641497 -0.0109772840459328 -0.152043936095237 0.0299518966839588
90000001 -0.0118289196339897 0.0252277591413368 -6.96953266342728 4.54079812116338 0.0318872501975753 -0.0113548955716582 -0.152212058241125 0.0302257689221419
91000001 -0.0109898450852489 0.0252638051298095 -6.94773663774759 4.58658078665184 0.0320916168164455 -0.0116575361580251 -0.151925099224277 0.0314533186170799
92000001 -0.0108918505729057 0.0246926902903033 -6.92449571078067 4.63436085939746 0.031852340677048 -0.0118838104401672 -0.151275926809845 0.030711181362451
93000001 -0.0101718174485848 0.0246205199212827 -6.90273909709333 4.67486888426879 0.0322163012334799 -0.0121033383565944 -0.151159051713825 0.0312150676997335
94000001 -0.00976119598248043 0.024806303281469 -6.87856940629971 4.72485684774282 0.0324348146697766 -0.0125066898658059 -0.151261572167405 0.0312732723590663
95000001 -0.0097606185755119 0.0242273197788483 -6.84760050213156 4.76935482989856 0.0323970820737994 -0.0127206971982643 -0.150570127210862 0.0314989240763437
96000001 -0.00932205065768789 0.0246253708679204 -6.82782184020905 4.8121641262813 0.0324326810317885 -0.0131317124232072 -0.150523329293363 0.0317759426782704
97000001 -0.00867661158962763 0.0242515965376086 -6.79969287489582 4.85452573683007 0.0326497207292136 -0.0133694187850244 -0.150663040271945 0.0315221298677635
98000001 -0.00866856088400876 0.0245194085989183 -6.77009867938987 4.90338188886778 0.0325979702040797 -0.0135410650210154 -0.150079923616131 0.0314359521144451
99000001 -0.00830594321423484 0.0243154551803208 -6.74888737226639 4.94695050584244 0.0326668066158731 -0.0140988097880689 -0.149468166436019 0.0318071572899491
100000001 -0.00788940559891512 0.0243543376515005 -6.72305259628725 4.98836788237627 0.0326730558540707 -0.0145594654832686 -0.149249313975963 0.0319353340372534
