# HZ S RI R 50
1 0.8436370350326039 0.3138298619881841 -1.4428657334893296 -0.8201334570935499 0 0 0 0
1000001 0.034336335981997625 0.007653599164718894 -7.798912458238879 0.1930791899781258 0 0 0 0
2000001 0.04236958800651006 -0.025862697739369667 -7.784835210480044 0.006296058233091706 0 0 0 0
3000001 0.044593394274380145 -0.02007130993527858 -7.845323531799757 -0.09321488876759923 0 0 0 0
4000001 0.06018395575253436 0.0036127307051257215 -7.947540675888306 -0.08229286325090668 0 0 0 0
5000001 0.041469658438831596 -0.02260557780506301 -7.903146379381303 -0.2607975722047955 0 0 0 0
6000001 0.06622608877552535 -0.006937860921195927 -7.946775883174123 -0.20760524721027557 0 0 0 0
7000001 0.0747948358045272 -0.018571281526491706 -7.90780185471689 -0.23313762172004782 0 0 0 0
8000001 0.05415081193142777 -0.0026640069149127675 -8.03270839735799 -0.31229344433888995 0 0 0 0
9000001 0.05820733502905573 0.005100990420401244 -8.065948091822987 -0.30129802561179436 0 0 0 0
10000001 0.059871821012966564 0.0028233853729212883 -8.07674221519919 -0.2859955649965604 0 0 0 0
11000001 0.058708351461663574 0.003510329786611201 -8.078761260063983 -0.27523882726005494 0 0 0 0
12000001 0.058011409820149094 0.0026025188793076864 -8.077867138575725 -0.24030318528738703 0 0 0 0
13000001 0.0579944077033307 0.0029850439038372365 -8.063065987972461 -0.18727542337134714 0 0 0 0
14000001 0.057969908752762325 0.0018988641353917663 -8.037528639191466 -0.13786426603191793 0 0 0 0
15000001 0.058738425022555274 0.0019753630826394755 -8.006108124971968 -0.06089943723547009 0 0 0 0
16000001 0.0581034029888082 0.0035458911397195157 -7.9738843151213805 0.019830626343644076 0 0 0 0
17000001 0.06335562445438137 0.002141849355891682 -7.924716039912994 0.12119340806942622 0 0 0 0
18000001 0.05762177887178564 0.00286547882481633 -7.9005972549905765 0.19082444170801685 0 0 0 0
19000001 0.05722562675304933 0.0030729399970264013 -7.855979404982665 0.2765193994535214 0 0 0 0
20000001 0.05751984893399453 0.0031510712964675277 -7.810776224624214 0.3664742059088086 0 0 0 0
21000001 0.05700505935613164 0.0032950759364778633 -7.760422121645814 0.44862420333224107 0 0 0 0
22000001 0.056569792078431776 0.0034372533771927435 -7.712733761204681 0.5370803866104056 0 0 0 0
23000001 0.057292312996563274 0.003379966918084092 -7.663149323205396 0.6149316017110756 0 0 0 0
24000001 0.05708489530201432 0.003396437779034347 -7.618395129724882 0.6942335625546576 0 0 0 0
25000001 0.05729856775000223 0.0035137275735560207 -7.565998767738678 0.769238225201074 0 0 0 0
26000001 0.05681196435967387 0.0037153161854452353 -7.520940270129992 0.839834093379661 0 0 0 0
27000001 0.05687231108422962 0.0041671916454910606 -7.477713768620466 0.9116825710768902 0 0 0 0
28000001 0.05686002989971345 0.004114527831865338 -7.43292104655488 0.9790416095450796 0 0 0 0
29000001 0.05701831734152485 0.004104325541939389 -7.391803688781612 1.0446153115133798 0 0 0 0
30000001 0.0568933328723042 0.004344416697942271 -7.35247053314368 1.1010179844898853 0 0 0 0
31000001 0.05700203769626143 0.00454863418027052 -7.3243092652385196 1.1615816653412312 0 0 0 0
32000001 0.05682251636868082 0.004554869316574918 -7.2964098776724216 1.2181317473509279 0 0 0 0
33000001 0.05672802024515107 0.004823255047433313 -7.269400520131076 1.275149974190351 0 0 0 0
34000001 0.05668905607598962 0.00498092104783247 -7.24594161216603 1.3275877787611001 0 0 0 0
35000001 0.05697135477505723 0.004757150052751988 -7.22740035142809 1.3775842779002057 0 0 0 0
36000001 0.05721898866964148 0.005281580897034636 -7.207461970607489 1.4367625679332163 0 0 0 0
37000001 0.057139076258749234 0.005051562128931397 -7.189038664994617 1.4893766869126277 0 0 0 0
38000001 0.05719752382182942 0.005002824155218197 -7.175206827426163 1.5381607220846436 0 0 0 0
39000001 0.05741802265037392 0.00509965919223016 -7.160234445147844 1.5878794400638252 0 0 0 0
40000001 0.058156184594122126 0.005289532693943495 -7.146058914124764 1.6403384549950901 0 0 0 0
41000001 0.05866395192746742 0.005058235563765376 -7.136141374428777 1.6906612344557983 0 0 0 0
42000001 0.058303779637516526 0.005405553514415272 -7.126018876563083 1.7380479410529615 0 0 0 0
43000001 0.058799633951403904 0.005374018886905182 -7.11517834021626 1.7872187254069065 0 0 0 0
44000001 0.05862791809639147 0.005315404517042794 -7.109705477680642 1.8369739802146485 0 0 0 0
45000001 0.05873959535797463 0.0053013180886842355 -7.101557810265688 1.8834601077500526 0 0 0 0
46000001 0.05920936085991408 0.0054092841319264805 -7.092125148235874 1.9355313955316786 0 0 0 0
47000001 0.05951427215366956 0.005379534974340557 -7.084916605104285 1.9803317853391198 0 0 0 0
48000001 0.059429790326471776 0.0052290059050228935 -7.074415412181366 2.0363331768195025 0 0 0 0
49000001 0.05955499867205626 0.005628534297502197 -7.0757692189888 2.0791096304029923 0 0 0 0
50000001 0.06025527280651842 0.0057100705833986656 -7.066535692245017 2.1296205039205987 0 0 0 0
51000001 0.060155197039977897 0.005767283745530715 -7.063111846217081 2.177529539101769 0 0 0 0
52000001 0.06043028277622615 0.005717939517197779 -7.059589075454971 2.2287687996748478 0 0 0 0
53000001 0.06063044270006357 0.005596124980334146 -7.054823025950175 2.276666789176987 0 0 0 0
54000001 0.06129985718866802 0.005658432059766128 -7.048289069426457 2.3239400723493717 0 0 0 0
55000001 0.06144915360314774 0.005652140568130784 -7.046245810697621 2.372539371508172 0 0 0 0
56000001 0.06184356000501182 0.005692820907968939 -7.039207577286024 2.4210768883530727 0 0 0 0
57000001 0.06209850637434665 0.005400582020332592 -7.037062804931874 2.4715059493189435 0 0 0 0
58000001 0.06213593825791908 0.005385036089025933 -7.033859908041463 2.5203043721502643 0 0 0 0
59000001 0.062425727492648096 0.005219475885386354 -7.030590244477766 2.572397379219079 0 0 0 0
60000001 0.06258629497551649 0.00498553483364297 -7.023682662237424 2.6197766412969807 0 0 0 0
61000001 0.06308299243856301 0.005055859134022152 -7.015473890471681 2.6639632476523483 0 0 0 0
62000001 0.06318228150448765 0.005219945007536949 -7.0092167238619485 2.7129307933315374 0 0 0 0
63000001 0.06337305707800102 0.004738366368557185 -7.005220384041611 2.758621940454313 0 0 0 0
64000001 0.06411010215494575 0.0046828879055584504 -7.019457042885992 2.817515925615956 0 0 0 0
65000001 0.06315550621530969 0.004691452969653926 -6.994040927561671 2.853163492969224 0 0 0 0
66000001 0.06402329180566735 0.004867099440869358 -6.983770628404576 2.899963224913678 0 0 0 0
67000001 0.06439108039285929 0.004459355672733833 -6.973234106809917 2.9453963137717682 0 0 0 0
68000001 0.06466734591758828 0.004344992094525192 -6.963991533185884 2.9918334154037582 0 0 0 0
69000001 0.06464762819243998 0.004460043837190241 -6.955492628992063 3.038673278318226 0 0 0 0
70000001 0.06518032402603072 0.004323102485625744 -6.943124945729737 3.0809806583648585 0 0 0 0
71000001 0.06517156932720602 0.004275903584192012 -6.936329992556345 3.1272554357652727 0 0 0 0
72000001 0.06557610601288882 0.003869993426666541 -6.923650694838065 3.1748430762155238 0 0 0 0
73000001 0.06554483361916415 0.0038345041040476267 -6.91288170963357 3.2176038749780522 0 0 0 0
74000001 0.06587599747131143 0.0036113889676131646 -6.9030815767157705 3.2632497020301714 0 0 0 0
75000001 0.06626271724733471 0.0033721976543464056 -6.892837535033081 3.308701547867935 0 0 0 0
76000001 0.06629682708014252 0.0032013016806407913 -6.884203118424601 3.351439477207152 0 0 0 0
77000001 0.06629786272575283 0.002774773586030535 -6.86987845264124 3.3963961141489407 0 0 0 0
78000001 0.06667632131226883 0.0027533519547926896 -6.860519934377844 3.4439566954896565 0 0 0 0
79000001 0.0670125207056699 0.0019888037284943164 -6.8521108345789505 3.486899128672172 0 0 0 0
80000001 0.06735710317734234 0.0016345257951423278 -6.845007843380821 3.52963667456097 0 0 0 0
81000001 0.06755697540859333 0.0012750058720618386 -6.831761781478341 3.5745493682595777 0 0 0 0
82000001 0.06795650931150195 0.0010958805355614533 -6.818228726188539 3.6198218198228798 0 0 0 0
83000001 0.06847941304428964 0.0006904901608733373 -6.804831536101598 3.6607218915580844 0 0 0 0
84000001 0.06804610318970351 0.00028589542480225613 -6.796368002388599 3.708844906611155 0 0 0 0
85000001 0.06831651738574494 0.0001884142411025472 -6.784670989170653 3.7513682531793786 0 0 0 0
86000001 0.06844396735216687 -0.00040028511329023863 -6.76789552262083 3.7996011709849045 0 0 0 0
87000001 0.06878785978151028 -0.00033019258630587336 -6.760413514474555 3.840605132634783 0 0 0 0
88000001 0.0692053039919053 -0.0008419143596253827 -6.7538405564261526 3.8844819646897313 0 0 0 0
89000001 0.06889321724137076 -0.0008706576195913059 -6.741697302156382 3.9247876421114243 0 0 0 0
90000001 0.06914408588228856 -0.0016854138059237635 -6.731929853774867 3.9667037391011384 0 0 0 0
91000001 0.06922650973969383 -0.0018250603124235836 -6.719207217290902 4.009609717147422 0 0 0 0
92000001 0.0693636134992818 -0.0018442125508415616 -6.706532089652483 4.057770458672543 0 0 0 0
93000001 0.06934933710297563 -0.002065906156188792 -6.6945999525114255 4.100581303083729 0 0 0 0
94000001 0.06965146232296499 -0.00253130160920247 -6.682485337551007 4.145398245419008 0 0 0 0
95000001 0.06942018032022387 -0.0027078855725435817 -6.663956730943508 4.1904694021137106 0 0 0 0
96000001 0.06979955614281433 -0.0029695880841224508 -6.654697783813274 4.229511166026873 0 0 0 0
97000001 0.07004570130823971 -0.0032937960675617434 -6.6347768616048315 4.276050326559077 0 0 0 0
98000001 0.0698465744528206 -0.003247813952373667 -6.620963724422713 4.323606641573384 0 0 0 0
99000001 0.06995109662727847 -0.003714282111701292 -6.607315594632395 4.362533361814674 0 0 0 0
100000001 0.0699969426405227 -0.003954586716295845 -6.593961503517494 4.410440824966673 0 0 0 0
