# HZ S RI R 50
1 1.2731165131731603 0.31896772134109375 -1.3976464562387014 -3.3793221740581476 0 0 0 0
1000001 0.030630447248022625 0.00788953318130186 -7.820100387580486 0.1787486325879771 0 0 0 0
2000001 0.05494933298339565 0.00563119581312614 -7.917839815909907 0.11271639854095039 0 0 0 0
3000001 0.05825463384470168 0.00464045908907785 -7.94612543745134 0.017770206392732857 0 0 0 0
4000001 0.05851131630170306 0.004076613442142317 -7.9685138781516605 -0.08100928203167801 0 0 0 0
5000001 0.05790104325161759 0.002820310381077269 -8.001757400220574 -0.14088493866277324 0 0 0 0
6000001 0.058144030364666345 0.0033522582797185724 -8.018193477039757 -0.21839846189014528 0 0 0 0
7000001 0.05760828569126431 0.0034224256073218736 -8.04610022397547 -0.26432419806106006 0 0 0 0
8000001 0.06280322277178584 0.006134282208213177 -8.071498183226636 -0.2502759522205541 0 0 0 0
9000001 0.05724314509183231 0.0057915858041856045 -8.084749253197204 -0.2986675422050225 0 0 0 0
10000001 0.058948287236657876 0.0034795599045468707 -8.09302393755437 -0.28431176788362195 0 0 0 0
11000001 0.057737054970099434 0.004618276771177755 -8.099331698421967 -0.26926903246258654 0 0 0 0
12000001 0.0571489159769991 0.003395379391964529 -8.096026555575211 -0.23483768672119357 0 0 0 0
13000001 0.05622811061854294 -0.005529058953046045 -8.046883614145596 -0.20902829289304092 0 0 0 0
14000001 0.0577048489604101 0.004247948456948584 -8.062450200356102 -0.1225554712315158 0 0 0 0
15000001 0.057475201336806975 0.004100495476469919 -8.03466380764607 -0.04716747369354765 0 0 0 0
16000001 0.054866486118536846 0.003716057106378477 -8.000736505596509 0.01864949118592607 0 0 0 0
17000001 0.05698041527829321 0.003913340937784289 -7.959587245537969 0.11461955772498301 0 0 0 0
18000001 0.05720625107700949 0.004185046727168134 -7.923382289368278 0.20543076722654818 0 0 0 0
19000001 0.0568980256923139 0.00452066715821301 -7.879280742837788 0.29367196773812726 0 0 0 0
20000001 0.05732856396017986 0.004908038671761042 -7.83141308567734 0.38521737517906285 0 0 0 0
21000001 0.0570359752942271 0.004808302308975829 -7.783408406685829 0.4716802151344961 0 0 0 0
22000001 0.056997367336571736 0.005070427857940318 -7.733869637208848 0.5621932641215318 0 0 0 0
23000001 0.05519329660770219 0.002335907190839596 -7.6829590274636494 0.6221484960947649 0 0 0 0
24000001 0.054687348066103855 -0.000907985348512018 -7.629912514225148 0.6956303726310991 0 0 0 0
25000001 0.056930759588037644 0.0058291992896829 -7.591367145513538 0.8011197446214814 0 0 0 0
26000001 0.05727449356396574 0.0059029876210839865 -7.5475218535057 0.8743070680669074 0 0 0 0
27000001 0.05724193094163417 0.00624272307459294 -7.4991855085985595 0.9465348558148579 0 0 0 0
28000001 0.05734446289552269 0.006539533746597725 -7.45368249990007 1.0167936002545255 0 0 0 0
29000001 0.05750346294358849 0.006723139037608631 -7.413429127142981 1.0822406323384763 0 0 0 0
30000001 0.05772497433084403 0.006879491495637205 -7.374008617989837 1.1422622354751037 0 0 0 0
31000001 0.057879386106411496 0.00680237888767296 -7.336653830756384 1.2020993812050365 0 0 0 0
32000001 0.06517204515945968 0.0031994341304049092 -7.272993690436272 1.2628550060489305 0 0 0 0
33000001 0.05839120450228068 0.007588669880322299 -7.275968654767477 1.3176986116387674 0 0 0 0
34000001 0.058400212926329936 0.007757211157971179 -7.25573936741196 1.3747840970904721 0 0 0 0
35000001 0.05830012300399593 0.00785974192773374 -7.2361736597642725 1.4258930415385387 0 0 0 0
36000001 0.05851220012142196 0.008306785190054254 -7.216561270472408 1.48249352226991 0 0 0 0
37000001 0.058836643191460355 0.007900616198828097 -7.195067688966512 1.5361435865776412 0 0 0 0
38000001 0.059213077813035 0.00827630939154722 -7.179009298557586 1.5868191416110728 0 0 0 0
39000001 0.05938525377272449 0.0085034909440623 -7.161709226126071 1.6403163759534225 0 0 0 0
40000001 0.0601199927942682 0.008295855524072152 -7.148890798016037 1.6892318611716424 0 0 0 0
41000001 0.0602131959832485 0.008740881365773378 -7.139061022148223 1.7409797410863714 0 0 0 0
42000001 0.060358645739945434 0.008780083816895474 -7.124073502695768 1.7866735853144422 0 0 0 0
43000001 0.06078215022625649 0.008962767515455064 -7.113407946631336 1.8379237965059303 0 0 0 0
44000001 0.06107816373145547 0.008980180919780662 -7.102364181706343 1.8857902010404075 0 0 0 0
45000001 0.06138850957819464 0.008961330977499762 -7.096840661131339 1.9350771587093882 0 0 0 0
46000001 0.06203171002184757 0.009038860420983109 -7.085265781380175 1.986142827125321 0 0 0 0
47000001 0.061894627246997534 0.008871618992814636 -7.077355742601645 2.0295994879064105 0 0 0 0
48000001 0.06236261216183063 0.008831782481235902 -7.066155104024891 2.085456603711835 0 0 0 0
49000001 0.06289668568811027 0.009462824574911398 -7.064071777253527 2.13112105655439 0 0 0 0
50000001 0.0631832107262973 0.009709278198374052 -7.056016499606632 2.1813255759188483 0 0 0 0
51000001 0.06323239225878641 0.009506450445375882 -7.050897798503334 2.229330486990207 0 0 0 0
52000001 0.063874024083205 0.009780336848993763 -7.042467601253442 2.2760923764150274 0 0 0 0
53000001 0.06386139794113142 0.009903670404583818 -7.042186074686798 2.3268894463580323 0 0 0 0
54000001 0.06436195414795831 0.009676344214705819 -7.0328147370266 2.374802129370964 0 0 0 0
55000001 0.06504849980854716 0.009930720332369391 -7.028811100723886 2.4225454962231505 0 0 0 0
56000001 0.06569606095606534 0.009730719811235496 -7.022382311442157 2.4702434904533663 0 0 0 0
57000001 0.0657720413259121 0.009907257111402312 -7.017720760389262 2.520649193270463 0 0 0 0
58000001 0.06598696032606721 0.00984715663219203 -7.014195005934368 2.5717989362890195 0 0 0 0
59000001 0.06648135747385323 0.009663910578916954 -7.0083117601321065 2.620171585892627 0 0 0 0
60000001 0.0666854894630156 0.009534881086374822 -6.999687255338398 2.6654442829702862 0 0 0 0
61000001 0.06723151451667272 0.009882606126600735 -6.9914149106902075 2.7145237966617337 0 0 0 0
62000001 0.0676463978507874 0.009392217368492339 -6.985091065223187 2.7585420789798194 0 0 0 0
63000001 0.0680256127635404 0.00975878128655504 -6.978303030650985 2.8077506934028653 0 0 0 0
64000001 0.06872810068855208 0.00978533029744698 -6.992214156223424 2.8643513853834044 0 0 0 0
65000001 0.06808777097487224 0.009650315630835071 -6.970278840247718 2.898431182019685 0 0 0 0
66000001 0.06874673539347828 0.009886162348625743 -6.955263235221742 2.9467027848291654 0 0 0 0
67000001 0.06936297660619398 0.009281316889306754 -6.94122288816125 2.9871796686295395 0 0 0 0
68000001 0.06955735138223847 0.009362362232326315 -6.932324870300955 3.0322358908383125 0 0 0 0
69000001 0.07014164474108615 0.009523984070393027 -6.920916027495943 3.0784959551650095 0 0 0 0
70000001 0.07060074694962633 0.009284999936503655 -6.909963859764731 3.120272879704289 0 0 0 0
71000001 0.07091364500517103 0.009139349612985941 -6.8995780500213755 3.165667674723097 0 0 0 0
72000001 0.07128280603187087 0.00910780390646213 -6.885848240727166 3.2070919359823127 0 0 0 0
73000001 0.07172436407061708 0.009071739036049504 -6.874811502728877 3.2525511458564442 0 0 0 0
74000001 0.07230146401343089 0.008968288711192804 -6.859338121933921 3.2934725153676654 0 0 0 0
75000001 0.07224883469329194 0.008646646163210429 -6.856736618428976 3.341757121171569 0 0 0 0
76000001 0.07252606820540486 0.008675271603026719 -6.844270977294163 3.381074512637426 0 0 0 0
77000001 0.07275146545771886 0.008141317729628653 -6.8298956406453275 3.428188121474934 0 0 0 0
78000001 0.07341023877654178 0.008151407553298762 -6.815351562370041 3.4723307013009954 0 0 0 0
79000001 0.07383631429864203 0.007440369060898442 -6.8071199319688125 3.508919252395502 0 0 0 0
80000001 0.07414577099953515 0.00724265686607632 -6.794694866175733 3.555475017078104 0 0 0 0
81000001 0.07463061691417183 0.006854095922385088 -6.783819294168664 3.595890607052666 0 0 0 0
82000001 0.07520200659023661 0.006518027268458279 -6.769571481728091 3.6390271700447667 0 0 0 0
83000001 0.06553813664913112 0.005509845727371179 -6.797994504865039 3.707072807641217 0 0 0 0
84000001 0.07588988677791128 0.00595101752310979 -6.744786995564806 3.7243130163264686 0 0 0 0
85000001 0.07561441811328726 0.005854347797116353 -6.734779869318712 3.7668706843486164 0 0 0 0
86000001 0.07613425672794999 0.005261394405116199 -6.717842471555199 3.813624958903783 0 0 0 0
87000001 0.0765949631494686 0.005513425276283214 -6.712411212611128 3.8509197284839214 0 0 0 0
88000001 0.07696466782625831 0.00510550217026112 -6.7043620096688725 3.894899531083329 0 0 0 0
89000001 0.07711783792793839 0.004895880833417645 -6.6934045087583245 3.9324245677707927 0 0 0 0
90000001 0.07737968995194314 0.004356125717579806 -6.679248535131794 3.9721206718143574 0 0 0 0
91000001 0.03716844576107407 -0.014628018188329026 -6.858169944811229 4.0982368612021185 0 0 0 0
92000001 0.07810293525683477 0.0038028657791997576 -6.6541254916562576 4.052786998993552 0 0 0 0
93000001 0.07820763739178488 0.0036256691116778464 -6.643398207370174 4.092862564679304 0 0 0 0
94000001 0.0785835089179523 0.0035430851662925926 -6.629510567477559 4.139691471815828 0 0 0 0
95000001 0.07855363220031158 0.0030843580979984363 -6.6172432955637035 4.18033659602291 0 0 0 0
96000001 0.07644275120930126 -0.00863052646136595 -6.658698195021035 4.200792763550077 0 0 0 0
97000001 0.0792079008273293 0.002335332586453118 -6.593033282532045 4.262767752574888 0 0 0 0
98000001 0.07935615317284518 0.002358282724517444 -6.577324801282029 4.30544434755272 0 0 0 0
99000001 0.07921960931255621 0.0018733365316218995 -6.567270395269795 4.346428668007083 0 0 0 0
100000001 0.0796809690372396 0.00178462463438274 -6.553227128786285 4.387679381763836 0 0 0 0
