# HZ S RI R 50
1 0.6011023268979604 0.13932493182982356 0.03436787051027686 0.0665607897435272 0 0 0 0
1000001 -0.009481706841616045 -0.00011731012076302852 -0.7349979446154441 -0.23160858534182077 0 0 0 0
2000001 -0.001947359755642347 -0.011525142167490154 -0.767066907018889 -0.4483630662272363 0 0 0 0
3000001 -0.008242108142153197 -0.0010251039649140509 -0.8331490689219399 -0.66753553977173 0 0 0 0
4000001 -0.007895057983420668 -0.0012775206489297418 -0.9058354094903442 -0.8754536902204529 0 0 0 0
5000001 -0.007535768234766666 -0.0020225723099506253 -0.9916804788609507 -1.0746943781501372 0 0 0 0
6000001 -0.006741336846805865 -0.003147025341521318 -1.0761501039658583 -1.2726210659720427 0 0 0 0
7000001 -0.006544046598940738 -0.003844315191414557 -1.1710061027161964 -1.4639851961317674 0 0 0 0
8000001 -0.008497382044157705 -0.004838674202840099 -1.2699669775478526 -1.6502944545036347 0 0 0 0
9000001 -0.005957533023931175 -0.0037260474694524198 -1.3740261756334509 -1.834155042383722 0 0 0 0
10000001 -0.0038669867645019906 -0.007214690087484279 -1.4861327439354182 -2.013793484897629 0 0 0 0
11000001 -0.0042030949449984875 -0.0073887949565138115 -1.60032152947176 -2.1964841871328304 0 0 0 0
12000001 -0.004417657373328596 -0.009613807063449756 -1.7226382884287323 -2.3725364988049926 0 0 0 0
13000001 -0.0005146691062197341 -0.013435168767948872 -1.8498453956061842 -2.5318104906873438 0 0 0 0
14000001 -0.0007759074976530427 -0.014157801442133626 -1.9869739112767906 -2.694833820261666 0 0 0 0
15000001 -0.0028387572737414535 -0.013433464406041092 -2.1373920762542014 -2.8564606483516086 0 0 0 0
16000001 0.0014623773726812422 -0.01795890136092104 -2.2962412360363147 -3.005085035098701 0 0 0 0
17000001 0.0007336132447770874 -0.019286797149431698 -2.481495322568717 -3.1768923466458467 0 0 0 0
18000001 -0.0018329631850679162 -0.0184360420844172 -2.690880190750012 -3.356766854293428 0 0 0 0
19000001 -0.001322523970680404 -0.02031717921614268 -2.9186859725070122 -3.525964632493458 0 0 0 0
20000001 -0.0010367810144471666 -0.02238025607298409 -3.164398694966139 -3.6848667818423997 0 0 0 0
21000001 -0.0012296045599029532 -0.02474737897756851 -3.4240658696473054 -3.826227690166413 0 0 0 0
22000001 -0.0013825871748506305 -0.02699084556030149 -3.694682266947888 -3.9393269560551976 0 0 0 0
23000001 -0.0016112015546609806 -0.029606518625637113 -3.9707801217347254 -4.031740841261372 0 0 0 0
24000001 -0.0022170728811309456 -0.03159056050802567 -4.253976676868513 -4.08936039674172 0 0 0 0
25000001 -0.002993971279311585 -0.03371009994945976 -4.534392348995502 -4.113336913253799 0 0 0 0
26000001 -0.003867392517486033 -0.035460237869306535 -4.812634050265416 -4.1038008010483065 0 0 0 0
27000001 -0.005145075485295909 -0.036775976623325296 -5.0885802860163745 -4.05797958434166 0 0 0 0
28000001 -0.007056527128061521 -0.038080250750104835 -5.357769577301117 -3.9776955436932058 0 0 0 0
29000001 -0.008651124602804892 -0.038425660576848875 -5.621773178120874 -3.8597411946332136 0 0 0 0
30000001 -0.01021225541261476 -0.03831924315574489 -5.870322595132034 -3.7093978540955357 0 0 0 0
31000001 -0.011924507452718714 -0.037616958673011416 -6.114384137306488 -3.5214657723606506 0 0 0 0
32000001 -0.01348492731324289 -0.03588559372409925 -6.3449715493531675 -3.299400411923882 0 0 0 0
33000001 -0.014545815218891391 -0.03367945451845824 -6.561038401300231 -3.042268549006297 0 0 0 0
34000001 -0.014956186900566049 -0.030605762083813597 -6.7614242206461626 -2.7458738415256123 0 0 0 0
35000001 -0.014236166834593276 -0.02665035658994049 -6.93748776153785 -2.4175915394020615 0 0 0 0
36000001 -0.013234574139943734 -0.022473242438642967 -7.090620020620032 -2.0598849163979174 0 0 0 0
37000001 -0.010624373045809994 -0.018137867529047915 -7.210821624718273 -1.6734688408759486 0 0 0 0
38000001 -0.006998505996848563 -0.013967690319545424 -7.297738842847875 -1.2726522550822081 0 0 0 0
39000001 -0.002128010437918174 -0.009887391099798484 -7.350613145719397 -0.8557370715186855 0 0 0 0
40000001 0.004076363548943013 -0.006780241073596712 -7.3703650618936685 -0.43555732845938194 0 0 0 0
41000001 0.011307727934423865 -0.004444453793946701 -7.358880119166028 -0.016993109071924434 0 0 0 0
42000001 0.018560682433467666 -0.0037263842272632127 -7.316725977010695 0.38285206228282526 0 0 0 0
43000001 0.02617158921753381 -0.004407350788775133 -7.254296853289938 0.7668759056157994 0 0 0 0
44000001 0.03422411155506597 -0.00699021918446923 -7.1678567247762 1.1309896922026406 0 0 0 0
45000001 0.04084151724804368 -0.010954288761849404 -7.0778092013688 1.4682739394775959 0 0 0 0
46000001 0.04672791550168008 -0.016326528109148832 -6.97556731071241 1.7841050324533214 0 0 0 0
47000001 0.05121983471248925 -0.02310677582860493 -6.880351095712794 2.0699408251206837 0 0 0 0
48000001 0.018859236240072408 -0.05560478711556155 -6.9226751553765995 2.2206801162726557 0 0 0 0
49000001 0.054596679663570374 -0.038222282653491105 -6.692513121851977 2.6048933726913432 0 0 0 0
50000001 0.05361992916418982 -0.046013736618123184 -6.611863981381241 2.853840827273884 0 0 0 0
51000001 0.05109761242460475 -0.05330119053839336 -6.531612123305479 3.103673246765273 0 0 0 0
52000001 0.04653852057594068 -0.059741268157439326 -6.453730820953273 3.352610266603019 0 0 0 0
53000001 0.04124416039461946 -0.06551526090172766 -6.376422726249461 3.6057670361259446 0 0 0 0
54000001 0.0354762651358118 -0.06966632461696858 -6.2927129173296015 3.863419321839694 0 0 0 0
55000001 0.028617837709757947 -0.07287184814560892 -6.198544726148117 4.122640350028379 0 0 0 0
56000001 0.021641403334946508 -0.0749606617638567 -6.095955034082924 4.387796073322555 0 0 0 0
57000001 0.014806836665713039 -0.07579846652587771 -5.97410935721307 4.652925420154249 0 0 0 0
58000001 0.008222702695561489 -0.07538973184079388 -5.838684642299971 4.917341146387343 0 0 0 0
59000001 0.0015902397958273986 -0.07437545042881666 -5.690557663914375 5.1753615723335615 0 0 0 0
60000001 -0.0035820736813075202 -0.07268602440302827 -5.527810507936627 5.425685692718041 0 0 0 0
61000001 -0.008638120463837265 -0.07001782002893907 -5.350449244251032 5.663144957636945 0 0 0 0
62000001 -0.013085888875265319 -0.06705680430210019 -5.161319154292149 5.8904392822951435 0 0 0 0
63000001 -0.016634125967000275 -0.06375271854671122 -4.96000613201437 6.104220022592305 0 0 0 0
64000001 -0.024718534512972005 -0.06742027688928559 -4.777473064589023 6.277295910868008 0 0 0 0
65000001 -0.022307074161046346 -0.05715294509945132 -4.532904513638784 6.480015590886483 0 0 0 0
66000001 -0.023838213836909695 -0.053854855310086824 -4.310987415978447 6.645798812424228 0 0 0 0
67000001 -0.02491971556843766 -0.05079127294370523 -4.0803690631446425 6.790044840304278 0 0 0 0
68000001 -0.026213293709164143 -0.04780888582858842 -3.855192147719074 6.924721124963151 0 0 0 0
69000001 -0.026662861572354476 -0.045045425976684525 -3.626757224733133 7.0409702472562445 0 0 0 0
70000001 -0.026938661411321844 -0.04248543823973674 -3.4028294995103576 7.146008773290198 0 0 0 0
71000001 -0.026911524369667074 -0.04051786237910179 -3.177159871045094 7.229591261629714 0 0 0 0
72000001 -0.026325692783976187 -0.03873674722516012 -2.9581969705144777 7.304150537478926 0 0 0 0
73000001 -0.026260626775775016 -0.03688172533847647 -2.737635824484771 7.368405240207025 0 0 0 0
74000001 -0.02567431971452121 -0.03543708634313717 -2.5248388910151913 7.419806903546582 0 0 0 0
75000001 -0.024940773668957666 -0.03463978350660498 -2.319024542097711 7.465569631691395 0 0 0 0
76000001 -0.024427973523419536 -0.03320067411621936 -2.1156094348168715 7.496097330461933 0 0 0 0
77000001 -0.023856755021774735 -0.033105998216704395 -1.9166415411440103 7.516453836639531 0 0 0 0
78000001 -0.022912398347726563 -0.03221386218314201 -1.724876588173152 7.533364980310805 0 0 0 0
79000001 -0.022417811811477503 -0.03213763900994622 -1.53694399020995 7.54478519919914 0 0 0 0
80000001 -0.021651137237821007 -0.03172342421844051 -1.3570432410714233 7.547031440630145 0 0 0 0
81000001 -0.020751025695647945 -0.031747612920817174 -1.1784673593056112 7.538889823051734 0 0 0 0
82000001 -0.020244059995627606 -0.03188482514324288 -1.006854045938798 7.524575359696843 0 0 0 0
83000001 -0.019643812239097194 -0.032039358701512116 -0.8404668492520286 7.50961963245822 0 0 0 0
84000001 -0.01939507693065521 -0.032778396982915035 -0.6817058320466329 7.486571525654024 0 0 0 0
85000001 -0.018743769782928292 -0.032828744180614634 -0.5255137528445882 7.457038973188264 0 0 0 0
86000001 -0.01819745061348557 -0.033058148594304025 -0.37624466914200705 7.421545009185359 0 0 0 0
87000001 -0.017770700578181267 -0.033988724499256016 -0.2296859726848843 7.385281038651129 0 0 0 0
88000001 -0.01751547436153687 -0.034338532833337584 -0.09356973300503563 7.344204945355876 0 0 0 0
89000001 -0.017009593948485634 -0.03496597728995886 0.041152691348480666 7.300753349413599 0 0 0 0
90000001 -0.016957593909881517 -0.03570057110771344 0.17280599709862077 7.2467798776150145 0 0 0 0
91000001 -0.016806770872672135 -0.0361112532774255 0.29899863335972354 7.1964984490023145 0 0 0 0
92000001 -0.016329024523273773 -0.037369415322680545 0.4205082731663915 7.138828451032982 0 0 0 0
93000001 -0.01610226961969459 -0.037972480709898906 0.5336685833651741 7.082201670497215 0 0 0 0
94000001 -0.01586951552963146 -0.038801394079592225 0.649510669868844 7.020601756172187 0 0 0 0
95000001 -0.015834792273066965 -0.03987262390908456 0.7577596540824227 6.955416061063934 0 0 0 0
96000001 -0.015989624562299694 -0.04066481154478231 0.8609162833868119 6.890352039428762 0 0 0 0
97000001 -0.01579706358163125 -0.041232959088803846 0.9617609218745367 6.822850316916305 0 0 0 0
98000001 -0.015874092657244515 -0.04217934564570426 1.060941732089861 6.753403689252397 0 0 0 0
99000001 -0.016317490363621047 -0.04301075444747675 1.152211647607468 6.685079640552849 0 0 0 0
100000001 -0.01600633736885484 -0.043875554675258395 1.242162871692463 6.613277966436313 0 0 0 0
