# HZ S RI R 50
1 0.2292716051288581 -0.4497196096286242 0.01891745799472606 0.020475771337855057 0 0 0 0
1000001 -0.008244674568676873 0.0003297956620327545 -1.3634421990202865 -0.6403205272571811 0 0 0 0
2000001 -0.008310206918549367 0.0011287481802515847 -1.5031128711713249 -0.5017839818229448 0 0 0 0
3000001 -0.007576702042659904 0.0011519583806417987 -1.4552246780164302 -0.509551564639537 0 0 0 0
4000001 -0.007233144469477158 0.0013642083517028452 -1.3904164055528234 -0.5973137882976323 0 0 0 0
5000001 -0.0009946230462427549 -0.03799978319906718 -1.3150011860262454 -0.7126215320166307 0 0 0 0
6000001 -0.023982664971709845 0.019298938735076352 -1.34704833370237 -0.8887441125450045 0 0 0 0
7000001 -0.006998158376976804 0.002089850616089398 -1.369937022563819 -1.0031311122490303 0 0 0 0
8000001 -0.008515923668072101 0.006365702925637374 -1.4574129516023413 -1.097469852286299 0 0 0 0
9000001 0.004923568095836862 0.008448476367357342 -1.58209606295923 -1.121829240352155 0 0 0 0
10000001 0.001572540019400397 -0.0038156693856998243 -1.7189840547495525 -1.0857696929122134 0 0 0 0
11000001 -0.004881135131823873 0.004251988789718809 -1.874780263282709 -0.9812468927147621 0 0 0 0
12000001 -0.00511915071622232 0.003385365498164214 -2.0009497770237323 -0.7926246336799397 0 0 0 0
13000001 -0.003606510029252229 0.003790844501188243 -2.0925772603973587 -0.5395395519491869 0 0 0 0
14000001 -0.004295338961615247 0.004507962341189258 -2.1278631273563726 -0.23078120463397803 0 0 0 0
15000001 0.00018284104032741756 0.005022927073639278 -2.098245941318235 0.136659224363867 0 0 0 0
16000001 -0.002333264226605725 0.006234602811386586 -1.9995096477232137 0.519405046516099 0 0 0 0
17000001 -0.0011566224567498007 0.0055056188536889775 -1.8196028475565378 0.9072175921155614 0 0 0 0
18000001 0.00031748661632031446 0.006169852436634687 -1.5553208120264002 1.2676639013171813 0 0 0 0
19000001 0.0019792406063801476 0.006700414882508496 -1.2228538588315252 1.583615029504 0 0 0 0
20000001 0.004073004805410103 0.006759637854863788 -0.8212835069205378 1.8298766384357226 0 0 0 0
21000001 0.0055519097513444145 0.006831755395008613 -0.3592162726806523 1.9929170604114534 0 0 0 0
22000001 0.007668918494700198 0.00683993136359189 0.1600952319352622 2.0526702676315645 0 0 0 0
23000001 0.010449579231064337 0.006163852376691279 0.6958230691764563 2.001343360117841 0 0 0 0
24000001 0.013366182577342024 0.005775652479027103 1.2330056043122564 1.8336276810752818 0 0 0 0
25000001 0.015949597752876916 0.0048942483195791074 1.7298475397014699 1.5667321538836276 0 0 0 0
26000001 0.019043308193814435 0.0032921441402224915 2.13555457023041 1.220919854466759 0 0 0 0
27000001 0.022158044143614122 0.001498406065965385 2.442186211485304 0.8307126002609994 0 0 0 0
28000001 0.02509430778686698 -0.00112437902914087 2.637342021205126 0.4326775435568796 0 0 0 0
29000001 0.028263539052564034 -0.0041834432817091155 2.743235814446141 0.02036349654347331 0 0 0 0
30000001 0.03142700920019537 -0.007921042558392375 2.7668291208796685 -0.37025142891213736 0 0 0 0
31000001 0.03397985026199964 -0.012463845642349727 2.68070592181301 -0.7356627100618591 0 0 0 0
32000001 0.03607628808485751 -0.01762758668342635 2.5345117345986807 -1.0856904349447398 0 0 0 0
33000001 0.03780591368610598 -0.023185209937603767 2.314530810218486 -1.3934315843256668 0 0 0 0
34000001 0.038671425312712907 -0.029426841571373697 2.0515175876642724 -1.644268333829885 0 0 0 0
35000001 0.03882931227682943 -0.03635858794990047 1.7565309452607272 -1.8285085701636195 0 0 0 0
36000001 0.03783347545397048 -0.04355348519783321 1.450474863709211 -1.9522133999569078 0 0 0 0
37000001 0.03562874952887 -0.05112577819708379 1.1352372405620157 -2.016096725372732 0 0 0 0
38000001 0.03220925318773129 -0.05860425715281939 0.8168504203887169 -2.0157830955746134 0 0 0 0
39000001 0.027520818364628906 -0.06573276222438076 0.5164775754219877 -1.9571870362765127 0 0 0 0
40000001 0.02160844899633539 -0.07292462991834073 0.24547309113688418 -1.8493725778427121 0 0 0 0
41000001 0.014183756690784062 -0.07835656973584326 0.012486961674357214 -1.7042819150338924 0 0 0 0
42000001 0.005738478009608296 -0.08299754781360497 -0.1795208581343351 -1.5256784799860876 0 0 0 0
43000001 -0.0034621890537214367 -0.0863140701225368 -0.3165102152260069 -1.3268181973984932 0 0 0 0
44000001 -0.013208593116053003 -0.08814696630338767 -0.3941084535907634 -1.1285492189794664 0 0 0 0
45000001 -0.02371603993305252 -0.08830101379339862 -0.4218041613358817 -0.9442778075050929 0 0 0 0
46000001 -0.03440558200922681 -0.08675881467854912 -0.4156654380950571 -0.7659835005482868 0 0 0 0
47000001 -0.04394018225793744 -0.08349731715942631 -0.37013166497387523 -0.6001807361478994 0 0 0 0
48000001 -0.053317241872772335 -0.07760362090056805 -0.2900350389094835 -0.4560648030234549 0 0 0 0
49000001 -0.06131062284439648 -0.07198961719779456 -0.18020437844751305 -0.3348496842563015 0 0 0 0
50000001 -0.06826037740222131 -0.06425285326045185 -0.05308590009723795 -0.24870391541173523 0 0 0 0
51000001 -0.07367568610424659 -0.055580568069126014 0.08233419534812263 -0.20245380903541718 0 0 0 0
52000001 -0.07649014211440984 -0.0457898406415658 0.21300849210406278 -0.17871523776729262 0 0 0 0
53000001 -0.07971276058268174 -0.03689454571883104 0.3344690945920905 -0.1698194534492379 0 0 0 0
54000001 -0.08019864276311088 -0.027520064233036632 0.45598769737727657 -0.1626746382227258 0 0 0 0
55000001 -0.07926126463213487 -0.01846998148623943 0.5764779885732629 -0.14949605496883825 0 0 0 0
56000001 -0.07697210852263014 -0.009775430828288922 0.700576271530786 -0.1320534012201292 0 0 0 0
57000001 -0.07364663331849503 -0.0021972663174092207 0.8417449595902494 -0.10564222264497726 0 0 0 0
58000001 -0.06934452400835546 0.004971642602540659 1.0025962584103025 -0.07884810606963413 0 0 0 0
59000001 -0.06411297982273599 0.011017748524192003 1.2012745314265025 -0.05698815146493203 0 0 0 0
60000001 -0.0582578212607827 0.015317500472404743 1.4154226236985334 -0.0734721899291048 0 0 0 0
61000001 -0.05209770731235333 0.019313498971041353 1.669476793523249 -0.1383940100974703 0 0 0 0
62000001 -0.04591175086993183 0.022072438930251567 1.9325755506457105 -0.2624652471450381 0 0 0 0
63000001 -0.039584826107826515 0.024048557911418324 2.2533412537916875 -0.4293833324147312 0 0 0 0
64000001 -0.032999423634012294 0.02678017381397405 2.5905748084813154 -0.6351490987318363 0 0 0 0
65000001 -0.02742176342635334 0.025149075577962032 2.9644605361644 -0.8241397118063869 0 0 0 0
66000001 -0.021566652242061016 0.02475750678738718 3.368701792831234 -1.0557946315119326 0 0 0 0
67000001 -0.015943272183361404 0.02319444624445411 3.776203850692631 -1.3801613270879514 0 0 0 0
68000001 -0.002881094950847933 0.03431298290770773 4.088428826042892 -1.801034554004459 0 0 0 0
69000001 -0.006067607714370588 0.018878040280452247 4.400487176118084 -2.223037055672519 0 0 0 0
70000001 -0.0016358421101311973 0.01604662461930029 4.621486350469927 -2.7040881632788927 0 0 0 0
71000001 0.0021645008073230207 0.01295565317360328 4.754963828607832 -3.191329306999809 0 0 0 0
72000001 0.005052823608097117 0.00899774320995015 4.804088305647056 -3.6686369158844254 0 0 0 0
73000001 0.007860293791201683 0.005303971552990425 4.774527652172277 -4.119387315462616 0 0 0 0
74000001 0.010385837108578436 0.0019361476091305052 4.672473917165809 -4.532908754531326 0 0 0 0
75000001 0.011825675505329066 -0.0025016739606618502 4.552070041074381 -4.928263990548079 0 0 0 0
76000001 0.013010908158633108 -0.0063657247933250624 4.406711186257514 -5.278652022372338 0 0 0 0
77000001 0.013694378674695657 -0.010240293542905298 4.241094242794265 -5.608155129308412 0 0 0 0
78000001 0.014135500255152365 -0.013974808188002574 4.062084987657336 -5.918125229994272 0 0 0 0
79000001 0.013917573577692893 -0.0177689007194119 3.8703931151843323 -6.2013371848542205 0 0 0 0
80000001 0.013809755119526479 -0.02123491697700095 3.664868223372346 -6.4582300043507415 0 0 0 0
81000001 0.01308131773818854 -0.024750188983028325 3.443517545778239 -6.697745160007235 0 0 0 0
82000001 0.012156155949324973 -0.028242179058382614 3.211646233627892 -6.907153992408992 0 0 0 0
83000001 0.011026663175803787 -0.03147770890691659 2.976687305437957 -7.094983256264683 0 0 0 0
84000001 0.009424376580086578 -0.034252010095220185 2.728576465131582 -7.274504563091129 0 0 0 0
85000001 0.007665988532673972 -0.03654727815782374 2.4664468947006593 -7.435783699354878 0 0 0 0
86000001 0.005810862444327507 -0.039045491718965146 2.1974095535163105 -7.583984857767584 0 0 0 0
87000001 0.0040116582537142315 -0.04146011715949879 1.9149148413090193 -7.725074745095052 0 0 0 0
88000001 0.002073461240064832 -0.0432681746292811 1.6272911774468088 -7.860934806385351 0 0 0 0
89000001 0.0001774247935152445 -0.045134319547411754 1.3368037148259821 -7.997051346796081 0 0 0 0
90000001 -0.0018935908465707702 -0.046625600098264754 1.0305577669884907 -8.141834005728565 0 0 0 0
91000001 -0.004309541272671318 -0.04787991770894381 0.7026096663129108 -8.307251686877887 0 0 0 0
92000001 -0.006313359918933023 -0.04915262808015416 0.3525640101792935 -8.479298707824569 0 0 0 0
93000001 -0.008405790296801652 -0.04964450515122664 -0.026058251889765655 -8.642260820685488 0 0 0 0
94000001 -0.010310455077899617 -0.05100132989876789 -0.44974583044996147 -8.792035724874227 0 0 0 0
95000001 -0.012902560058619266 -0.05198656232818854 -0.9129420287917202 -8.907484019698659 0 0 0 0
96000001 -0.0152764047311256 -0.05244212574478227 -1.380419575165679 -8.960894565836822 0 0 0 0
97000001 -0.01720208827043754 -0.05228814008839638 -1.8349809910634294 -8.951323305807204 0 0 0 0
98000001 -0.01940523546544694 -0.05211723404711994 -2.283324432535262 -8.875251445177518 0 0 0 0
99000001 -0.021759566418083395 -0.05226457542036375 -2.727388881770386 -8.7691191309299 0 0 0 0
100000001 -0.02351447904525111 -0.052249657294534665 -3.167249334416078 -8.628484923227969 0 0 0 0
