# HZ S RI R 50
1 0.3641588318929215 -0.2593665052277602 -0.09588696745304079 0.04999652562713792 0 0 0 0
1000001 -0.008631460721366946 0.0004821436920841889 -0.6437929054158786 -0.21704609805074504 0 0 0 0
2000001 -0.00654503746468696 -0.001882451648325452 -0.6906423549806916 -0.4252848420021138 0 0 0 0
3000001 -0.008393855639252 -0.00018157656927320556 -0.7710644226030806 -0.6286273302744642 0 0 0 0
4000001 -0.007758436763704079 -0.0002484258647998312 -0.8757144729532182 -0.8211018771685189 0 0 0 0
5000001 -0.007353814446494022 -0.000413178490985543 -1.007837953075357 -0.9994991201138167 0 0 0 0
6000001 -0.0068216617978007115 -0.0011108676936234104 -1.1540893411540587 -1.169635621346979 0 0 0 0
7000001 -0.006872523848733504 -0.0019126284094901206 -1.324832569439918 -1.3215574347421983 0 0 0 0
8000001 -0.009124563758641067 -0.0025191165193723746 -1.5145526402541538 -1.4574052703145868 0 0 0 0
9000001 -0.006914791590572153 -0.0012724396925782803 -1.721282435023372 -1.5743871508558278 0 0 0 0
10000001 -0.005610182682845987 -0.005259218914858591 -1.944531592527153 -1.6742760175791371 0 0 0 0
11000001 -0.0024362070541455966 -0.005216727896502645 -2.181837499512047 -1.7527089002066145 0 0 0 0
12000001 -0.007523717306258167 -0.00676231254956076 -2.430253129845619 -1.8181093293770916 0 0 0 0
13000001 -0.008666854867664468 -0.009457276915662227 -2.682193240751247 -1.8538586010090594 0 0 0 0
14000001 -0.008088025542319285 -0.012056808214215507 -2.940827208243172 -1.8646661875408517 0 0 0 0
15000001 -0.009668542208743733 -0.009674604124958753 -3.2252252986614414 -1.8573835806323724 0 0 0 0
16000001 -0.00606892922521286 -0.012948017122576348 -3.511883616014891 -1.823617368774249 0 0 0 0
17000001 -0.007486866874176771 -0.014346603803229075 -3.829426094434905 -1.7839790284185926 0 0 0 0
18000001 -0.02495195191883121 -0.02588568795406552 -4.148749031426354 -1.7687380505732069 0 0 0 0
19000001 -0.012352933577477566 -0.018100789678291488 -4.510371379507443 -1.6278775613176553 0 0 0 0
20000001 -0.018724185211079707 -0.013271909311030968 -4.881855622170565 -1.4991099874628369 0 0 0 0
21000001 -0.021542064998527753 -0.013401177887505483 -5.229775226651815 -1.3238058216972146 0 0 0 0
22000001 -0.024667498119696193 -0.01301246919822139 -5.568936034061896 -1.1011085965210101 0 0 0 0
23000001 -0.018904440792781092 -0.016436626114188262 -5.8625860999539405 -0.8264084606010602 0 0 0 0
24000001 -0.029264087274944166 -0.017734491133679427 -6.172412437050807 -0.5471264661637214 0 0 0 0
25000001 -0.03360468565379205 -0.007825776958686671 -6.469365953549449 -0.18465178303484625 0 0 0 0
26000001 -0.03642633026217556 -0.004376403037044407 -6.708272626505919 0.20851909189834944 0 0 0 0
27000001 -0.038899452076601886 -0.0005020846229582775 -6.89767907952861 0.6408339534533032 0 0 0 0
28000001 -0.040407705511151804 0.0041802169143208626 -7.035248958341646 1.1115777282315267 0 0 0 0
29000001 -0.04101781060133683 0.009766812108737359 -7.111761548646346 1.6176094279362938 0 0 0 0
30000001 -0.04035486951093887 0.01583412159808437 -7.115927156879499 2.137633870077576 0 0 0 0
31000001 -0.038691328646279485 0.021905149227485276 -7.04633732012857 2.6717022212428736 0 0 0 0
32000001 -0.03552252048956929 0.02819696732947073 -6.904972477186196 3.2068801407740195 0 0 0 0
33000001 -0.030969150209912675 0.03410672590450652 -6.679205575305169 3.7255294597364075 0 0 0 0
34000001 -0.024971615729212568 0.039489976665480424 -6.387514853683303 4.224173367155719 0 0 0 0
35000001 -0.017399946868849808 0.043256463725787626 -6.040054642817809 4.701257397542435 0 0 0 0
36000001 -0.008389623902201127 0.04623088764412995 -5.642290306805248 5.154875538983171 0 0 0 0
37000001 0.0010025150075974253 0.04707908216597448 -5.2014697009570545 5.570817099197517 0 0 0 0
38000001 0.011049866268918363 0.04626786512646691 -4.733855698350412 5.942847396076937 0 0 0 0
39000001 0.020982806117617114 0.04376878682254822 -4.240621264894544 6.272392160188186 0 0 0 0
40000001 0.030971105104634446 0.038766810502589615 -3.7266311158632854 6.557439527909211 0 0 0 0
41000001 0.03959813611414952 0.03222994298829778 -3.2016535102680175 6.79304119576761 0 0 0 0
42000001 0.04684000710336383 0.02418902637656094 -2.6761908702132122 6.984835983325297 0 0 0 0
43000001 0.052676421810206195 0.01466793307721071 -2.1519620627260894 7.139857513798627 0 0 0 0
44000001 0.057186911442386516 0.004551130564752773 -1.629617866872723 7.255650886585702 0 0 0 0
45000001 0.059570336911024216 -0.005946596981896471 -1.1126840397615634 7.344860838187565 0 0 0 0
46000001 0.06061297666210558 -0.016495703091103334 -0.5984349818086057 7.398633435965127 0 0 0 0
47000001 0.059823478447902007 -0.026839880374953665 -0.09215796821105654 7.4285814213903585 0 0 0 0
48000001 0.05728764723823298 -0.03623793834881799 0.4222311676373369 7.428216749544115 0 0 0 0
49000001 0.0549395566683729 -0.045054240467395174 0.9252668114598122 7.401215125231763 0 0 0 0
50000001 0.05109299043846516 -0.05317267773562464 1.4275130516978796 7.341744769702943 0 0 0 0
51000001 0.04644585113330671 -0.06044356086743911 1.9323026626866402 7.256434028808384 0 0 0 0
52000001 0.04126758601935327 -0.06685731487118565 2.430612287901223 7.140196451661592 0 0 0 0
53000001 0.0358188876352941 -0.0727128219232744 2.924842200909341 6.996566169705091 0 0 0 0
54000001 0.030284541564879544 -0.07774697608518616 3.4145167601246693 6.823575425945176 0 0 0 0
55000001 0.023965264891324174 -0.0822676283816864 3.891540664952746 6.624230449599647 0 0 0 0
56000001 0.01739990904363746 -0.08625109803196776 4.363339717740226 6.394073775884472 0 0 0 0
57000001 0.01036969195296291 -0.08956571169188753 4.820297633339153 6.13296871401961 0 0 0 0
58000001 0.0029813195461952757 -0.09153152584691006 5.268660195794788 5.843703130371766 0 0 0 0
59000001 -0.004616197591201397 -0.09364425192890517 5.696751514749735 5.522612607351886 0 0 0 0
60000001 -0.012071138275852555 -0.09462528854653375 6.109606640140938 5.174405669451365 0 0 0 0
61000001 -0.019530761860700338 -0.09432162171613465 6.503877034831401 4.794779794704735 0 0 0 0
62000001 -0.026972245678001282 -0.09362390502426629 6.870407485899445 4.389463892951727 0 0 0 0
63000001 -0.03437652039059321 -0.09162665150435703 7.215558107387826 3.950566010806469 0 0 0 0
64000001 -0.04123573903817412 -0.08898107659346906 7.538007705721327 3.4909987112778547 0 0 0 0
65000001 -0.047699956974099365 -0.08563341836925166 7.799151256681725 2.9968593376414767 0 0 0 0
66000001 -0.053280280807107956 -0.08169117720211809 8.032721280024683 2.4908384303301476 0 0 0 0
67000001 -0.05842671771471585 -0.07711765185732934 8.210491128288146 1.9645740589002614 0 0 0 0
68000001 -0.06311522044717222 -0.07237127214262612 8.34892152869357 1.4311511058597648 0 0 0 0
69000001 -0.06657047562820753 -0.06721814189115033 8.431216544230532 0.8965109557691908 0 0 0 0
70000001 -0.06934142990484554 -0.061821904566184034 8.471301993223943 0.36567098326698677 0 0 0 0
71000001 -0.07188930300732291 -0.056136656237689 8.461625647115369 -0.16427273696874461 0 0 0 0
72000001 -0.07378010766779657 -0.051047987178176 8.408870042844125 -0.6741327857081755 0 0 0 0
73000001 -0.07473072451474318 -0.04523674330303015 8.315190655604574 -1.1787750903849499 0 0 0 0
74000001 -0.0750592939342223 -0.04003231971099391 8.185187567663585 -1.658836925182176 0 0 0 0
75000001 -0.07515625383251465 -0.03499371152778618 8.032472859476048 -2.1260183005729054 0 0 0 0
76000001 -0.07441224609703533 -0.030067033858574354 7.843886364106685 -2.5621352924594234 0 0 0 0
77000001 -0.0737069514236221 -0.02571927805640616 7.627413201965653 -2.9795474566786377 0 0 0 0
78000001 -0.07179222053524435 -0.02160993887298387 7.388048831444634 -3.3674506472523036 0 0 0 0
79000001 -0.07006693435623466 -0.017842658018719725 7.136928564864791 -3.7369401012250334 0 0 0 0
80000001 -0.06808182810088506 -0.014106510950102008 6.86598353943087 -4.079496848255374 0 0 0 0
81000001 -0.0658811924863513 -0.010956612436545148 6.577524692542677 -4.3959799360641885 0 0 0 0
82000001 -0.06323017419085193 -0.008004765070139119 6.277671084015457 -4.684892704408772 0 0 0 0
83000001 -0.06104389899770176 -0.0056620260794568965 5.972853672285847 -4.955412818594555 0 0 0 0
84000001 -0.05858111184211113 -0.0038354324762740373 5.655330808287776 -5.199213295314785 0 0 0 0
85000001 -0.05574250405727792 -0.0020673927567147602 5.336490418428672 -5.415720928330574 0 0 0 0
86000001 -0.05267411810671091 -0.0004357721145626973 5.013968295546879 -5.609397145425176 0 0 0 0
87000001 -0.050174107757387905 0.0004708465237639167 4.682230912205577 -5.7823105051678265 0 0 0 0
88000001 -0.04758543316168874 0.0016312734038711225 4.359721427271028 -5.933984246290362 0 0 0 0
89000001 -0.045137109173451005 0.0019925542486639264 4.031086565199989 -6.066749373935444 0 0 0 0
90000001 -0.04255302466850882 0.0023967675586378766 3.7031779268173017 -6.172314046582785 0 0 0 0
91000001 -0.04007684841929239 0.0028305501574918033 3.378850597323071 -6.2638771929064765 0 0 0 0
92000001 -0.03752139927472368 0.0019924303345819753 3.0597106395448037 -6.334447745342368 0 0 0 0
93000001 -0.035537145569519084 0.0017922792636753228 2.744249000784485 -6.389693541992756 0 0 0 0
94000001 -0.03322991515220532 0.0014741363462614117 2.4279507903293323 -6.427616303270999 0 0 0 0
95000001 -0.03141356347942813 0.00040030353582044614 2.11953146431424 -6.452356018367328 0 0 0 0
96000001 -0.029755379701003285 -0.00021997372257774963 1.8159460826856468 -6.459162200442227 0 0 0 0
97000001 -0.027966260362760464 -0.0008322087270040572 1.5160842932059118 -6.455352209265326 0 0 0 0
98000001 -0.026411302511249766 -0.001982445703082216 1.224066479538284 -6.433121482272648 0 0 0 0
99000001 -0.025236674456870556 -0.0029351693361320728 0.9413441164998849 -6.401997656844669 0 0 0 0
100000001 -0.024143728667673635 -0.004220373025544818 0.6646125020089831 -6.357903664800442 0 0 0 0
