# HZ S RI R 50
1 0.5580419874403127 0.20033217045019888 0.006450317398637398 0.08821694303783692 0 0 0 0
1000001 -0.008663293723929339 0.0005321814856861014 -0.9521387479413245 -0.20911036856226112 0 0 0 0
2000001 -0.007202997264360504 -0.0005392295420759934 0.7226120382806173 -0.6534020726263371 0 0 0 0
3000001 -0.00951024518428275 8.276483861105507e-05 1.0847322940244946 -0.94126801935477 0 0 0 0
4000001 -0.007509744882084159 0.0005005313146399504 0.9574669395751987 -1.0934922291602476 0 0 0 0
5000001 -0.007293595457680853 -0.00045011733000689723 0.760652168614623 -1.1445681419044003 0 0 0 0
6000001 -0.006829356672308907 -0.0012846388737314707 0.554421164612813 -1.126698109694585 0 0 0 0
7000001 -0.006907653309745796 -0.0016344109580264659 0.35405975748683644 -1.0539238174968901 0 0 0 0
8000001 -0.009118543244063387 -0.002476379988575391 0.17616074564152398 -0.9295690730990666 0 0 0 0
9000001 -0.00701425427985693 -0.0010262476619381645 0.02723571399590958 -0.7592871706273174 0 0 0 0
10000001 -0.004095333216761959 -0.0036390884138977047 -0.08191972736392238 -0.5386477836650375 0 0 0 0
11000001 -0.006855111497089449 -0.003337160051145336 -0.13539679122154896 -0.29260516900701383 0 0 0 0
12000001 -0.007566567258234538 -0.005274113534532134 -0.14583656516725582 -0.03873522150970258 0 0 0 0
13000001 -0.007954703352746355 -0.006649205001469819 -0.1247514238141963 0.20663428357865443 0 0 0 0
14000001 -0.008510356122331088 -0.007860215866397366 -0.06575410616179032 0.4562356241909895 0 0 0 0
15000001 -0.00956066750285968 -0.008860901982432523 0.06305933417313014 0.7368942049903662 0 0 0 0
16000001 -0.012994574284298784 -0.009666438882647552 0.28753545583173273 1.040988223870515 0 0 0 0
17000001 -0.0133445530391492 -0.011429298792679843 0.6336939726637176 1.3483752494363237 0 0 0 0
18000001 -0.017510928548396577 -0.010445871083495392 1.0853171832587527 1.613476502235344 0 0 0 0
19000001 -0.0161186745741797 -0.012514643598367984 1.617427995751861 1.793191129014466 0 0 0 0
20000001 -0.017223494929904683 -0.011931716664351442 2.1724027123045264 1.870689139751175 0 0 0 0
21000001 -0.020108063943591565 -0.011837823335380046 2.5893792314432575 1.8368173207186247 0 0 0 0
22000001 -0.022699153407048943 -0.011330197452948587 2.866952112192381 1.6906550833764749 0 0 0 0
23000001 -0.0254586082225081 -0.010443737676865884 2.999475132415286 1.478136247956455 0 0 0 0
24000001 -0.02812140949250571 -0.008618322660434335 3.048099870928161 1.2248955710116578 0 0 0 0
25000001 -0.03065032178332456 -0.0064274513577421855 3.0585013178794056 0.9747415407269976 0 0 0 0
26000001 -0.032673313663615165 -0.0029210696552584388 3.0015213998552484 0.709941827498587 0 0 0 0
27000001 -0.03453731832788118 0.0006700322029834584 2.892036099208677 0.4484725031680991 0 0 0 0
28000001 -0.03546262697192587 0.005044891325772033 2.7242747800429887 0.19993409218970862 0 0 0 0
29000001 -0.035816724258840554 0.010352394826976622 2.489076895963694 -0.028337515269324726 0 0 0 0
30000001 -0.0345503949837183 0.015735029360065222 2.213593758650581 -0.2281045352428344 0 0 0 0
31000001 -0.03219751943639901 0.02114290153724152 1.9187445875134865 -0.3943930624253883 0 0 0 0
32000001 -0.0285811377491517 0.026552006156118135 1.5986160743609554 -0.5068049714006924 0 0 0 0
33000001 -0.023401061534233273 0.03152281793995213 1.2500248550467976 -0.5601003968793924 0 0 0 0
34000001 -0.017144463601245802 0.03549159382321777 0.938534169669768 -0.5550506433395075 0 0 0 0
35000001 -0.009211900125812078 0.03817049519363507 0.6860872643676614 -0.5117797394489877 0 0 0 0
36000001 -0.0007474431305132957 0.03956049233330319 0.4560905481258613 -0.4312967940231523 0 0 0 0
37000001 0.00834168344076104 0.039035777101187934 0.27724036834154486 -0.31712273533451935 0 0 0 0
38000001 0.017911465268312263 0.036265011807148265 0.1686158165516654 -0.19204485870780597 0 0 0 0
39000001 0.02699372794066873 0.032085377753722076 0.14454991325751113 -0.09932075722655195 0 0 0 0
40000001 0.03547619644018462 0.02587376311345284 0.18432125293358118 -0.04430986645935694 0 0 0 0
41000001 0.04251341525715535 0.018179411205407347 0.19500588632053864 0.031857466793654886 0 0 0 0
42000001 0.04795394499537831 0.009012537303083386 0.17555141800699914 0.15419695710291234 0 0 0 0
43000001 0.05191019271490511 -0.0006790509421761397 0.15813429552614802 0.34357572327141 0 0 0 0
44000001 0.05482211733464775 -0.011147679171809187 0.216597812951945 0.5186106883876264 0 0 0 0
45000001 0.055374930776605914 -0.022281671357714156 0.3575167929878338 0.4186549315765295 0 0 0 0
46000001 0.05406870654209168 -0.03303234457499318 0.3794026458639937 0.2386720352143319 0 0 0 0
47000001 0.05114772710066189 -0.04316957373490389 0.29113005851359963 0.0944558927320579 0 0 0 0
48000001 0.0456087352650287 -0.052140355890784196 0.15410692151186442 0.013101976666057925 0 0 0 0
49000001 0.04085843299076959 -0.05997423887630075 0.018856491873898047 -0.020409704706003895 0 0 0 0
50000001 0.03470552053910226 -0.06650219344079135 -0.1027071313993427 -0.04700443842998094 0 0 0 0
51000001 0.027670526974163286 -0.07190842077463289 -0.22787111840424976 -0.08873432725087585 0 0 0 0
52000001 0.02038189271722685 -0.07595668295649065 -0.3640388945751098 -0.15112166248813122 0 0 0 0
53000001 0.0133649424334907 -0.07911644801985922 -0.5226161009663443 -0.22221179748250774 0 0 0 0
54000001 0.007008084654958702 -0.08076758517354693 -0.6791464422586411 -0.27702382427133804 0 0 0 0
55000001 0.00039542205770018256 -0.08223425369880519 -0.8234691817140448 -0.3048374243853296 0 0 0 0
56000001 -0.005975964397204401 -0.08286871580133501 -0.9401232831606072 -0.30897822139605324 0 0 0 0
57000001 -0.012301156437384657 -0.08297642473495857 -1.0282324782549206 -0.29221379376631507 0 0 0 0
58000001 -0.018446732028322917 -0.0824853196451928 -1.1182926548756364 -0.2869975529551852 0 0 0 0
59000001 -0.024481027004991263 -0.08145794670537618 -1.2096957817681508 -0.3006633158743466 0 0 0 0
60000001 -0.029763499693472268 -0.08026065678085531 -1.2893665077829215 -0.3301352753734922 0 0 0 0
61000001 -0.03520555873227265 -0.0783945760341039 -1.3581768258593747 -0.3674389900045627 0 0 0 0
62000001 -0.04011054242160441 -0.076144108293133 -1.4227690542701201 -0.42012625215179916 0 0 0 0
63000001 -0.044766652164342634 -0.0731231194909882 -1.4896826335864597 -0.48677021884364347 0 0 0 0
64000001 -0.04940792736638002 -0.06999053648574372 -1.5652370758202307 -0.5526632708172926 0 0 0 0
65000001 -0.05324217391607258 -0.06673074295608286 -1.6446497570408944 -0.6225729969458005 0 0 0 0
66000001 -0.0566508239277225 -0.06263950520312074 -1.7206110946633897 -0.6703570690106214 0 0 0 0
67000001 -0.05958319347700338 -0.05863713653077619 -1.7802202136126826 -0.6902164890532222 0 0 0 0
68000001 -0.06217094330308926 -0.054390581647471015 -1.8261954265027134 -0.6940397598307184 0 0 0 0
69000001 -0.06407592656761486 -0.04981582709575138 -1.8472631253663847 -0.6745059479709039 0 0 0 0
70000001 -0.06532565865905378 -0.04549125291467817 -1.8473165640140805 -0.6524355763803495 0 0 0 0
71000001 -0.06619812253981025 -0.04109923337450371 -1.8339431785781752 -0.6316092430168404 0 0 0 0
72000001 -0.066597170174299 -0.03668846774690371 -1.8067843901556149 -0.6104827963739773 0 0 0 0
73000001 -0.06661685894748545 -0.03233917122170254 -1.7796451237728868 -0.618663446289296 0 0 0 0
74000001 -0.06595593588822703 -0.02836224430397337 -1.7680314716441963 -0.650808853312756 0 0 0 0
75000001 -0.0653730488616263 -0.0245059543477173 -1.7882870050123711 -0.7350747912992481 0 0 0 0
76000001 -0.06394833371795251 -0.020867089177104187 -1.8349189001979698 -0.8378630986101333 0 0 0 0
77000001 -0.06234636278109438 -0.017698952775800955 -1.8884494328958896 -0.9450960443586156 0 0 0 0
78000001 -0.060555462760151675 -0.014563121893806468 -1.9400021498790023 -1.044515974739734 0 0 0 0
79000001 -0.058384375751867404 -0.012101243750278849 -1.9808086526688025 -1.10633742290578 0 0 0 0
80000001 -0.05465645209530947 -0.009242823929874815 -2.03047978992062 -1.189462249955569 0 0 0 0
81000001 -0.05410183834772531 -0.011124793279813201 -2.076536663967019 -1.2672078655435575 0 0 0 0
82000001 -0.05058530069756735 -0.014642732207210673 -2.1253137474444532 -1.3369336964013998 0 0 0 0
83000001 -0.04567090899302005 -0.005042185085685324 -2.192340456173755 -1.4029741008208723 0 0 0 0
84000001 -0.0472438647791824 -0.003998299488936386 -2.2684183031710385 -1.4901630568890647 0 0 0 0
85000001 -0.04472795507105649 -0.0031092198312222845 -2.3543518057865835 -1.5943745094956938 0 0 0 0
86000001 -0.04215942844426199 -0.002164943898526753 -2.4628847249927186 -1.7122199334767052 0 0 0 0
87000001 -0.04021167439274735 -0.0023422475277484773 -2.593522132578252 -1.8610271383824037 0 0 0 0
88000001 -0.03831687949781381 -0.002088053547030477 -2.7482583707420405 -2.0206990560563214 0 0 0 0
89000001 -0.036210064564893986 -0.0024714349418407744 -2.9240031637417636 -2.1917676508889867 0 0 0 0
90000001 -0.0343172329639197 -0.0028401150761338746 -3.1208429539259104 -2.3756690929439213 0 0 0 0
91000001 -0.0326554852366057 -0.002790711860042187 -3.3488941461051454 -2.5767387639072803 0 0 0 0
92000001 -0.030906626197499846 -0.0040366051776893055 -3.5878900915606597 -2.7617667985326686 0 0 0 0
93000001 -0.029542613191832226 -0.004526580827299843 -3.8585506776747467 -2.949329313416536 0 0 0 0
94000001 -0.028021612700921017 -0.005095933070835108 -4.138269066481778 -3.1188041345318207 0 0 0 0
95000001 -0.026922915319724735 -0.006179947894348855 -4.4375430117293515 -3.2709370136663236 0 0 0 0
96000001 -0.025896761612086604 -0.0070185484284961165 -4.732726723789858 -3.3996467817271236 0 0 0 0
97000001 -0.02455197195139395 -0.0076447256867394975 -5.045367446324287 -3.5214030906800304 0 0 0 0
98000001 -0.02386969914851322 -0.009044261850559981 -5.335122084683421 -3.5821587308992293 0 0 0 0
99000001 -0.023060898700136515 -0.010315567676995598 -5.638448363948732 -3.6228941380871413 0 0 0 0
100000001 -0.022547025555475626 -0.011141838781429025 -5.940164820538326 -3.626072110747007 0 0 0 0
