# HZ S RI R 50
1 0.8830473717132352 -0.007969848516290646 -0.009885268010424705 0.014662402088729846 0 0 0 0
1000001 -0.007525720572802939 0.00029516998989079983 -0.4082561535963577 -0.2845402345385675 0 0 0 0
2000001 0.017263844617978353 -0.01705677576469238 -0.49796150000069717 -0.3642350706844142 0 0 0 0
3000001 0.026801488082232677 -0.005218932159077758 -0.5619816491689766 -0.46694710294864317 0 0 0 0
4000001 -0.007352605876043885 0.0013468431479571863 -0.6204677403744631 -0.5971424990166058 0 0 0 0
5000001 -0.00694790823144234 0.001796492516411833 -0.6962968955662188 -0.7107692755501104 0 0 0 0
6000001 -0.0066657730174917605 0.0018675648965871075 -0.7783409123998786 -0.8257305434185883 0 0 0 0
7000001 -0.006621709871821546 0.0018501352507672788 -0.8764637319382548 -0.9337753258428896 0 0 0 0
8000001 -0.008717468907498778 0.002350412363449938 -0.9883172432398479 -1.0352585694360712 0 0 0 0
9000001 -0.006154055522056664 0.004550139429400611 -1.1132081457344514 -1.129364639389758 0 0 0 0
10000001 -0.004204605277348683 0.0022723566432775576 -1.2529864234948311 -1.2133855092533055 0 0 0 0
11000001 -0.004752245783868177 0.0035007028951280854 -1.4030045120084869 -1.2901266183037938 0 0 0 0
12000001 -0.004906825541236345 0.002723887195696222 -1.5651889323699066 -1.3525011414569894 0 0 0 0
13000001 -0.003640246464763444 0.003031565927495445 -1.7400015946668193 -1.3997052397681056 0 0 0 0
14000001 -0.003402105569102066 0.0034023438197164123 -1.9242329055429472 -1.4358728510939103 0 0 0 0
15000001 -0.0029966248952995925 0.003533949759058471 -2.1206840503959055 -1.45454030185768 0 0 0 0
16000001 -0.0012707408088998347 0.0035525285155995445 -2.326544972052118 -1.4561366784349004 0 0 0 0
17000001 0.00026074675674075585 0.004753778099258264 -2.5490264261551308 -1.4425081209409782 0 0 0 0
18000001 -0.00013865715206359274 0.004024320499729914 -2.7778095633984266 -1.41426534848936 0 0 0 0
19000001 0.0009677526685307696 0.004173854375912206 -3.016723779304719 -1.3603577004775789 0 0 0 0
20000001 0.0024012709923587256 0.0042773462607658096 -3.2602549193911154 -1.2828448176263936 0 0 0 0
21000001 0.003710629020110422 0.004133353124512713 -3.504966881130753 -1.180764686318897 0 0 0 0
22000001 0.013693512542758012 0.0004472645541368474 -3.732364650628858 -1.032326976382705 0 0 0 0
23000001 0.007305500553548966 0.0008832682699251311 -3.9804599789485344 -0.8927141524811364 0 0 0 0
24000001 0.008871698322200897 -0.0020392840060378687 -4.206098831302621 -0.7101262722501617 0 0 0 0
25000001 0.011761556980486844 0.0019125932809807137 -4.431932848074448 -0.4858863063673731 0 0 0 0
26000001 0.014419176344147107 -0.00010125277573359083 -4.6306636309500595 -0.24281520449111152 0 0 0 0
27000001 0.01610866151286186 -0.001292868487781322 -4.813086214665435 0.028114069630520523 0 0 0 0
28000001 0.018509372555002315 -0.003525138855021331 -4.968612384643723 0.3260465701154227 0 0 0 0
29000001 0.020733879631504182 -0.005806269310224839 -5.103297561181938 0.6477073698688735 0 0 0 0
30000001 0.02264178094812017 -0.00890086168876745 -5.205594256708449 0.9839594468237679 0 0 0 0
31000001 0.024461606767363003 -0.012366274618595354 -5.278275357483999 1.3435121331562796 0 0 0 0
32000001 0.025848153760114945 -0.016506309842484107 -5.318666005489402 1.716257215383397 0 0 0 0
33000001 0.027022426938627414 -0.020815791355346468 -5.325451953940193 2.101874874336244 0 0 0 0
34000001 0.027188258137004713 -0.025675135328713364 -5.296781711495084 2.4987851329841053 0 0 0 0
35000001 0.026892463634233022 -0.031068400232701635 -5.233734172833036 2.8990987600178375 0 0 0 0
36000001 0.025924990901795838 -0.036361438805026326 -5.13262396739434 3.306287816933291 0 0 0 0
37000001 0.023616474064801437 -0.041932904692214626 -4.992858023010013 3.7141222534245433 0 0 0 0
38000001 0.02082853214561503 -0.04728736728333781 -4.819297514481635 4.116954090825528 0 0 0 0
39000001 0.017167018950699862 -0.05234529029315597 -4.607910787441325 4.5164466429815056 0 0 0 0
40000001 0.012213091058403755 -0.05741753340589332 -4.355700183424593 4.905937606252606 0 0 0 0
41000001 0.006605907768818318 -0.061592571986359146 -4.071011665558621 5.287396463174242 0 0 0 0
42000001 -0.00016493699653696056 -0.06409906184251528 -3.7476009943469477 5.64911478488376 0 0 0 0
43000001 -0.00717920043936206 -0.06605714409824104 -3.3845350957419615 5.993758333581373 0 0 0 0
44000001 -0.01434342529030985 -0.06695203146801758 -2.9819800658157387 6.313493066644431 0 0 0 0
45000001 -0.02195181634334686 -0.06666634745990399 -2.5412184919937872 6.601554301852596 0 0 0 0
46000001 -0.029470063310941014 -0.06484646495098781 -2.0635395069615163 6.852101120547315 0 0 0 0
47000001 -0.036353504622889665 -0.0619962413203675 -1.5642070140835231 7.061435764149764 0 0 0 0
48000001 -0.07051002455433714 -0.04953321655297918 -1.0669163647331823 7.344420794586119 0 0 0 0
49000001 -0.0702929813728295 -0.06045525719316473 -0.5541022103652428 7.405835328593127 0 0 0 0
50000001 -0.052350327784674106 -0.04625214017636045 0.07750639499932438 7.384352996962159 0 0 0 0
51000001 -0.055585204230562464 -0.039853183121896424 0.642074266399503 7.381521739315399 0 0 0 0
52000001 -0.06638677859167863 -0.035278542026123516 1.181151977808363 7.355775858312192 0 0 0 0
53000001 -0.05808685012106587 -0.0261493414201871 1.74326865024197 7.209662238056138 0 0 0 0
54000001 -0.05756568560344271 -0.01934238027300693 2.26913605849514 7.046351517810328 0 0 0 0
55000001 -0.05602730021080653 -0.01300656532898362 2.7633059911879387 6.836592183852437 0 0 0 0
56000001 -0.056041432249232415 -0.011640017528806675 3.215927802627039 6.6015368658906235 0 0 0 0
57000001 -0.05017628917836888 -0.002574983809831362 3.661456842564368 6.302977101095596 0 0 0 0
58000001 -0.04668522041884024 0.0016960205209318715 4.055381688760186 5.992398010647169 0 0 0 0
59000001 -0.04216337147853385 0.005090203313708336 4.408363917556764 5.6561520323231465 0 0 0 0
60000001 -0.037642899916218935 0.007207388262433329 4.726815583864476 5.304251643121724 0 0 0 0
61000001 -0.03281080431113533 0.009201359450087728 5.004926171411342 4.939886281232943 0 0 0 0
62000001 -0.028342998308352834 0.009939351760217516 5.246869816319165 4.570958294462875 0 0 0 0
63000001 -0.023725352668899687 0.010463526089833116 5.455883971895864 4.196673059180892 0 0 0 0
64000001 -0.019467473829378107 0.010000679127611708 5.621621033154197 3.8184008557616935 0 0 0 0
65000001 -0.01530130925347646 0.008947529848094129 5.7741468438905805 3.4517363390021663 0 0 0 0
66000001 -0.01151241633302642 0.007914803625029275 5.893698306341781 3.0818698443133896 0 0 0 0
67000001 -0.008024346196962639 0.0058851620404452255 5.982405153458399 2.719008954533014 0 0 0 0
68000001 -0.005207123375196901 0.0036740686917896828 6.047361245719782 2.364659519619857 0 0 0 0
69000001 -0.0021370760146455065 0.0011884417185365709 6.091011024283977 2.0163906204105757 0 0 0 0
70000001 6.266066988352245e-05 -0.001787490677315444 6.113301232974334 1.6804289852427534 0 0 0 0
71000001 0.0017212080277414692 -0.004677619991386364 6.119343737704037 1.3485330723829971 0 0 0 0
72000001 0.0029003079623610394 -0.007877030686080515 6.103511340375634 1.0292959599117733 0 0 0 0
73000001 0.004046346740069985 -0.010604324844801224 6.076572640247288 0.7171279141902901 0 0 0 0
74000001 0.004601937196716167 -0.013439548698639052 6.032139556957617 0.4169349164423915 0 0 0 0
75000001 0.004966198820512124 -0.016682170928099864 5.975914561469815 0.12598529935871092 0 0 0 0
76000001 0.005175997042729487 -0.01925598906541001 5.904985305112773 -0.15176790031005238 0 0 0 0
77000001 0.004495229573668713 -0.02254378883098369 5.8235000924109315 -0.42398276501645266 0 0 0 0
78000001 0.004116439727009825 -0.024927606977813654 5.7324898531380155 -0.685830696347357 0 0 0 0
79000001 0.0033499062870820883 -0.027690748043914942 5.629511964394387 -0.9382804771475126 0 0 0 0
80000001 0.00213597486155077 -0.029969945838078944 5.5170988781417245 -1.178362339142468 0 0 0 0
81000001 0.0010584231073607377 -0.03207303184731821 5.3949232721367775 -1.410300955359728 0 0 0 0
82000001 -5.777723219504465e-05 -0.03429612050553615 5.265956037908886 -1.6281249010927492 0 0 0 0
83000001 -0.0018161275210712014 -0.036276804818029626 5.129165221624867 -1.8388719123871615 0 0 0 0
84000001 -0.0034928411115136906 -0.037929860862641114 4.98479118772391 -2.038078618300468 0 0 0 0
85000001 -0.0049662616762572815 -0.0391936114825142 4.8326292965494595 -2.226354029233005 0 0 0 0
86000001 -0.0067938286292355465 -0.04017915576913028 4.67696564996828 -2.406651336066992 0 0 0 0
87000001 -0.00836107870866258 -0.04179219567316911 4.517298209913928 -2.574948715168268 0 0 0 0
88000001 -0.010508696787004725 -0.04258663649415346 4.352209057376063 -2.7326285204548255 0 0 0 0
89000001 -0.011916097605319378 -0.04335039132838462 4.183795152690185 -2.8787890856999163 0 0 0 0
90000001 -0.013910404579405511 -0.044018692202588354 4.011168091504677 -3.0152875280856177 0 0 0 0
91000001 -0.01570451520043703 -0.04441248138105683 3.8368111795529587 -3.1413883972120105 0 0 0 0
92000001 -0.01742878122215322 -0.04519961927505224 3.6590322626845664 -3.2590886153359393 0 0 0 0
93000001 -0.019138677651384245 -0.045036961444862564 3.4793972413625482 -3.36305655664078 0 0 0 0
94000001 -0.020761950213868542 -0.04508847265289305 3.2969537494265437 -3.4599216709058 0 0 0 0
95000001 -0.022638758754655593 -0.04538272461380341 3.1151793739925266 -3.547167241708124 0 0 0 0
96000001 -0.024304222102057085 -0.04527325074181062 2.9329416620923 -3.6232488177335664 0 0 0 0
97000001 -0.025647636031221496 -0.04484188924040955 2.7520101496652782 -3.691501730222001 0 0 0 0
98000001 -0.02702108753140334 -0.04450185468775838 2.5702685306517057 -3.749965736377826 0 0 0 0
99000001 -0.028676595242853868 -0.044170776016837346 2.3918092397181714 -3.801191937243395 0 0 0 0
100000001 -0.02986341729714121 -0.04379623062334844 2.214208135205907 -3.8426106079964972 0 0 0 0
