# HZ S RI R 50
1 -0.4146753886012676 0.6141005406249737 0.16870115037561983 -0.01612194630286977 0 0 0 0
1000001 -0.009511987563154823 0.00029041528579947304 -2.7223463200048137 -0.607573621584426 0 0 0 0
2000001 -0.00951605403726341 5.207935548780186e-05 -2.858210124323039 -0.953154144151807 0 0 0 0
3000001 -0.008361285427350817 -0.0011193295726974152 -3.0242066366479876 -1.2915942521028672 0 0 0 0
4000001 -0.007999332424973282 -0.001750559007301317 -3.2022321468091524 -1.6112392301680465 0 0 0 0
5000001 -0.007818365572999244 -0.0019332619280499714 -3.3865123097785554 -1.8684198056392962 0 0 0 0
6000001 -0.007161248485741995 -0.002884196148361982 -3.865142423389152 -2.2594890927655706 0 0 0 0
7000001 -0.00719100027209203 -0.0036663236303064043 -4.393841199636911 -2.4858975377647354 0 0 0 0
8000001 -0.009112294919573865 -0.004726613003550687 -4.818716549955348 -2.423226159224192 0 0 0 0
9000001 -0.006396880138998583 -0.003570548819278163 -4.852149502021092 -2.183901439629379 0 0 0 0
10000001 -0.004301321680822904 -0.007031962924941311 -5.10918834139106 -1.8788308245706924 0 0 0 0
11000001 -0.004823685043129651 -0.006990195829596003 -5.476601091953214 -1.8736649060161337 0 0 0 0
12000001 -0.005180779877895347 -0.009084772850519215 -6.016359633193244 -1.5875514601728824 0 0 0 0
13000001 0.0013720983679082835 -0.012729460622108897 -6.151737056680132 -1.2941545208087277 0 0 0 0
14000001 -0.00016465594728847698 -0.011569135774772407 -6.235002831524307 -0.4471497979643274 0 0 0 0
15000001 -0.004025022278575542 -0.012542447496860712 -6.354534588996221 -0.1203036919035329 0 0 0 0
16000001 -0.0022998961927279634 -0.013314004020745862 -6.229028434586826 0.4202133649067247 0 0 0 0
17000001 -0.003692295732764827 -0.0156740914030645 -6.150653335336241 0.9055096971707263 0 0 0 0
18000001 -0.0031146935133038105 -0.017122690068046394 -5.929400651845047 1.464202896592903 0 0 0 0
19000001 -0.002837368935393239 -0.018713438879113482 -5.425719540007397 2.170397602917912 0 0 0 0
20000001 -0.0027679667041221826 -0.02084949127719373 -5.033572679769823 2.5830758131441396 0 0 0 0
21000001 -0.0031010599537284033 -0.022712684966575712 -5.343009575771702 2.4697151539797493 0 0 0 0
22000001 -0.0034823664548028 -0.02484213857960048 -4.8863954373294805 2.895672775604786 0 0 0 0
23000001 -0.002508432926231681 -0.03237155167214353 -4.445517854468784 3.195789557634274 0 0 0 0
24000001 -0.004427526563163518 -0.0284907461833291 -4.006367505231645 3.479555712598427 0 0 0 0
25000001 -0.005502102217693481 -0.030004389040205297 -3.589590521981182 3.687503248440432 0 0 0 0
26000001 -0.006654764990334691 -0.0310675023383337 -3.1906090578435538 3.8664539002658187 0 0 0 0
27000001 -0.008485316316615445 -0.03194141985873629 -2.187332538909552 3.9673157273804733 0 0 0 0
28000001 -0.009939871619506348 -0.03251205609963271 -1.4804977657829617 3.9009346217606966 0 0 0 0
29000001 -0.011687599808529 -0.03193225026771918 -1.3868869889948174 3.9993786955977604 0 0 0 0
30000001 -0.013466970595037528 -0.030480144829602856 -0.8480174822659458 3.909902178512054 0 0 0 0
31000001 -0.015008506049204557 -0.028624765048758466 -0.3001597040898044 3.707302935966381 0 0 0 0
32000001 -0.016068714977721252 -0.025559363066246416 0.06476616915359201 3.573991427826293 0 0 0 0
33000001 -0.016412071062573867 -0.021600398319776937 0.3787067874053542 3.4594436567957296 0 0 0 0
34000001 -0.016304929385758872 -0.01699756553871466 0.6582397898720579 3.325796348381347 0 0 0 0
35000001 -0.014752185255362435 -0.01176541197148928 0.9237372435960443 3.170487978082174 0 0 0 0
36000001 -0.011696520479991094 -0.005733163100778436 1.156221404592457 3.0456651394375442 0 0 0 0
37000001 -0.007557405939732822 0.00014314487388606377 1.3599892427472697 2.8985247076268728 0 0 0 0
38000001 -0.0016167147736993082 0.00592970121081847 1.5682560427179284 2.654017872193839 0 0 0 0
39000001 0.005886125428771328 0.011312711731237988 1.739028711324815 2.455069186665635 0 0 0 0
40000001 0.01524559736495988 0.015435750314516569 1.8743812593467917 2.2415095265219422 0 0 0 0
41000001 0.02562053871803477 0.018501555425163116 1.979854967519286 2.0292324092118754 0 0 0 0
42000001 0.03650729286353492 0.019438634954156292 2.054656844825487 1.825655491004941 0 0 0 0
43000001 0.0478289541538172 0.0183504281346604 2.099053681741239 1.6106233532996375 0 0 0 0
44000001 0.05956993232050804 0.01483193946598408 2.1190230217576804 1.383546853568256 0 0 0 0
45000001 0.07020462033327629 0.009234853652243136 2.119333488056267 1.1919761582176074 0 0 0 0
46000001 0.0797177110349289 0.001377194149901692 2.1029518205609192 1.022736115640985 0 0 0 0
47000001 0.08710046317308472 -0.007840060506068067 2.073940371753882 0.8767293216543021 0 0 0 0
48000001 0.0917137314485541 -0.01881359048744522 2.0464229394019946 0.7569956178466775 0 0 0 0
49000001 0.09551562788312452 -0.029843197879697175 2.029407666221906 0.6559597128242106 0 0 0 0
50000001 0.09615569958935712 -0.04127952185422959 2.0114910375518833 0.5526692490156977 0 0 0 0
51000001 0.09417827240610849 -0.05267346659948801 2.000124147382671 0.4743761795851044 0 0 0 0
52000001 0.09022545941973553 -0.06304644800001834 2.002697165761305 0.3961723185416112 0 0 0 0
53000001 0.08463096115175436 -0.07246146724733617 2.0075692085654877 0.3303571004193869 0 0 0 0
54000001 0.07789575981255493 -0.08036988618413404 2.0234060694981957 0.26169854454485597 0 0 0 0
55000001 0.07009140416068281 -0.08692477739213922 2.0385917074543576 0.1882402114589115 0 0 0 0
56000001 0.061661653973972545 -0.09184342296536953 2.0564455765725707 0.1017572092660195 0 0 0 0
57000001 0.05288712776241897 -0.0957335024865235 2.0646552725916942 0.019163640071707233 0 0 0 0
58000001 0.04419698766391039 -0.09779726486865838 2.077421911949318 -0.06685094536292958 0 0 0 0
59000001 0.03542416905412443 -0.09933221858286159 2.076734242538415 -0.14836766106916183 0 0 0 0
60000001 0.027911592857682584 -0.09914490934294629 2.07938670947758 -0.23545255251684719 0 0 0 0
61000001 0.020208515044073033 -0.09803971240402497 2.102035809897762 -0.3253210590378518 0 0 0 0
62000001 0.013437705811881534 -0.09646319362448343 2.1064013660205156 -0.42318171685907346 0 0 0 0
63000001 0.007274097808978743 -0.09407021637180643 2.106662687040746 -0.5225637810308105 0 0 0 0
64000001 0.004356833673285329 -0.09006051707431481 2.0992492937819978 -0.5989202953001037 0 0 0 0
65000001 -0.0023591652941837133 -0.0841873667633767 2.098967260363443 -0.707610264673846 0 0 0 0
66000001 -0.007150042844455418 -0.08576457124950444 2.0975626885021743 -0.782875989521451 0 0 0 0
67000001 -0.010547798664049462 -0.08266348880227023 2.1156476471091366 -0.8743308469758152 0 0 0 0
68000001 -0.01387157953876421 -0.07975588406518841 2.102364666701465 -0.951963491927434 0 0 0 0
69000001 -0.016361723451302972 -0.0767097351576224 2.0843588950164644 -1.0278140941438756 0 0 0 0
70000001 -0.018168739251226206 -0.07377885128565391 2.0438167613986633 -1.084809188986569 0 0 0 0
71000001 -0.02019673824104087 -0.07116787125794302 2.060768546168287 -1.167702353641008 0 0 0 0
72000001 -0.02144711781179258 -0.06882590306640124 1.9994574479420593 -1.272579545016971 0 0 0 0
73000001 -0.022660287467707832 -0.06625105645774562 2.022657685926894 -1.3491828072710725 0 0 0 0
74000001 -0.023445926735973146 -0.06405295681738946 1.9704073601831542 -1.4409778640347022 0 0 0 0
75000001 -0.02416906040286576 -0.0625062165063696 1.9692849523746423 -1.5102016025355405 0 0 0 0
76000001 -0.02475849383834174 -0.060409639908565765 1.9503573787244222 -1.557208500981629 0 0 0 0
77000001 -0.02551163858881465 -0.05931901812794891 1.8970120272258095 -1.6200854568521064 0 0 0 0
78000001 -0.025546720697471364 -0.057675804593581875 1.7998546769311643 -1.6603082860106921 0 0 0 0
79000001 -0.025550492413869273 -0.05688123823445465 1.75748991412042 -1.7107069927504346 0 0 0 0
80000001 -0.025842317269234666 -0.05592721997064899 1.7417651327829795 -1.754540793756718 0 0 0 0
81000001 -0.02600135597690978 -0.05461720232732142 1.7242744717006206 -1.8023001050803877 0 0 0 0
82000001 -0.02595703529815454 -0.053851607792146254 1.7383270548094312 -1.8458806438998414 0 0 0 0
83000001 -0.026212643491657125 -0.05360047211061448 1.7043803471766243 -1.933371576099376 0 0 0 0
84000001 -0.02628840035273061 -0.05332158240097324 1.7204997047300759 -2.0209456532754633 0 0 0 0
85000001 -0.025969491592798738 -0.052609929550563025 1.642347676270046 -2.0564148393260693 0 0 0 0
86000001 -0.026193011964450345 -0.052272430235632585 1.6225192576378409 -2.1587765638616507 0 0 0 0
87000001 -0.025898823241781305 -0.0523344192641834 1.5755736433873697 -2.1975168855590925 0 0 0 0
88000001 -0.026308584291313154 -0.05193783425477719 1.5487167275545708 -2.2454014428068483 0 0 0 0
89000001 -0.0258350090183382 -0.051769329611785195 1.5129359194430085 -2.308929995742848 0 0 0 0
90000001 -0.025890435453765806 -0.05181756212584303 1.4969777454225541 -2.378150543492512 0 0 0 0
91000001 -0.026070109042272444 -0.051893532697524065 1.435005371894522 -2.4045086604835433 0 0 0 0
92000001 -0.025759890973910737 -0.05227314201328152 1.3957629606721604 -2.42866186047975 0 0 0 0
93000001 -0.025989814366183483 -0.05212689337850938 1.3651080583006194 -2.4781195600538575 0 0 0 0
94000001 -0.025644565248426867 -0.052272125663128104 1.3601084218672055 -2.51111763258258 0 0 0 0
95000001 -0.025900868773599244 -0.05277884800686316 1.3265348947377167 -2.5743516204243417 0 0 0 0
96000001 -0.026029243774330277 -0.05292711585554529 1.3138833609707965 -2.6351928994729947 0 0 0 0
97000001 -0.025796884722620865 -0.053114870403050976 1.3014761638828516 -2.672317852300486 0 0 0 0
98000001 -0.025778493381408557 -0.05344138239407114 1.3202424210257069 -2.758540392619155 0 0 0 0
99000001 -0.026250913360346392 -0.05372001499345984 1.3371739435533576 -2.8203610570028252 0 0 0 0
100000001 -0.02614297960132367 -0.054109836198613134 1.3170243755436288 -2.8692129135383464 0 0 0 0
