# HZ S RI R 50
1 0.7587171406760819 -0.04090879939349803 0.0031053687055406553 -0.012835422076318322 0 0 0 0
1000001 -0.00904799060631089 0.00038008799971547374 0.22406023708404646 0.07732042127171479 0 0 0 0
2000001 -0.00873214684756587 -0.00927134783201396 0.22967706057951728 0.1368300342631603 0 0 0 0
3000001 -0.008084836907213634 0.0003446197570923612 0.24223252873969792 0.1994196150018494 0 0 0 0
4000001 -0.007604623140091803 0.0005952255845603735 0.2567716882019432 0.2620043590751184 0 0 0 0
5000001 -0.007606202627395605 0.0008598259314261296 0.27688436627721186 0.3237034214646185 0 0 0 0
6000001 -0.006887893127440033 0.0007067147925719142 0.2981260553232156 0.38565584664316327 0 0 0 0
7000001 -0.006833256287420733 0.0003629583739893037 0.3241659940262887 0.4464828556881666 0 0 0 0
8000001 -0.007466208823856627 -0.002175114727623957 0.3538906230321958 0.5058483567923255 0 0 0 0
9000001 -0.009360691320900177 -0.00010627727301748384 0.3875686527595325 0.5661942306900191 0 0 0 0
10000001 -0.005589184141355589 0.0017182811105185035 0.4284307949297489 0.6238810597863367 0 0 0 0
11000001 -0.00553876087764842 -0.0013113149684886012 0.4691468793707005 0.6803746343603254 0 0 0 0
12000001 -0.007766480313705669 -0.003301899575960602 0.5150239999580377 0.7363997142211185 0 0 0 0
13000001 -0.006195675710244961 -0.001016761209801043 0.5676866833508729 0.7898395694447408 0 0 0 0
14000001 -0.003744517332048988 -0.0016800914688106545 0.6231995447636237 0.8407435274627506 0 0 0 0
15000001 -0.003602285770220219 -0.0022806760232244126 0.6839421832915744 0.8906523308164291 0 0 0 0
16000001 -0.0031019189313386676 -0.0025446825519587547 0.7485687307557615 0.9368120151987215 0 0 0 0
17000001 -0.00314492405530666 -0.0034289277559032888 0.8193506425607201 0.9822034536678272 0 0 0 0
18000001 -0.002655954129809424 -0.0038429529020975765 0.8939381616799075 1.0245311840603675 0 0 0 0
19000001 -0.0022150258466318326 -0.0042306430820478955 0.9742106198802025 1.0631156346880628 0 0 0 0
20000001 -0.0015696982336804734 -0.004658790878994882 1.0595209709085682 1.0972974222468848 0 0 0 0
21000001 -0.0015122487398975856 -0.005355446438318119 1.1494044683092401 1.1275645857372776 0 0 0 0
22000001 -0.0010997238324724104 -0.005842570803338266 1.2447098872719933 1.1515793929478089 0 0 0 0
23000001 -0.0002620147135381423 -0.00633142304693707 1.34479963211349 1.1719042672306572 0 0 0 0
24000001 0.0001685798923344096 -0.006887530335529935 1.4499532708918896 1.1852629127384198 0 0 0 0
25000001 0.0008540810616897612 -0.007867621480683068 1.5590156906081947 1.191955307371674 0 0 0 0
26000001 0.0014332534077939063 -0.008267021095778308 1.6725446349595094 1.1911718402448088 0 0 0 0
27000001 0.0018331319473803701 -0.009093726613967353 1.7894338842472857 1.181478470439287 0 0 0 0
28000001 0.002350215696305612 -0.010182513151093033 1.9097831484811074 1.1636525922001066 0 0 0 0
29000001 0.0033453336729047075 -0.01097209012856812 2.0338997853174323 1.135190041343226 0 0 0 0
30000001 0.003873600236143847 -0.011843806002722291 2.1586575838614532 1.0975565180207456 0 0 0 0
31000001 0.004853709344311274 -0.013149856931736972 2.2839975089267055 1.0472568673399898 0 0 0 0
32000001 0.005455586474393388 -0.014464940090527617 2.4105909431212154 0.987707481260106 0 0 0 0
33000001 0.006138782489142681 -0.0157439512409343 2.535589748864275 0.9148341316953067 0 0 0 0
34000001 0.006718727277601453 -0.017173649311730096 2.6583796206418846 0.8294703702768902 0 0 0 0
35000001 0.006976775618760813 -0.019030154223031403 2.7793328818668335 0.7331806129350016 0 0 0 0
36000001 0.007995259995056294 -0.020918452932130502 2.8926189506005096 0.6214949386170717 0 0 0 0
37000001 0.008321265024101555 -0.0232069837030582 2.9990847637280957 0.4982056979740329 0 0 0 0
38000001 0.008493594302857718 -0.0253210543522759 3.0992501797260705 0.3639669590974143 0 0 0 0
39000001 0.008525374316448609 -0.027833619930939565 3.188115863005088 0.21760570459583034 0 0 0 0
40000001 0.008583225610379313 -0.03057186187034677 3.265760859241506 0.06074408562246202 0 0 0 0
41000001 0.00835727106686618 -0.033287223750207505 3.332297477870083 -0.10383298753556758 0 0 0 0
42000001 0.007490949293363034 -0.035964565993060436 3.3836370851915527 -0.2774327465977195 0 0 0 0
43000001 0.006052403831856368 -0.038622918895785285 3.4244558196580734 -0.4560092836011814 0 0 0 0
44000001 0.004679423639822556 -0.04160094007337068 3.446623816502124 -0.6413003273076735 0 0 0 0
45000001 0.00301887204878328 -0.044479707726050824 3.4539045190475113 -0.8288479237950954 0 0 0 0
46000001 0.0008279994138858318 -0.046955585084135665 3.4438559114301155 -1.018989514021754 0 0 0 0
47000001 -0.0014529846305701654 -0.04946281762803714 3.4191870346735986 -1.2055651023070382 0 0 0 0
48000001 -0.00456587783553613 -0.0508912518944216 3.3768370864582904 -1.3926209925255826 0 0 0 0
49000001 -0.007023483122439093 -0.05314747631636631 3.321155222132107 -1.5764947891820715 0 0 0 0
50000001 -0.01010263970884433 -0.054507871347022806 3.2483092649478746 -1.7514027253341908 0 0 0 0
51000001 -0.013722628732411483 -0.05557678054246944 3.1615462670206758 -1.9204289839755397 0 0 0 0
52000001 -0.01728963611363256 -0.05619624683532738 3.0638481086690152 -2.079265182716357 0 0 0 0
53000001 -0.02070472112170512 -0.05697042602757951 2.953477900096824 -2.228323730775987 0 0 0 0
54000001 -0.023704534871632862 -0.05669668487340075 2.83349990282193 -2.3676095394044063 0 0 0 0
55000001 -0.027127673989736922 -0.05581651778309439 2.705224353490097 -2.49361734677503 0 0 0 0
56000001 -0.03042990643476359 -0.05546744475303486 2.569714671642162 -2.6077507749662145 0 0 0 0
57000001 -0.03349449596629558 -0.05456429930714733 2.427294557112321 -2.707839279889447 0 0 0 0
58000001 -0.03608422323506396 -0.053071220395919216 2.2794610828437505 -2.796464721818135 0 0 0 0
59000001 -0.03876711458128458 -0.0517429484016895 2.130895082792533 -2.868790311902947 0 0 0 0
60000001 -0.04093447124245613 -0.05029188733878585 1.9821003891711868 -2.9324591463238523 0 0 0 0
61000001 -0.04270495037832385 -0.04826809753030429 1.8330769437709442 -2.9797978587837033 0 0 0 0
62000001 -0.04453767050100237 -0.046525704032707234 1.6860102595070885 -3.018000423779834 0 0 0 0
63000001 -0.046265901222515164 -0.04427204618572751 1.540945259427796 -3.0459114817413715 0 0 0 0
64000001 -0.04757687833486613 -0.042365753941581645 1.4001689202456384 -3.063987577638289 0 0 0 0
65000001 -0.04863458666879771 -0.0403556216164947 1.2616274706498039 -3.0702084296399246 0 0 0 0
66000001 -0.04933342328430237 -0.03839058490072028 1.128452794659005 -3.070409246501969 0 0 0 0
67000001 -0.05000964931523038 -0.036454398425936466 0.9992369797163874 -3.060279890979186 0 0 0 0
68000001 -0.050824202977217264 -0.034853600836939 0.877412038861955 -3.0460065327567465 0 0 0 0
69000001 -0.05088982792399422 -0.032995713173645726 0.7606794680605278 -3.0240328588848695 0 0 0 0
70000001 -0.051126266281596056 -0.031099614249976343 0.6486664313242748 -2.9987028407658873 0 0 0 0
71000001 -0.051264198591374634 -0.029601034228173274 0.5427813960619068 -2.96765782079582 0 0 0 0
72000001 -0.051200208939145904 -0.028230366134277086 0.44272948634396825 -2.93293376018775 0 0 0 0
73000001 -0.05108779592924023 -0.026472293361639542 0.34640353856578615 -2.895157364423259 0 0 0 0
74000001 -0.05084372710217142 -0.024911381159315057 0.25636908104736633 -2.8547571671606917 0 0 0 0
75000001 -0.0505989883679983 -0.023883100732132963 0.17186416682088076 -2.813998290190349 0 0 0 0
76000001 -0.05021808120731956 -0.022698739438000822 0.09318186179950638 -2.769022029738261 0 0 0 0
77000001 -0.04982590386051801 -0.021569459498035723 0.017310695508479475 -2.7230410187091327 0 0 0 0
78000001 -0.049298511512357916 -0.020366987584142557 -0.05368706434978503 -2.6771057955006294 0 0 0 0
79000001 -0.048540972971177106 -0.019728219332487817 -0.11967835290900632 -2.6301827459337312 0 0 0 0
80000001 -0.04815321891721066 -0.0187244476053223 -0.1823212379347903 -2.5840594282805482 0 0 0 0
81000001 -0.047569243395976755 -0.017928003627868335 -0.24115670661208238 -2.535798314042489 0 0 0 0
82000001 -0.04706621279893805 -0.017207002316902073 -0.2956960059709245 -2.48726238493531 0 0 0 0
83000001 -0.04669599989186473 -0.016500187842159647 -0.34713421402982636 -2.439748432258672 0 0 0 0
84000001 -0.04632855037879336 -0.01648598465237381 -0.3953559927451398 -2.39250150100202 0 0 0 0
85000001 -0.04547688867613116 -0.015881643743526283 -0.43925910280139113 -2.3446690721832697 0 0 0 0
86000001 -0.04505963886132292 -0.01479769936445708 -0.48166969122588077 -2.2977046482759143 0 0 0 0
87000001 -0.04446693030520068 -0.014981148683607825 -0.5218763138842357 -2.250758278037172 0 0 0 0
88000001 -0.04397364538636651 -0.014415201331862543 -0.5578408886727018 -2.204528806023368 0 0 0 0
89000001 -0.04340813866691054 -0.014126766394083369 -0.5929189917625339 -2.1586288132369873 0 0 0 0
90000001 -0.04286070270298837 -0.013987276922711914 -0.6245984071774777 -2.1120077484363824 0 0 0 0
91000001 -0.04230713341181716 -0.013490511489026826 -0.6556154869198614 -2.067663428619044 0 0 0 0
92000001 -0.04172968375633774 -0.013571157217726212 -0.6841514612851572 -2.0234337621589917 0 0 0 0
93000001 -0.04126918914015754 -0.013327410294055542 -0.709782130199218 -1.9806353033266932 0 0 0 0
94000001 -0.04059685296627329 -0.013311041396796558 -0.7344431301493767 -1.936903156928691 0 0 0 0
95000001 -0.04055897925492451 -0.013494729853330424 -0.7583051143557255 -1.8953642678415186 0 0 0 0
96000001 -0.03937420176375828 -0.02039464483388668 -0.773012023778837 -1.858810348957244 0 0 0 0
97000001 -0.03936503809527351 -0.013188998079769006 -0.8001183866788739 -1.813321458272717 0 0 0 0
98000001 -0.039011792372228744 -0.013233679140524467 -0.8193641157279827 -1.7724182031359696 0 0 0 0
99000001 -0.038851455921900986 -0.013299656420421807 -0.8371232480686861 -1.7336820621818307 0 0 0 0
100000001 -0.03849354855672352 -0.013416984016514822 -0.8534786426259814 -1.6958537919947758 0 0 0 0
