# HZ S RI R 50
1 -0.9608141326940874 0.7424460567767157 0.014720619239860991 0.036770924710674315 0 0 0 0
1000001 -0.007419986383516507 -0.0003474485518905396 -0.02613984437897133 -0.02695169284987166 0 0 0 0
2000001 -0.0068125382373413436 -0.001098000565041821 -0.024595510790902286 -0.04122544681553489 0 0 0 0
3000001 -0.00754319832479056 0.0007973958279795598 -0.015389711413873748 -0.058572254407262964 0 0 0 0
4000001 -0.007384256139762298 0.0010482579585688804 -0.0018817094759859025 -0.07904080057527019 0 0 0 0
5000001 0.0027419972219000057 -0.00289725172133062 0.01518035947936102 -0.10194825136961633 0 0 0 0
6000001 -0.002759361347666412 0.003380785581338318 0.03593299882184777 -0.12946696742802363 0 0 0 0
7000001 -0.006537525863352993 0.0010200836322107273 0.059002726850727355 -0.16115563199152194 0 0 0 0
8000001 -0.004390770926481012 0.005028452501247647 0.08413369612430707 -0.19803705247063305 0 0 0 0
9000001 -0.004974935733480119 -0.0024631544681761857 0.11138235892074634 -0.23920004311290718 0 0 0 0
10000001 -0.006354370686984349 -0.001117224341345817 0.1391881647872561 -0.28639508909046824 0 0 0 0
11000001 -0.004211467952295515 0.0005627718467899211 0.1676836869226024 -0.341260158813131 0 0 0 0
12000001 -0.00258345099910845 -0.0005534860228673873 0.19593146395129152 -0.40167201398310964 0 0 0 0
13000001 -0.0054456114317121525 0.0008570151590167246 0.22354718094802173 -0.46901633592199493 0 0 0 0
14000001 -0.0056761459562384604 0.0007210693214931977 0.24983375895331297 -0.5439755560605214 0 0 0 0
15000001 -0.0056702348722381364 0.0007569904145139128 0.2730496692870061 -0.6270304676388714 0 0 0 0
16000001 -0.004811889541598137 0.0008355869577271127 0.29387916128295055 -0.71498931993392 0 0 0 0
17000001 -0.0039407581584303296 0.0011486992484546707 0.3085424984448046 -0.8132240292371941 0 0 0 0
18000001 -0.0052772858058802614 0.000451616701672396 0.3184460638067793 -0.9213637561444856 0 0 0 0
19000001 -0.005305009120944309 0.0006210960461440606 0.32028853006399133 -1.0386920217104123 0 0 0 0
20000001 -0.005083976403038972 0.0006220897201554423 0.3135476049631553 -1.162444347345539 0 0 0 0
21000001 -0.00519687864774041 0.0003599365890178516 0.3034064934979008 -1.2856793593074545 0 0 0 0
22000001 -0.005257761359025536 0.0006776914642203102 0.2869064160659281 -1.4104439151057957 0 0 0 0
23000001 -0.0043659149708955465 0.0019337015849001519 0.2618090538056349 -1.5389602327917178 0 0 0 0
24000001 -0.0024626937261052564 -0.0002083799156860531 0.23275735236869738 -1.6752071566759092 0 0 0 0
25000001 -0.005004929925799063 0.0003833733902487386 0.1910836385155192 -1.8219561620574845 0 0 0 0
26000001 -0.005019219465999874 0.0006614440397667071 0.14481431183544152 -1.9766014466386257 0 0 0 0
27000001 -0.00522068657881733 0.00047538304338080796 0.07673239019181502 -2.143756566091392 0 0 0 0
28000001 -0.005137013169703029 0.0007414312216440308 -0.013665704755581418 -2.3216083056862433 0 0 0 0
29000001 -0.005274820373204436 0.0008488765619035545 -0.13297394854617292 -2.5177267525822615 0 0 0 0
30000001 -0.005139905268885029 0.0009491272931383358 -0.2852745243092269 -2.726953104138768 0 0 0 0
31000001 -0.0052633817131841655 0.0005449541614474888 -0.4754024528119275 -2.940254372670785 0 0 0 0
32000001 -0.005040172066692514 0.0012366957851999128 -0.699827737107273 -3.1547723574235094 0 0 0 0
33000001 -0.00525193125419549 0.0011524193201623023 -0.953947235335435 -3.366303012174964 0 0 0 0
34000001 -0.005188810697731073 0.0014225817553202781 -1.2386352341100137 -3.565603767862094 0 0 0 0
35000001 -0.005158228740280556 0.001621170578318289 -1.5595875039075089 -3.751894539993367 0 0 0 0
36000001 -0.005310751371310341 0.0019184070480873843 -1.9063067807569056 -3.915098527192639 0 0 0 0
37000001 -0.00515638508002455 0.0021469973214913174 -2.2766245892249146 -4.0536679136706315 0 0 0 0
38000001 -0.005340210344445627 0.0024831788799954454 -2.6679156731850706 -4.170855601752406 0 0 0 0
39000001 -0.0051458447324242455 0.0026637650805396173 -3.0739859965964964 -4.262015194804439 0 0 0 0
40000001 -0.0053920256184014645 0.003410501058475782 -3.498791035442513 -4.327208264600884 0 0 0 0
41000001 -0.00508028097194448 0.003937165204127095 -3.934232351556099 -4.35730507844949 0 0 0 0
42000001 -0.005345369964133188 0.004207118351335827 -4.37099095128242 -4.3518343804160855 0 0 0 0
43000001 -0.00494441520368407 0.00499976439912752 -4.8018983984574 -4.302106063373956 0 0 0 0
44000001 -0.005051358163295744 0.005497633893153337 -5.229496951983552 -4.206617186634608 0 0 0 0
45000001 -0.004516529666286271 0.006404449168921265 -5.638431696981138 -4.069239223926971 0 0 0 0
46000001 -0.0042305501623334674 0.007211970037942228 -6.026845991415854 -3.8880314407309173 0 0 0 0
47000001 -0.004414105322721503 0.008181897651816535 -6.396532041170826 -3.6587555470924276 0 0 0 0
48000001 -0.0038896821455474775 0.009350477027950143 -6.734715752349226 -3.386614865242425 0 0 0 0
49000001 -0.003285399548911578 0.010139146196764504 -7.051447960374673 -3.0800611353029583 0 0 0 0
50000001 -0.0026420949620592684 0.01094996765670564 -7.338488166457606 -2.741412316934038 0 0 0 0
51000001 -0.0019442987975466107 0.012168406734683819 -7.567887193879434 -2.375198950569245 0 0 0 0
52000001 -0.0010021084646408098 0.013314802885127383 -7.718037562673925 -1.9836296762336216 0 0 0 0
53000001 -0.0004664174957808708 0.014709035942148271 -7.8364101671926925 -1.578015032509853 0 0 0 0
54000001 0.0009381922048418287 0.016201732823573938 -7.930833857625544 -1.1365599576397238 0 0 0 0
55000001 0.002303062379328046 0.017605622093636947 -7.904405206993986 -0.6741291614712689 0 0 0 0
56000001 0.003861051009433956 0.01888337769507553 -7.761551194631892 -0.18776458797861684 0 0 0 0
57000001 0.00563620313935296 0.02074709242443104 -7.584485390239543 0.3117093024290639 0 0 0 0
58000001 0.007692210400802367 0.0222340678237481 -7.410111792251439 0.8180604030475789 0 0 0 0
59000001 0.0099322590266748 0.023427802404720515 -7.232503989159722 1.3284646693199123 0 0 0 0
60000001 0.012748274464583077 0.024688745481724603 -7.076717800280172 1.8432821207650605 0 0 0 0
61000001 0.01601442296889744 0.02601988928924304 -6.9408680526695425 2.3721756110593906 0 0 0 0
62000001 0.019299465545833085 0.02691095619149481 -6.792046361798781 2.9177094736403117 0 0 0 0
63000001 0.023250196926588702 0.027643131229603834 -6.616839529816552 3.4715379679661336 0 0 0 0
64000001 0.028442151957706784 0.027409092340308975 -6.409695927228327 4.02634042104771 0 0 0 0
65000001 0.022564359698691167 0.027880780065724482 -6.058169567390108 4.568581728098603 0 0 0 0
66000001 0.03656162789253881 0.028297924791338545 -5.737938093241766 5.106351860395848 0 0 0 0
67000001 0.041477617421840536 0.027239510183898925 -5.313124867411273 5.607403722863935 0 0 0 0
68000001 0.0467354250343855 0.025970522903933882 -4.832794603285425 6.067530441679754 0 0 0 0
69000001 0.05227586356662084 0.023681745147671674 -4.329373943349475 6.486105024366715 0 0 0 0
70000001 0.05770564514999918 0.021057248925591757 -3.7797990690170806 6.852197073785467 0 0 0 0
71000001 0.06289695627849803 0.017449879884860235 -3.1977555347172686 7.178311565914509 0 0 0 0
72000001 0.06806095816881322 0.013560722334421429 -2.568949113812494 7.446027290138526 0 0 0 0
73000001 0.07268492121346137 0.00873352108823234 -1.892205237682032 7.617128266824217 0 0 0 0
74000001 0.07719715479550232 0.0033213201447980594 -1.1886737233428377 7.674024781749768 0 0 0 0
75000001 0.08144779933335207 -0.0032332010902270856 -0.4886945977251709 7.639229596831634 0 0 0 0
76000001 0.08463094417652495 -0.009854313577221541 0.18559614924028361 7.5315061291768375 0 0 0 0
77000001 0.08752802517858412 -0.01743736381988848 0.8157478036565047 7.383537687766003 0 0 0 0
78000001 0.07985958851627799 -0.034400641898588734 1.4228781787963531 7.1644836261781055 0 0 0 0
79000001 0.09056860909818448 -0.03332696285756195 1.9740843894973756 7.0537321954436045 0 0 0 0
80000001 0.09052033829495269 -0.041501190952928195 2.5331557542450676 6.856546141435015 0 0 0 0
81000001 0.0904496607545359 -0.05012546072909035 3.074090571176991 6.608574005391712 0 0 0 0
82000001 0.08898777439222348 -0.05864681361533033 3.6007897457243296 6.302549689111087 0 0 0 0
83000001 0.08676797296938026 -0.06695052242808475 4.08707135807934 5.940600310125293 0 0 0 0
84000001 0.08329702827078866 -0.07499376785642968 4.5337080467990525 5.541237532053636 0 0 0 0
85000001 0.07893459376212719 -0.08276649644158603 4.94061674801672 5.120767785396978 0 0 0 0
86000001 0.07392664268736053 -0.0899214567496072 5.301472305350092 4.685161278666539 0 0 0 0
87000001 0.06841102789189754 -0.09656763217509491 5.642829992886601 4.258064582574094 0 0 0 0
88000001 0.06266745922903556 -0.10248905308785643 5.924776360213219 3.8171114670962547 0 0 0 0
89000001 0.0558446572817829 -0.1081063756602637 6.186729012321564 3.4038279661427464 0 0 0 0
90000001 0.04811361949005283 -0.11236538426713466 6.42374380075294 2.9938295450061196 0 0 0 0
91000001 0.04010871393100196 -0.11689825781411144 6.635932174834846 2.5892703610368937 0 0 0 0
92000001 0.033112582659818764 -0.11907832328238065 6.836565584871342 2.221257801697709 0 0 0 0
93000001 0.02536016876806465 -0.12156443245549178 7.01932054573664 1.84290866022469 0 0 0 0
94000001 0.01712232058578163 -0.12289725506872384 7.190870448232128 1.469736513732861 0 0 0 0
95000001 0.009471780984364464 -0.12370842725194219 7.364193548877214 1.1131460017617398 0 0 0 0
96000001 0.001691887814378141 -0.1235474140182711 7.489827596611118 0.7381707226539365 0 0 0 0
97000001 -0.005593089347032404 -0.12313386904889496 7.6527616597654085 0.36999211825296047 0 0 0 0
98000001 -0.012959375488840328 -0.12163320501699922 7.794034868484674 -0.0035384831951121437 0 0 0 0
99000001 -0.01949569223595702 -0.11986850701638663 7.912273474495642 -0.39023250844583957 0 0 0 0
100000001 -0.025979187815428326 -0.11766595901152639 8.04130745042696 -0.7658827579721134 0 0 0 0
