# HZ S RI R 50
1 -0.9793377949592644 0.6719438914127723 0.0006641199751410585 0.010708262794061476 0 0 0 0
1000001 -0.007647774212486199 -0.0002250814709740618 -0.007079629944079717 -0.007924491973879328 0 0 0 0
2000001 -0.007558176993309608 2.6052552017282065e-05 -0.005711365090100143 -0.013156860383948957 0 0 0 0
3000001 -0.007770616447461885 0.0008006868972157193 -0.0016371998296581009 -0.018833253623020844 0 0 0 0
4000001 -0.007409459219287285 0.0009672982462296393 0.0036712688445614014 -0.025481278309978567 0 0 0 0
5000001 -0.002719330374353673 -0.00403015640642109 0.010684728016504516 -0.03264548380155365 0 0 0 0
6000001 -0.003397516261599673 0.0014644632222804385 0.01954546510899157 -0.04101388313793394 0 0 0 0
7000001 -0.004716580773786981 -0.0013332524887331649 0.0291195925534464 -0.05083752207339731 0 0 0 0
8000001 -0.0041948054490082804 0.00427485313710769 0.04046909797026127 -0.06220976425293335 0 0 0 0
9000001 -0.005544533256075348 -0.0025392889027966584 0.05299334709312353 -0.07443685508159849 0 0 0 0
10000001 -0.007117134755867461 -0.0007657976268091074 0.06660063264362782 -0.08837455338719806 0 0 0 0
11000001 -0.004247103738175479 0.0001583670281878103 0.0810554727365897 -0.10479760237130764 0 0 0 0
12000001 -0.002143477374732786 -0.0007046146521480805 0.09635276192795982 -0.12275007315400804 0 0 0 0
13000001 -0.0054425787839937215 0.0005992419201821767 0.11249335833643963 -0.14289295448263817 0 0 0 0
14000001 -0.005273461968956432 0.0009150076149391721 0.12883633848281228 -0.16581276310122847 0 0 0 0
15000001 -0.005724473175999141 0.0008998504041933198 0.1461362018161492 -0.19081777256599833 0 0 0 0
16000001 -0.005081572399519307 0.0012364234826816299 0.16325670121970492 -0.218138876024175 0 0 0 0
17000001 -0.005326589326913487 0.0007438376609926971 0.1805875105571679 -0.248156449763616 0 0 0 0
18000001 -0.005282153897529501 0.0007277963114429079 0.19798919069904106 -0.2816154654752974 0 0 0 0
19000001 -0.005253788863504842 0.0006879795938717183 0.2145305277442023 -0.3178703543932321 0 0 0 0
20000001 -0.005075817944434093 0.0007311910900531024 0.23090882880317842 -0.35735219763396325 0 0 0 0
21000001 -0.005122715649486159 0.0005312448478552833 0.24603683009675725 -0.39994053746432706 0 0 0 0
22000001 -0.003347279136100065 0.0006794710839990528 0.25984472390171054 -0.44535252081885646 0 0 0 0
23000001 -0.004999354647829103 0.0011976837445693742 0.2727445177573839 -0.494377513140956 0 0 0 0
24000001 -0.004957440484041923 0.0006293990488295388 0.28401656468325026 -0.5463646330839846 0 0 0 0
25000001 -0.004923102049860456 0.0006848140746457304 0.2929671205953088 -0.6019251835265546 0 0 0 0
26000001 -0.004949728796553076 0.0008883411070696152 0.30038277770407246 -0.6606312034081936 0 0 0 0
27000001 -0.004868790636024933 0.0005984351728585665 0.30444077918901585 -0.7242610554610257 0 0 0 0
28000001 -0.004941434509585886 0.0009578484131515015 0.30592585517377174 -0.7913610328264572 0 0 0 0
29000001 -0.0049368552701531876 0.0008219676886814881 0.3043655160250505 -0.8628817285016629 0 0 0 0
30000001 -0.0050226328650913735 0.0009295993232946899 0.29894116459993225 -0.9387509196211108 0 0 0 0
31000001 -0.005231388503538485 0.0008837001155531486 0.2882130191839732 -1.0174079979975967 0 0 0 0
32000001 -0.0048559133276871265 0.0013834114397766272 0.27355488648892 -1.1003145493366107 0 0 0 0
33000001 -0.004809293153192647 0.0016310793343433639 0.25340643458073314 -1.186756095095022 0 0 0 0
34000001 -0.004802270063556043 0.0018317696585778234 0.2280065628876422 -1.275941787577915 0 0 0 0
35000001 -0.004854487483441219 0.002037200264119854 0.1947150841155115 -1.3692688049327797 0 0 0 0
36000001 -0.004919744615509821 0.0022925739393867585 0.1550362550740757 -1.465245957203397 0 0 0 0
37000001 -0.00464421117055183 0.0024600093644769052 0.10813229369828359 -1.5624535944237887 0 0 0 0
38000001 -0.004763455469480711 0.002737138988675288 0.05380298425574891 -1.6623054679666707 0 0 0 0
39000001 -0.0044118868457038735 0.003141712503473074 -0.00939348350572609 -1.762128285822208 0 0 0 0
40000001 -0.00436593489528731 0.00352588809792595 -0.08159152337528543 -1.8641918483956332 0 0 0 0
41000001 -0.004092481704168594 0.004160627921595514 -0.16285981097955146 -1.9669318294775242 0 0 0 0
42000001 -0.004132789191896879 0.004588131466788058 -0.25256134169831657 -2.0691095002477002 0 0 0 0
43000001 -0.0037783899896511822 0.005165206522755046 -0.35250771776377177 -2.170190420386537 0 0 0 0
44000001 -0.003320301833279822 0.00551047781802793 -0.46372796301095154 -2.2699173354963063 0 0 0 0
45000001 -0.002819349880813599 0.006442952687237292 -0.585386889479219 -2.3661988037893984 0 0 0 0
46000001 -0.002472683303381951 0.0067060352425485255 -0.7178368079239094 -2.460088365680435 0 0 0 0
47000001 -0.0021300821311137906 0.007841976180631312 -0.8606188247377897 -2.5490498519674225 0 0 0 0
48000001 -0.0017317571255920617 0.008491178220095088 -1.015830116311792 -2.6305550785874474 0 0 0 0
49000001 -0.0009529277997822989 0.009154346772508815 -1.1819624709344205 -2.7062781076942515 0 0 0 0
50000001 -0.0001241354812233433 0.00971971277445216 -1.3607959515015398 -2.7738066321467167 0 0 0 0
51000001 0.0006558466220242671 0.01046816764243986 -1.5493760505223593 -2.830979309434602 0 0 0 0
52000001 0.0016621802559945698 0.011099999859042435 -1.751279121091665 -2.877945474244754 0 0 0 0
53000001 0.00260387653084384 0.011905980822157124 -1.9637167842554406 -2.9137409166712387 0 0 0 0
54000001 0.0036676144635221244 0.012799092020022476 -2.1859597513662266 -2.931892159841591 0 0 0 0
55000001 0.004965622411188411 0.013558135916623887 -2.4170091138168983 -2.9359952450547526 0 0 0 0
56000001 0.006239526572277517 0.014471228976638778 -2.659634186786351 -2.924601918850161 0 0 0 0
57000001 0.007617435137391873 0.014955883221457137 -2.9071856062188473 -2.8921786403831016 0 0 0 0
58000001 0.009427492259323851 0.01606843042815614 -3.159484849806633 -2.842052769022922 0 0 0 0
59000001 0.011244779646097786 0.016512835721189733 -3.4162864999912217 -2.76794705493745 0 0 0 0
60000001 0.013393506187298732 0.017322086537054207 -3.677971282031378 -2.675544725440591 0 0 0 0
61000001 0.015592451383417862 0.01789269970185174 -3.9377471179390016 -2.556779099662416 0 0 0 0
62000001 0.017759693630667126 0.018169744140642836 -4.196554577604333 -2.4154516057827373 0 0 0 0
63000001 0.020496681086090294 0.018449403043546038 -4.452131756766076 -2.2472711148379636 0 0 0 0
64000001 0.023130189692727378 0.01863550758667777 -4.705198056740932 -2.0518916453886167 0 0 0 0
65000001 0.02579821766861077 0.018633665115605238 -4.940981194836491 -1.8362900199457042 0 0 0 0
66000001 0.029140929630394902 0.018325313963229777 -5.169882264506187 -1.5902801774568163 0 0 0 0
67000001 0.032174569213030406 0.017700349611412203 -5.382734801399523 -1.3154403328216342 0 0 0 0
68000001 0.03556805160076392 0.017286949289552347 -5.576494971632395 -1.018923266138897 0 0 0 0
69000001 0.03930890912768623 0.015712881049231017 -5.753533085256748 -0.6967770106841251 0 0 0 0
70000001 0.04289653434997699 0.014406952376261935 -5.899922626707146 -0.3522921202414372 0 0 0 0
71000001 0.04669507813896001 0.012196450834090553 -6.018963125093955 0.014298048871443952 0 0 0 0
72000001 0.05023994343074683 0.01044577997294554 -6.1079571591162685 0.3951934521456761 0 0 0 0
73000001 0.054008161566450184 0.0076525327449706556 -6.16321314955763 0.7908707228442111 0 0 0 0
74000001 0.05776380187484758 0.00459186490511769 -6.183839404363268 1.19610616343105 0 0 0 0
75000001 0.061152092358268864 0.0010236826442137118 -6.167063846299781 1.6045213205398998 0 0 0 0
76000001 0.06441224967071478 -0.0031305801380155747 -6.110993925224991 2.020052423263186 0 0 0 0
77000001 0.06749289521846105 -0.008097003217038564 -6.016150833329776 2.4269735130832903 0 0 0 0
78000001 0.06914988045394004 -0.033479415168331424 -5.82740139641304 2.8727503726657653 0 0 0 0
79000001 0.07221141239972209 -0.01825850244445578 -5.724781507064535 3.210575020153037 0 0 0 0
80000001 0.07372284249186041 -0.02350745178206686 -5.527161480502253 3.577002460385352 0 0 0 0
81000001 0.0753718881748531 -0.02991482750311049 -5.30050133302947 3.923815827859486 0 0 0 0
82000001 0.07637496918717641 -0.03639488063344061 -5.0460647351700425 4.24656848448298 0 0 0 0
83000001 0.07204716180466111 -0.05851517926803088 -4.715420599056978 4.528598461526145 0 0 0 0
84000001 0.07775498916808352 -0.051470637410814486 -4.47638766929377 4.806263799549845 0 0 0 0
85000001 0.07460617003571235 -0.056230426517797645 -4.180424705884402 5.034973047877676 0 0 0 0
86000001 0.07282146547725618 -0.06312430601511262 -3.8728539932569515 5.23635412936068 0 0 0 0
87000001 0.07032987372014635 -0.0693320060827089 -3.55689359150113 5.411999162470235 0 0 0 0
88000001 0.06763487725067842 -0.07561136459119196 -3.245166226759452 5.554764007802711 0 0 0 0
89000001 0.06448435262713637 -0.08219957067339065 -2.928721634580641 5.674980612241912 0 0 0 0
90000001 0.05957855701848894 -0.08740187625160191 -2.623171821905526 5.771385369812283 0 0 0 0
91000001 0.0542656964287413 -0.09356263498704512 -2.317031995251883 5.844264326053359 0 0 0 0
92000001 0.04971373105512978 -0.09776639627598926 -2.027020657550482 5.903597416513655 0 0 0 0
93000001 0.04413321378211606 -0.10243149377970551 -1.7418213338001958 5.943864308101515 0 0 0 0
94000001 0.03767363701512321 -0.10593297066499974 -1.4683793831721708 5.973803193624335 0 0 0 0
95000001 0.03181622746413106 -0.10940728784448749 -1.197618459870762 5.994251787100097 0 0 0 0
96000001 0.024759990585393243 -0.11182022801605937 -0.9365188496552758 5.987869189765389 0 0 0 0
97000001 0.01843043309927662 -0.11425863120228102 -0.6843272829013761 6.003067334201295 0 0 0 0
98000001 0.011495064126847702 -0.11535746609023799 -0.4381058465798073 5.99959057358153 0 0 0 0
99000001 0.005166785773277282 -0.11610577082827625 -0.19074594335424278 5.9886720975972745 0 0 0 0
100000001 -0.0016504388670651891 -0.11671921827982457 0.045705152548427164 5.973242581702005 0 0 0 0
