# HZ S RI R 50
1 0.09872485139412353 0.36537716520773106 0.005808386699900049 0.0038025739023873255 0 0 0 0
1000001 -0.009136915868190673 0.0008124300019333375 -0.2804340531676374 -0.19609479826610315 0 0 0 0
2000001 -0.011353062290635577 -0.023111987371109758 -0.336505893223864 -0.25668606451639525 0 0 0 0
3000001 -0.008092119061617947 0.0006277661328196442 -0.3786269236998582 -0.33258794449675044 0 0 0 0
4000001 -0.007832158546190302 0.001683697703533835 -0.41704137851007933 -0.4125685307830562 0 0 0 0
5000001 -0.00883248874742752 -0.009250506701866718 -0.45962203703184423 -0.49099023507233824 0 0 0 0
6000001 -0.0076464135472919 0.002599970875962176 -0.5142163795613168 -0.5735724584829571 0 0 0 0
7000001 -0.007700488204204342 0.0031828544029152027 -0.5746755057016824 -0.6507578777791807 0 0 0 0
8000001 -0.009756661170389015 0.0033514304513746667 -0.6423744463858885 -0.7240652181160401 0 0 0 0
9000001 -0.007057091094001495 0.005840990220523326 -0.7184992344538804 -0.7930080861491645 0 0 0 0
10000001 -0.005043403278919879 0.0037430051250825643 -0.8029372875592898 -0.8563185684033592 0 0 0 0
11000001 -0.005781656316443483 0.005160099289154773 -0.8932681600601848 -0.9160854466570876 0 0 0 0
12000001 -0.0059477952729791485 0.004376967767288715 -0.9907484090778326 -0.9686345578530408 0 0 0 0
13000001 -0.005336234064752369 0.0050342829437760046 -1.0960182625832764 -1.014014145698545 0 0 0 0
14000001 -0.004598684772797698 0.004682996339337989 -1.2066839688297797 -1.0516881965760816 0 0 0 0
15000001 -0.002971934256776722 0.00214351069231237 -1.321617112013789 -1.0797622975698271 0 0 0 0
16000001 -0.0038812799953251965 0.005916286450530776 -1.4475154837981472 -1.1029415441887032 0 0 0 0
17000001 -0.002631975827878956 -0.004387717265941723 -1.565616478377666 -1.1159764703729158 0 0 0 0
18000001 -0.0015192585447337274 0.006819979483285769 -1.71135068011035 -1.1191680074437371 0 0 0 0
19000001 -0.0010941873898787445 0.0033831905347120697 -1.8435659698006714 -1.112655058730586 0 0 0 0
20000001 0.0004989395651375906 0.005312244288396225 -1.9842960493180575 -1.0927170578597185 0 0 0 0
21000001 -0.0008445504885559184 0.006528287606188101 -2.127312481405451 -1.0668349104499846 0 0 0 0
22000001 0.005003363163467919 0.004667766801794149 -2.2658349349608238 -1.0192388909160992 0 0 0 0
23000001 0.001411533110784635 0.006919809471071607 -2.415540967118815 -0.9754447943200657 0 0 0 0
24000001 0.006313769218953597 0.005230268707754707 -2.5596660618994207 -0.9086650983980984 0 0 0 0
25000001 0.0031668288612501376 0.006703006760903124 -2.7136327343394213 -0.8405535370872124 0 0 0 0
26000001 0.004868555934717153 0.00656297537128272 -2.8648581656756154 -0.7552969660067729 0 0 0 0
27000001 0.005404877165114321 0.006432394079848043 -3.017420617588958 -0.658641125355364 0 0 0 0
28000001 0.006866379589866857 0.006286356063970126 -3.1683018803798055 -0.5458698089799622 0 0 0 0
29000001 0.008184608060251676 0.005768396473905323 -3.317381810994382 -0.41868707161023566 0 0 0 0
30000001 0.009571568011479056 0.005304485843447938 -3.459914793044506 -0.28112064351198973 0 0 0 0
31000001 0.010905344840991031 0.004690935905461263 -3.598039566224173 -0.1276341803658551 0 0 0 0
32000001 0.012222139427912988 0.0036759842249300756 -3.7282260852152262 0.03836795245003282 0 0 0 0
33000001 0.013636842179158637 0.0028740208902016807 -3.8492877660655185 0.2189358409990652 0 0 0 0
34000001 0.015128893502917592 0.0017432101230308676 -3.959795354773095 0.4130657086497873 0 0 0 0
35000001 0.01650825718066935 -5.2096584905853e-05 -4.0605451150439515 0.6171193971889966 0 0 0 0
36000001 0.018102847526616637 -0.001166547735254227 -4.146035622471695 0.8371006799958968 0 0 0 0
37000001 0.019222610553108803 -0.0033512885310662236 -4.217012220070733 1.0650893994609298 0 0 0 0
38000001 0.020472397646451514 -0.005308133837787841 -4.273831258272447 1.30346660409184 0 0 0 0
39000001 0.021236667489365587 -0.007200399072893702 -4.315482321346702 1.5496241919056952 0 0 0 0
40000001 0.022255095049528585 -0.009769717049589349 -4.34151639551579 1.8041873839082843 0 0 0 0
41000001 0.02316436213231318 -0.012423449649855423 -4.349352922068985 2.066646822937832 0 0 0 0
42000001 0.023252084430028575 -0.015040122542900582 -4.338954437300848 2.33272764720453 0 0 0 0
43000001 0.02315018028340688 -0.01818270301681008 -4.313665995706735 2.6039225789412885 0 0 0 0
44000001 0.023129438040579316 -0.02107753635926077 -4.265087430965109 2.879884586831593 0 0 0 0
45000001 0.022243428266015122 -0.0241173565191052 -4.201805035477821 3.160043476993121 0 0 0 0
46000001 0.02136946926836772 -0.027374684855108945 -4.113569445210689 3.440563980629549 0 0 0 0
47000001 0.020119396497068977 -0.030653699717052327 -4.0108374018145065 3.7197907570203235 0 0 0 0
48000001 0.017992664877770678 -0.033858732365295935 -3.88194320443241 4.002016286867553 0 0 0 0
49000001 0.016000830611627465 -0.036557094834965144 -3.7381624120241117 4.284307695864015 0 0 0 0
50000001 0.013270956833566794 -0.03928813178733626 -3.567535482214266 4.56105171836915 0 0 0 0
51000001 0.010144774929262208 -0.04163343568488464 -3.37445901794149 4.836024882490015 0 0 0 0
52000001 0.00630916206579802 -0.04385009033473968 -3.1600844901025225 5.102502929085842 0 0 0 0
53000001 0.002272454239936854 -0.04567514636768225 -2.9204721251657357 5.365807726670771 0 0 0 0
54000001 -0.0015277752249226268 -0.04662014332176009 -2.6529575963567904 5.6186889577112105 0 0 0 0
55000001 -0.006208502743649749 -0.04708988136301884 -2.365136806200446 5.8580838594435845 0 0 0 0
56000001 -0.010862696501596054 -0.047074591843015975 -2.046902766237241 6.084292286608247 0 0 0 0
57000001 -0.01572215488508114 -0.04655155400090825 -1.7057883871181092 6.292076344317947 0 0 0 0
58000001 -0.020838188609106727 -0.04506749408380845 -1.3391667294812999 6.477675659028833 0 0 0 0
59000001 -0.025650390011558437 -0.042792720061186985 -0.9469556780390521 6.638516752160683 0 0 0 0
60000001 -0.030111866863690738 -0.04022402884925916 -0.5354997612315422 6.770819119398529 0 0 0 0
61000001 -0.03393624164575404 -0.0361735343358358 -0.10451856535493867 6.870668620729747 0 0 0 0
62000001 -0.03753498113310043 -0.03198557323590909 0.34083790976244754 6.938133545532976 0 0 0 0
63000001 -0.040724326603558195 -0.02689598579430957 0.7985213605820214 6.968263526183613 0 0 0 0
64000001 -0.04314381967648404 -0.021494075326316763 1.2539932169120038 6.955437645077043 0 0 0 0
65000001 -0.044659312956790445 -0.014987889113326429 1.731896299692189 6.90890380653265 0 0 0 0
66000001 -0.045285385868084775 -0.008810875904953892 2.1981060360125833 6.818508692304709 0 0 0 0
67000001 -0.044817697231301336 -0.002332969090885498 2.6573199968629337 6.682254320566808 0 0 0 0
68000001 -0.04332177753401005 0.004381720666231544 3.1025478459018396 6.5109942724610885 0 0 0 0
69000001 -0.04082181950495378 0.01111901038819425 3.5311617273981786 6.301681304620982 0 0 0 0
70000001 -0.03749319700272711 0.017182142055805115 3.938104503539979 6.062275334052193 0 0 0 0
71000001 -0.033253057121170757 0.02283671227454075 4.31954384956824 5.7874084342142345 0 0 0 0
72000001 -0.027682257584212618 0.02788056527434029 4.6718534904977975 5.484229939803649 0 0 0 0
73000001 -0.02148287649239839 0.032380585897306476 4.997227685009169 5.160486485723666 0 0 0 0
74000001 -0.014460500120119794 0.03590406981596632 5.287998986666154 4.817736490792857 0 0 0 0
75000001 -0.007224185098519131 0.038370593940639144 5.550655780876091 4.466260837727468 0 0 0 0
76000001 0.00021360617098964874 0.039898831076422094 5.777841716426774 4.103108134736535 0 0 0 0
77000001 0.008017914031542941 0.04021938970252343 5.979428497235362 3.732721305616747 0 0 0 0
78000001 0.016136873748660775 0.03991105825421075 6.148624114392158 3.3593053532507646 0 0 0 0
79000001 0.023939247466306882 0.037911466126646934 6.295095689900346 2.989900239006617 0 0 0 0
80000001 0.03170308906769833 0.03513084450920776 6.416607718802333 2.6232439972382124 0 0 0 0
81000001 0.038858194368875325 0.03126737386999148 6.5113962205470255 2.258030378361743 0 0 0 0
82000001 0.045568667135674215 0.0270933697882311 6.585338648053297 1.8951960514798227 0 0 0 0
83000001 0.05193650607735335 0.02163947123917924 6.640618538705736 1.5380196149969454 0 0 0 0
84000001 0.05705852408628583 0.01562213469216785 6.680864095777343 1.187754528049714 0 0 0 0
85000001 0.061218233835869315 0.009124538415278086 6.704867546306729 0.8445600515273779 0 0 0 0
86000001 0.06487255128967363 0.0019317064386944985 6.711243142046238 0.49943797126021233 0 0 0 0
87000001 0.06778473533276141 -0.005095655462726855 6.708314915706307 0.1685998331793221 0 0 0 0
88000001 0.0698444972065585 -0.01279091041087756 6.695492020784661 -0.16433646546695893 0 0 0 0
89000001 0.07106372909813502 -0.019963996882990925 6.660288265889667 -0.49020214066711754 0 0 0 0
90000001 0.07122401246775223 -0.027129570981921636 6.6114171156933335 -0.8141967285934217 0 0 0 0
91000001 0.08055513621409634 -0.037481422269082416 6.524559461842454 -1.103695304710719 0 0 0 0
92000001 0.08188990128206379 -0.04427411462856432 6.440921957037174 -1.41509641159822 0 0 0 0
93000001 0.06765384970703614 -0.0485983825240349 6.389673436787672 -1.7581765594186143 0 0 0 0
94000001 0.08607067552166489 -0.05093588934421673 6.2135871785630234 -2.0242031981957855 0 0 0 0
95000001 0.06237154220683479 -0.060996696729043856 6.164099166386367 -2.3672215343129666 0 0 0 0
96000001 0.06090247292551273 -0.05653104147618524 5.9986459102908 -2.6789659883346655 0 0 0 0
97000001 0.054865054786041194 -0.07120754498734753 5.882194490765947 -2.9448036171450176 0 0 0 0
98000001 0.05098042070336279 -0.07577676949373957 5.715419138372921 -3.22084972875836 0 0 0 0
99000001 0.0466151193699871 -0.07989401648287275 5.540442412638408 -3.4854963050684664 0 0 0 0
100000001 0.04165982131331169 -0.08331657883196182 5.347705120310792 -3.743297546606565 0 0 0 0
