# HZ S RI R 50
1 0.45308356218425233 0.39211002060423694 0.005629741347467004 0.015586610417654485 0 0 0 0
1000001 -0.009464855398769005 0.0006589195872668068 -1.0052550575478556 -0.5063445316302899 0 0 0 0
2000001 -3.63526807067734e-05 -0.024505692354750815 -1.162763447263473 -0.42230684226368437 0 0 0 0
3000001 -0.007922110574990709 0.0012116323849056753 -1.2264497502063285 -0.43309658915669136 0 0 0 0
4000001 -0.007847975232187972 0.0014233979979564625 -1.2608493396035565 -0.47544154601732763 0 0 0 0
5000001 -0.007604535509914952 0.002448304521820436 -1.307598433324499 -0.527028021771801 0 0 0 0
6000001 -0.007451896709673616 0.0029310350813737548 -1.3645667418351117 -0.5895970554910016 0 0 0 0
7000001 -0.007858054684446508 0.0033137173247362824 -1.440370879873376 -0.6446199105190433 0 0 0 0
8000001 -0.0161008075211544 -0.00236610625960716 -1.5245096435656413 -0.6930540781475533 0 0 0 0
9000001 -0.009458516405184556 0.009643971462688432 -1.6378398623369061 -0.7150618807724886 0 0 0 0
10000001 -0.0046077281087978945 0.005436044158558177 -1.7521247858838902 -0.7151754056190128 0 0 0 0
11000001 -0.00800305168420348 0.00554231827293938 -1.8729731868163393 -0.7013934175238347 0 0 0 0
12000001 -0.006092463451130393 0.00464414934612513 -1.9960602382490555 -0.6532325795684588 0 0 0 0
13000001 -0.0050559322385023905 0.0045508599488678705 -2.1159539476358704 -0.5783829691256099 0 0 0 0
14000001 -0.004837462215062619 0.005013166945032168 -2.2247141427882076 -0.47148737201469326 0 0 0 0
15000001 -0.001807068778773212 0.0019058075562315786 -2.316608012890755 -0.33613914649279836 0 0 0 0
16000001 -0.003796444247667502 0.00619220910572253 -2.398257643746192 -0.1757899848894906 0 0 0 0
17000001 -0.003933605283045872 0.006362393051219273 -2.453065659213065 0.0037448575501639425 0 0 0 0
18000001 -0.0029413715283257793 0.007134888404093923 -2.4703145090868457 0.21435947263527544 0 0 0 0
19000001 -0.002317070298861804 0.007614627618564549 -2.4465290211899906 0.4373724824459582 0 0 0 0
20000001 -0.0011357944389731053 0.007666504343902232 -2.3834746452147946 0.6675960777156312 0 0 0 0
21000001 -0.0007483379174427901 0.007891968731222138 -2.2719210225977022 0.9107654123520023 0 0 0 0
22000001 -0.008247509866755938 0.0053208147561073635 -2.121485606699498 1.1351460330312946 0 0 0 0
23000001 0.0006250945852743922 0.006470123791804571 -1.920096955636095 1.3464375679153853 0 0 0 0
24000001 0.00033849290848380226 0.007626937202108014 -1.6958678856483513 1.5303558038834695 0 0 0 0
25000001 0.0041778006947246074 0.00860595620351275 -1.430469972490891 1.6721488611315627 0 0 0 0
26000001 0.005473256723623102 0.008772330184390525 -1.1350215909111898 1.7678416835545847 0 0 0 0
27000001 0.007154032865694679 0.008575134073136405 -0.8296316054053102 1.815867998691142 0 0 0 0
28000001 0.008584084835396435 0.008191084548280606 -0.555419464726985 1.8232102963837433 0 0 0 0
29000001 0.010346345764518637 0.007967281111908213 -0.3438720964391753 1.8070226768821838 0 0 0 0
30000001 0.012189825415717104 0.007535085584232953 -0.18477297101240384 1.788776598334307 0 0 0 0
31000001 0.013927441270345618 0.006653406977662614 -0.03130924690737309 1.7797268766991952 0 0 0 0
32000001 0.01567022480790931 0.005715398119201775 0.10069605098182101 1.7854612231558074 0 0 0 0
33000001 0.01742731963474927 0.004674934799363983 0.23618103267154597 1.7917914718257684 0 0 0 0
34000001 0.01932155755670124 0.0034043452633187514 0.36143185506682496 1.7753908624448134 0 0 0 0
35000001 0.02113827695204976 0.0018408157912173971 0.49240759668222905 1.733509490461536 0 0 0 0
36000001 0.023068376559416785 -4.8583624555256124e-05 0.6149706233000876 1.6589243299571035 0 0 0 0
37000001 0.024732765998789704 -0.0023060675701127827 0.706672184214207 1.5677380199590396 0 0 0 0
38000001 0.026304491059519135 -0.004792615980780496 0.7667465109073361 1.4694183755790098 0 0 0 0
39000001 0.027780254324272308 -0.007392680710060507 0.8141113058383661 1.3604848562034133 0 0 0 0
40000001 0.02942452749481427 -0.010674199090221194 0.8506941376368877 1.2466333181683762 0 0 0 0
41000001 0.030287647462494068 -0.013877502745206941 0.8719271895126336 1.1289791559298628 0 0 0 0
42000001 0.03087674906740309 -0.017167673489456185 0.8722931027186968 1.0036557533549084 0 0 0 0
43000001 0.0312465503536622 -0.021009831048953032 0.8600042723456354 0.8673837308918371 0 0 0 0
44000001 0.03129287425650529 -0.02504594911038647 0.8103728127510063 0.7520606258532654 0 0 0 0
45000001 0.030699507994837796 -0.02921766944295442 0.7478247846250493 0.6411518491881038 0 0 0 0
46000001 0.029817041867825973 -0.03348997861654084 0.6778964475584578 0.5229700918122493 0 0 0 0
47000001 0.02827499588647639 -0.03790473632260056 0.5954217175917064 0.40041618310673477 0 0 0 0
48000001 0.026119869835911188 -0.04164117845156149 0.5016667577556612 0.3083397494322686 0 0 0 0
49000001 0.023711350310376425 -0.04628295605811539 0.3925100415983554 0.22239318304397857 0 0 0 0
50000001 0.020462273093232165 -0.050259995464254054 0.26805412124331995 0.1746058679122695 0 0 0 0
51000001 0.016457817052531666 -0.05400172210682742 0.14211847154202895 0.15370570586512228 0 0 0 0
52000001 0.011848914493708021 -0.05706142534414324 0.02601260111310675 0.149538671919486 0 0 0 0
53000001 0.006766833402239293 -0.06028259223897647 -0.08476246953700961 0.1609396877370279 0 0 0 0
54000001 0.0013058438446632145 -0.062464660915351196 -0.1845985000753446 0.17056605081922183 0 0 0 0
55000001 -0.004794959377928248 -0.06390191342651472 -0.2771253228901828 0.18481255491758658 0 0 0 0
56000001 -0.011303344522781932 -0.06494518935793706 -0.3460166039885484 0.24405440901537104 0 0 0 0
57000001 -0.01797665389765544 -0.06512577641802411 -0.39475943604466196 0.33836583997106984 0 0 0 0
58000001 -0.024967441675257336 -0.06407823831433095 -0.4142139591158587 0.465186382920379 0 0 0 0
59000001 -0.03226553058650428 -0.06202013850213855 -0.39061327597492357 0.625805990317449 0 0 0 0
60000001 -0.03883187796534555 -0.05937818063474666 -0.32376960572461344 0.8014186517676317 0 0 0 0
61000001 -0.04537354984426013 -0.055412389858680335 -0.22893197035436177 0.9666931095615691 0 0 0 0
62000001 -0.0515553879294718 -0.05056757733458767 -0.09204013824677157 1.140333596486618 0 0 0 0
63000001 -0.05705573224918507 -0.04433047641466807 0.07125770482525814 1.3024721331176745 0 0 0 0
64000001 -0.06214882228561962 -0.03735168620771405 0.23684483112978977 1.42432995273473 0 0 0 0
65000001 -0.06612873814815731 -0.02963410775380972 0.49145781025316376 1.453978057585218 0 0 0 0
66000001 -0.06867325784755705 -0.021327980129341482 0.7324888279822811 1.3895594135305085 0 0 0 0
67000001 -0.07032999696996524 -0.01246434719498327 0.9886103951723808 1.3612042308255432 0 0 0 0
68000001 -0.070786200595956 -0.003293768432839222 1.2834876207114374 1.4099464140889266 0 0 0 0
69000001 -0.06990181527708794 0.006327538904883062 1.5350198846323695 1.368693289333424 0 0 0 0
70000001 -0.06742624053152721 0.015796876479849696 1.6868382548265741 1.1696195965170009 0 0 0 0
71000001 -0.06394467367338899 0.02511867920480348 1.7361669369418427 0.8424876407652583 0 0 0 0
72000001 -0.05900805139802903 0.033327702663235814 1.7250057188257475 0.44295280531113207 0 0 0 0
73000001 -0.052276727179749426 0.041726041050346795 1.6609434721388983 0.016805189987234327 0 0 0 0
74000001 -0.04486144359638828 0.04914567468901783 1.5737665412957162 -0.3853408647149321 0 0 0 0
75000001 -0.03642142413156163 0.05490813725749638 1.4709703010425124 -0.7330800581055569 0 0 0 0
76000001 -0.027237831699460372 0.06025947316347651 1.3511185141178537 -1.032316050858 0 0 0 0
77000001 -0.01724427670806788 0.06384030797250435 1.2230875129728958 -1.291797135294741 0 0 0 0
78000001 -0.006720804048066336 0.06626642099744068 1.1008066029583192 -1.5214988456586447 0 0 0 0
79000001 0.0044425933853728 0.06709146234854736 0.9718214338010733 -1.722271940243994 0 0 0 0
80000001 0.015366175137902267 0.06654529649582183 0.834668927133144 -1.9009191175153592 0 0 0 0
81000001 0.02609405087299677 0.06453047448937287 0.7199950704954223 -2.090433342428638 0 0 0 0
82000001 0.036622409769078615 0.06144667513125937 0.5851934536459834 -2.2592575440003717 0 0 0 0
83000001 0.04658676516306046 0.05702014923610217 0.47356986742441853 -2.458209009258137 0 0 0 0
84000001 0.055319897316057555 0.051428726521711654 0.3504471526866309 -2.6483160248966904 0 0 0 0
85000001 0.06373805826683886 0.044814857400863134 0.2368640014112288 -2.859889686438806 0 0 0 0
86000001 0.07164964923229211 0.036755519133729944 0.1096957868560759 -3.065389700386728 0 0 0 0
87000001 0.0774500431889368 0.028644543465992184 0.003728683159059474 -3.3022405350287434 0 0 0 0
88000001 0.08304559244265868 0.01982438432558857 -0.10758336508587235 -3.5345756248652 0 0 0 0
89000001 0.0871717096055189 0.010909242089342913 -0.22203151942815363 -3.7597048937543085 0 0 0 0
90000001 0.09044830969768083 0.0013377801776941793 -0.3479810936306481 -3.9782565401402885 0 0 0 0
91000001 0.09273379620747833 -0.008528886419719401 -0.4701083749732853 -4.2036193853738 0 0 0 0
92000001 0.09393845672650397 -0.018327949973488095 -0.6087071308069812 -4.436291122393435 0 0 0 0
93000001 0.09400688269812532 -0.027796690058843353 -0.7590293581482781 -4.675970746955665 0 0 0 0
94000001 0.09329820663194924 -0.03668965240099985 -0.9201741495569513 -4.926383558091857 0 0 0 0
95000001 0.09210555069754717 -0.046387894785869944 -1.1124979437732934 -5.171702699474878 0 0 0 0
96000001 0.0895861669969661 -0.056055617983300034 -1.290493204680103 -5.443437211774173 0 0 0 0
97000001 0.08594065795867536 -0.06388710330654607 -1.4853119688347243 -5.703483296246224 0 0 0 0
98000001 0.08160598703414777 -0.07170376463449085 -1.716779168133736 -5.947402792609268 0 0 0 0
99000001 0.07651928768247293 -0.07881815679513313 -1.977201299886246 -6.1925970467520735 0 0 0 0
100000001 0.0713272320714514 -0.0853670702481821 -2.247303081846448 -6.412519494015151 0 0 0 0
