# HZ S RI R 50
1 0.743504894642462 -0.6960724857852105 0.023979186574546396 0.16607633503553762 0 0 0 0
1000001 -0.009071522996822219 0.0006201186860943771 -1.3020336498621592 -0.14518152939099124 0 0 0 0
2000001 -0.008964608937354165 0.0009323447221810848 -0.8642994832566874 -0.2629531552358262 0 0 0 0
3000001 -0.008788660923412638 0.0006830494873681074 -0.3399553351934719 -0.521011286137163 0 0 0 0
4000001 -0.008571961003601086 0.0010282043199912622 0.052530917254252005 -0.8236889143747131 0 0 0 0
5000001 -0.007895386627170332 0.0015004240184713134 0.16739351464968014 -1.035377309177439 0 0 0 0
6000001 -0.007573840207490617 0.001241957261675651 0.11256802137842649 -1.1314063569302955 0 0 0 0
7000001 -0.007516293702478781 0.0014475928060649309 -0.03330016588069668 -1.1332930666934504 0 0 0 0
8000001 -0.009732463923636567 0.0012972982630730923 -0.18798074142893026 -1.0586939894193752 0 0 0 0
9000001 -0.007257776994134533 0.0031743009492442974 -0.3224640773095673 -0.922972821695821 0 0 0 0
10000001 -0.005438697928421984 0.00025963653619302015 -0.44693529839755847 -0.7580603792299277 0 0 0 0
11000001 -0.004527971671968749 0.0002655931379741469 -0.5405649774629726 -0.5656448400507408 0 0 0 0
12000001 -0.006173054282040771 0.00025393924711717564 -0.6001936981612167 -0.35585930880693184 0 0 0 0
13000001 -0.00493235514895772 -0.00026503036104565483 -0.6213961588009095 -0.12748947947571568 0 0 0 0
14000001 -0.00611342091824904 -0.00020491615768522908 -0.5999816165751466 0.1032320806797047 0 0 0 0
15000001 -0.006189374266202732 -0.000744528145792748 -0.5343078716793291 0.3388953004036392 0 0 0 0
16000001 -0.006082017164665294 -0.002090294374207601 -0.4247224943555722 0.5682054458779088 0 0 0 0
17000001 -0.006701209647733 -0.0017475206275239575 -0.2765913631037961 0.7832055159260574 0 0 0 0
18000001 -0.006947012142285049 -0.0018494318701572517 -0.09054232827889207 0.9760671261235125 0 0 0 0
19000001 -0.006962256044105824 -0.0021609114766347757 0.12736750555695608 1.1443007351413288 0 0 0 0
20000001 -0.006368707454964728 -0.0013590787701404318 0.37629031933543705 1.2785901565489233 0 0 0 0
21000001 -0.010452093842344778 -0.0039019303392780107 0.6437993786764127 1.3821762164817786 0 0 0 0
22000001 -0.00619518514758466 8.756678050541008e-05 0.9451761538398538 1.440248191505886 0 0 0 0
23000001 -0.009208091919355815 -0.0014787853044997885 1.263609225191518 1.477196971019763 0 0 0 0
24000001 -0.009607967032643246 -0.0025087488888564315 1.6145357248084404 1.4618595391720135 0 0 0 0
25000001 -0.01020946246374138 -0.002512446584892832 1.9980170113437328 1.404037751806672 0 0 0 0
26000001 -0.01106618928124305 -0.0021432171551619946 2.374396873688573 1.2816167349202565 0 0 0 0
27000001 -0.011872441608518424 -0.0017180882443852319 2.7159294983198397 1.1206397723815016 0 0 0 0
28000001 -0.01291229360661484 -0.00120480117603433 2.9807522639062896 0.9447395091492891 0 0 0 0
29000001 -0.013589492523841225 -0.0003101535108632256 3.1620359927865125 0.7592060188441809 0 0 0 0
30000001 -0.014530626983585765 0.0006043559362036629 3.2732182545263893 0.5632734077759594 0 0 0 0
31000001 -0.015276267465168764 0.0017266390968356702 3.3325081123615217 0.3544170679745963 0 0 0 0
32000001 -0.01618878736586789 0.002943976224887132 3.3520573275663748 0.13815546731741749 0 0 0 0
33000001 -0.016656570835662146 0.00460214170133722 3.31733475875835 -0.07926476349703607 0 0 0 0
34000001 -0.01749589869384425 0.006725993494397715 3.248934099961896 -0.286754126407594 0 0 0 0
35000001 -0.017632181919455637 0.008563683994173033 3.1556913611297017 -0.49076641108951286 0 0 0 0
36000001 -0.01741193190000168 0.011178317889593092 3.042453128120056 -0.6903938168976437 0 0 0 0
37000001 -0.017119742191525466 0.01354546272194323 2.90260992345992 -0.8790388068994132 0 0 0 0
38000001 -0.01595290872508005 0.016053668410915697 2.725004782018098 -1.0351935265579033 0 0 0 0
39000001 -0.014909559014923081 0.0187422523081143 2.5180468425232765 -1.1598041999523683 0 0 0 0
40000001 -0.013053893163826952 0.021405258836494863 2.29264885613125 -1.2539186547191363 0 0 0 0
41000001 -0.01071075903548694 0.024382691919357238 2.060712502065677 -1.3178292898827388 0 0 0 0
42000001 -0.007726849216405884 0.026800100503623248 1.7992667760688803 -1.3642424458042925 0 0 0 0
43000001 -0.004462766064171691 0.028988968136476556 1.5453425943355146 -1.3839244059926241 0 0 0 0
44000001 -0.00045644525473216883 0.030404242494422477 1.3012435282698385 -1.3769606933232805 0 0 0 0
45000001 0.0038085442724764993 0.03199901902029945 1.059485807568911 -1.3435964018869677 0 0 0 0
46000001 0.008702186364860786 0.03335165916758159 0.8155084188860158 -1.2674718792012962 0 0 0 0
47000001 0.013844769665203531 0.03308442045371714 0.5799234275304903 -1.154203585995717 0 0 0 0
48000001 0.019232356581844745 0.0326382562264319 0.3618037916035136 -1.0099408652443997 0 0 0 0
49000001 0.024736826210631332 0.03168634012388668 0.1744074667096616 -0.8399946716941643 0 0 0 0
50000001 0.03037962564440831 0.029301327990370118 0.024990450375183177 -0.6674070743589069 0 0 0 0
51000001 0.03561405032846587 0.025963192507540547 -0.09599299459274095 -0.47391753358882543 0 0 0 0
52000001 0.04062060361459237 0.022151269729915893 -0.17187615721963853 -0.27649811823643194 0 0 0 0
53000001 0.04492005889622413 0.017275262080547138 -0.19435075435601593 -0.11612431633264096 0 0 0 0
54000001 0.04942920994026316 0.011540564594787051 -0.1889594282847346 0.03643682947520931 0 0 0 0
55000001 0.05250171008857513 0.005122779209245345 -0.1575125991796079 0.2165169983715689 0 0 0 0
56000001 0.054999291605148305 -0.0020240758920060126 -0.09546905169297192 0.38746227908051417 0 0 0 0
57000001 0.05584374919940967 -0.009684814979326386 0.012170174092675639 0.548530606847884 0 0 0 0
58000001 0.055539415697766124 -0.01764711278290538 0.14482532400072876 0.509955672024024 0 0 0 0
59000001 0.05427893575861008 -0.02595229080020708 0.26823803657427575 0.3913949160187738 0 0 0 0
60000001 0.05144974927169487 -0.03368597251310666 0.3470625577941621 0.2502627202207428 0 0 0 0
61000001 0.047364387811303844 -0.040560697036071444 0.3768609223376061 0.10861560055594181 0 0 0 0
62000001 0.04220125825056071 -0.04692021898874429 0.3718492179124218 -0.02218695934639374 0 0 0 0
63000001 0.03609689486663761 -0.05215112017383692 0.32973015741803596 -0.13959015905031721 0 0 0 0
64000001 0.02882335857929627 -0.05662008128780232 0.2567564255557177 -0.24627880093262927 0 0 0 0
65000001 0.02182610697542328 -0.05940295402415482 0.1621361914927644 -0.3377376815018818 0 0 0 0
66000001 0.014415197681546773 -0.06071958393798984 0.052123668025776226 -0.4165111960603163 0 0 0 0
67000001 0.006911441160187999 -0.06088388749718728 -0.06864418180004092 -0.49336302094778994 0 0 0 0
68000001 -0.00022218432259383963 -0.06001328392331021 -0.19976131545314696 -0.5692886860813615 0 0 0 0
69000001 -0.0066785284496060126 -0.057590199896845315 -0.3402622119986268 -0.6586683470484227 0 0 0 0
70000001 -0.012733609637322568 -0.05423836574998293 -0.4778064811217634 -0.7733237528468476 0 0 0 0
71000001 -0.017822622807851594 -0.0502406957404223 -0.5975109660836484 -0.9240712836324194 0 0 0 0
72000001 -0.022119012105397146 -0.04575915016720209 -0.6831077378328327 -1.119910884788716 0 0 0 0
73000001 -0.025230929532918236 -0.0404045000614655 -0.7034716933292294 -1.3312524378563333 0 0 0 0
74000001 -0.027044703548689923 -0.03480801319474678 -0.658199605102464 -1.5406469520276382 0 0 0 0
75000001 -0.027940383267676814 -0.02937728116877677 -0.768624830693264 -1.6612770308069926 0 0 0 0
76000001 -0.027472687169562172 -0.024222951549554336 -0.8803992724190828 -1.7771214948216247 0 0 0 0
77000001 -0.026533884982890846 -0.019612496958239585 -0.9698699910319696 -1.910244731104314 0 0 0 0
78000001 -0.02424793431581266 -0.015240689711845348 -1.0495703846577795 -2.066836442774802 0 0 0 0
79000001 -0.02154856898556401 -0.011808013983079546 -1.1311371305540114 -2.2480436861061364 0 0 0 0
80000001 -0.018670355093260625 -0.00890546895073891 -1.2190404934700088 -2.444306805807828 0 0 0 0
81000001 -0.015228537033409048 -0.007012817429402494 -1.3287864970279746 -2.6789454400742585 0 0 0 0
82000001 -0.011906384264393676 -0.005335975226419617 -1.462215502543189 -2.9154139393281207 0 0 0 0
83000001 -0.00853567717484522 -0.0048837954636843355 -1.627638475505975 -3.136807893833731 0 0 0 0
84000001 -0.005630676502656388 -0.00497119432942426 -1.8290888301438197 -3.3677224084293123 0 0 0 0
85000001 -0.0026125388428401434 -0.0049781127217747145 -2.0560788210392698 -3.5831554924303948 0 0 0 0
86000001 0.0007029606861003964 -0.005384047584177074 -2.328933226974331 -3.7630430509821218 0 0 0 0
87000001 0.0029883198280811546 -0.007341101171585471 -2.643229656318335 -3.9293202661299413 0 0 0 0
88000001 0.004964173531066532 -0.008357908341884676 -2.983206205939691 -4.0701422066628234 0 0 0 0
89000001 0.006697435252675189 -0.009531075862816481 -3.351477225490018 -4.160175347985456 0 0 0 0
90000001 0.008768785863996669 -0.01110915772743051 -3.7629781535003195 -4.234993143987216 0 0 0 0
91000001 0.01026855923482366 -0.01267459939307158 -4.1869769991241865 -4.250900571547783 0 0 0 0
92000001 0.011840143054648651 -0.014494984200627158 -4.634611808438109 -4.225133535108796 0 0 0 0
93000001 0.013008639600554258 -0.015951620254902144 -5.075732823130488 -4.1477058471129435 0 0 0 0
94000001 0.014844486045500128 -0.017795506727006926 -5.511874077287513 -4.012054413958334 0 0 0 0
95000001 0.0153350197241237 -0.01989864994371586 -5.94431903467586 -3.840214627713913 0 0 0 0
96000001 0.015720821000120587 -0.021823645861726554 -6.324915691502875 -3.6160457713124448 0 0 0 0
97000001 0.01668578135759454 -0.022691828659551688 -6.661769816233557 -3.3512026827517345 0 0 0 0
98000001 0.017481360046022177 -0.024771571210523313 -6.962668886492913 -3.063710933462059 0 0 0 0
99000001 0.018372500521688855 -0.026565392617117607 -7.249967458584499 -2.7627924474391947 0 0 0 0
100000001 0.01912115339778515 -0.029348489379748405 -7.485153544296337 -2.426502185493005 0 0 0 0
