# HZ S RI R 50
1 0.6166778944394521 -0.004943135976393951 0.005342910980013616 -0.004984293928241231 0 0 0 0
1000001 -0.008938402947417613 0.00040146975182583255 0.1534868373829029 0.05227781968408623 0 0 0 0
2000001 -0.008963412990771896 0.0011617544865241143 0.15728364986971008 0.09276512223385126 0 0 0 0
3000001 -0.00866921756226865 0.0008908312854855642 0.16317335907769595 0.13504733809062083 0 0 0 0
4000001 -0.008395696659854061 0.0013149280971149924 0.17115391259895266 0.17755098943910974 0 0 0 0
5000001 -0.009381563810540939 -0.00036215959061785895 0.18180128896336176 0.21982351699229988 0 0 0 0
6000001 -0.007623429374878997 0.002065526718309278 0.19340717213561281 0.2620703435392467 0 0 0 0
7000001 -0.00763398876161576 0.0022904446953103097 0.2074308825289732 0.3037001081787727 0 0 0 0
8000001 -0.00959940195706569 0.0024542516869859076 0.22396151114200266 0.3450975487628162 0 0 0 0
9000001 -0.007068350022028316 0.004791095294108316 0.24208088244965453 0.3857049241983204 0 0 0 0
10000001 -0.004602811048438896 0.0024733454396156035 0.26282837135472437 0.4253006390232826 0 0 0 0
11000001 -0.006802602648883801 0.0044504353124652065 0.28493413045763755 0.46582492761942557 0 0 0 0
12000001 -0.005893400038293036 0.003539764352190881 0.3092690069801895 0.5046690258133518 0 0 0 0
13000001 -0.005195425946408243 0.0031578573668842023 0.3359215599634548 0.5424548449899366 0 0 0 0
14000001 -0.004831562799435539 0.002833929069859604 0.36376558661373276 0.5800472012910328 0 0 0 0
15000001 -0.004422184908461955 0.0027591841782717945 0.39469654576817925 0.6166756963759108 0 0 0 0
16000001 -0.0038133889830658527 0.0030081746343236467 0.42745839209947867 0.6516268044944493 0 0 0 0
17000001 -0.0043846240772555285 0.003461911142954177 0.46287794529210985 0.6872916040042958 0 0 0 0
18000001 -0.0036935560547888997 0.0026177255286212817 0.4994346949139733 0.7210108532735406 0 0 0 0
19000001 -0.0027873098709174197 0.002695058751455039 0.5390424124960624 0.7532421660166534 0 0 0 0
20000001 -0.002035968742542986 0.002563613953691634 0.5803782304313112 0.78457581761838 0 0 0 0
21000001 -0.0017823897002709592 0.0023365567110226887 0.6237044120559638 0.8144997407589648 0 0 0 0
22000001 -0.001062412820219022 0.002566882116587843 0.6699388396250757 0.8423844377897451 0 0 0 0
23000001 -0.0006404553067804269 0.0018823861137533383 0.7174636894960753 0.8702121742923489 0 0 0 0
24000001 0.00028427444053209577 0.002033752616571311 0.7683507154629083 0.8951946883843328 0 0 0 0
25000001 0.00045538542944772016 0.0017802698426081808 0.8210299746088437 0.9194231363479918 0 0 0 0
26000001 0.0014728885230744046 0.0016315050909905587 0.8759879761645193 0.9409536538950097 0 0 0 0
27000001 0.0018849726329940367 0.0013938835803752288 0.9330112370597887 0.9609163358177004 0 0 0 0
28000001 0.002606178401081498 0.0010877589256918139 0.9926577950904757 0.9781773619893263 0 0 0 0
29000001 0.0032499649060781792 0.0009235347772764018 1.0550989568740459 0.9935440771909037 0 0 0 0
30000001 0.004203403718174337 0.0008788820091852221 1.1184111152142735 1.006513322249065 0 0 0 0
31000001 0.004811240183563108 0.00032523635678288016 1.1840155097547231 1.0163421064370837 0 0 0 0
32000001 0.005389388066545183 3.838530439403045e-05 1.2521645594378472 1.0238884281492975 0 0 0 0
33000001 0.006295944590506713 -0.000202959082865252 1.3219462111641178 1.0278916434028444 0 0 0 0
34000001 0.006728340628725102 -0.0006278826438132221 1.3933919104857369 1.0293126969126543 0 0 0 0
35000001 0.007653109985467658 -0.00121952535761099 1.4672249437439873 1.027173386752299 0 0 0 0
36000001 0.00880186861976453 -0.001654170061728216 1.5426979879793072 1.0203300064005312 0 0 0 0
37000001 0.009560291188852748 -0.002289567841787725 1.6198714221649122 1.0097474821161634 0 0 0 0
38000001 0.01043972627885394 -0.0030782241806040192 1.6969919118744028 0.995728082895705 0 0 0 0
39000001 0.011520690577997008 -0.003581129088026624 1.7758817985527984 0.9776557823483374 0 0 0 0
40000001 0.012605183253723685 -0.0045680967161932364 1.8562203784754423 0.9552337185516641 0 0 0 0
41000001 0.01363477678546175 -0.005500735613011437 1.9375347108593755 0.9283821924639727 0 0 0 0
42000001 0.014409021292388404 -0.006258578884799916 2.018324242443616 0.8967017935608737 0 0 0 0
43000001 0.015475074526845538 -0.00738704494761752 2.100208717623247 0.8603674589726074 0 0 0 0
44000001 0.01656022562743555 -0.008571120158427006 2.1820659403650327 0.8187307831340921 0 0 0 0
45000001 0.01740867162375767 -0.009737621828123466 2.2643750654048715 0.7718761962898765 0 0 0 0
46000001 0.018310258899072923 -0.010952086591051067 2.3450886792334766 0.7193512577094618 0 0 0 0
47000001 0.019527627552419026 -0.012551377974655765 2.424890049218621 0.6622005398159383 0 0 0 0
48000001 0.019921650138350566 -0.014139372914601068 2.5029648481645244 0.5984560862724283 0 0 0 0
49000001 0.021163770880713882 -0.015825799647473947 2.580889485357597 0.5295500331094627 0 0 0 0
50000001 0.022269219823424703 -0.017533099911370784 2.6539418358414135 0.4547586644464947 0 0 0 0
51000001 0.02279276574619842 -0.019396662129403608 2.7268872284145242 0.37435793995818245 0 0 0 0
52000001 0.023194236269237774 -0.021387013010026584 2.795878683800375 0.28923785007337377 0 0 0 0
53000001 0.02377592274597842 -0.023836528803424427 2.8620896414880357 0.19832489197936815 0 0 0 0
54000001 0.024353933879306743 -0.026023755052198786 2.9244500355949445 0.10043396751108452 0 0 0 0
55000001 0.024520781663853772 -0.028233111115007457 2.981663680358472 -0.0003526262786821485 0 0 0 0
56000001 0.02479101649826822 -0.030786090660219607 3.0341920762658945 -0.10820073940589961 0 0 0 0
57000001 0.024708822641697454 -0.03333617823986114 3.0813723880921358 -0.2207801647894631 0 0 0 0
58000001 0.024219855333513656 -0.035912728081020834 3.123894752479559 -0.3382747355231009 0 0 0 0
59000001 0.02366166596158471 -0.03897985109526373 3.158481749868304 -0.45947530211267873 0 0 0 0
60000001 0.02301575777099133 -0.04173358703963213 3.1891227424235593 -0.5851583885424202 0 0 0 0
61000001 0.02197437031869034 -0.04436823207955219 3.2113734497073945 -0.7124124701623433 0 0 0 0
62000001 0.02102803929382067 -0.046984968518309654 3.2271817431664154 -0.8446619707011785 0 0 0 0
63000001 0.019256681243724344 -0.04960814495003348 3.235495293470304 -0.9808368378188858 0 0 0 0
64000001 0.014590419563739689 -0.044290231318267786 3.238180626988986 -1.1333589434759113 0 0 0 0
65000001 0.01301140470778222 -0.05235236464316355 3.231368870418332 -1.263015669491116 0 0 0 0
66000001 0.013862031183545712 -0.05666354812261853 3.2113290690771423 -1.3968753736659372 0 0 0 0
67000001 0.019657891629822413 -0.06146849053256976 3.1704685079467443 -1.5270007383633908 0 0 0 0
68000001 0.00894478591135302 -0.06096222041528665 3.150524158625887 -1.676918652379234 0 0 0 0
69000001 0.006295929642721986 -0.06243065443879506 3.107240343459001 -1.8166954524723555 0 0 0 0
70000001 0.003425779917417838 -0.06382217223151 3.0559204600591405 -1.954262668824125 0 0 0 0
71000001 0.0006148547563898587 -0.06496790304142923 2.994270320166214 -2.0892714340793566 0 0 0 0
72000001 -0.0025969717362866566 -0.06623297622938239 2.9236287813562125 -2.219681997665704 0 0 0 0
73000001 -0.005510679311124114 -0.06644746767371344 2.8451699745952466 -2.349435103796684 0 0 0 0
74000001 -0.00847134597529985 -0.06672054813139137 2.757703081440874 -2.4711899177253147 0 0 0 0
75000001 -0.011506440156946903 -0.06701470096154419 2.6648107791936737 -2.5898495736468536 0 0 0 0
76000001 -0.01452125148634452 -0.0665875611019505 2.563455515626526 -2.700095996955404 0 0 0 0
77000001 -0.01732882099537216 -0.0663466116068886 2.4551816257907486 -2.8041679323573905 0 0 0 0
78000001 -0.018225530497610744 -0.0604785804913467 2.330775513284995 -2.903123320911607 0 0 0 0
79000001 -0.022255605847518956 -0.06488827367758707 2.2232317682529588 -2.990403966137213 0 0 0 0
80000001 -0.024646482288851145 -0.06378896854742211 2.100741792821382 -3.0715069732041864 0 0 0 0
81000001 -0.02688456796397652 -0.06240137893255039 1.9731991069220185 -3.1449929088520636 0 0 0 0
82000001 -0.02889035656087197 -0.06118797391750502 1.8437216604134987 -3.20854461088604 0 0 0 0
83000001 -0.02894128508094089 -0.061835373837348495 1.716872733844122 -3.259542995057452 0 0 0 0
84000001 -0.0276031997666541 -0.05549347377534847 1.5728076921621832 -3.301789885292988 0 0 0 0
85000001 -0.033652605397622805 -0.056955182160560176 1.4498360976365692 -3.3470219661006335 0 0 0 0
86000001 -0.03506005829461879 -0.05491019599729117 1.3188873001273598 -3.3766463617428046 0 0 0 0
87000001 -0.03564972400195544 -0.05395809676556586 1.1887712146332066 -3.399816667745514 0 0 0 0
88000001 -0.036959667878935176 -0.05216019453312602 1.0610343156996882 -3.4145502337828764 0 0 0 0
89000001 -0.03734118718063048 -0.050704742525326495 0.9348604205442602 -3.422147561517196 0 0 0 0
90000001 -0.03782071438475395 -0.049122761074773084 0.8101784722103769 -3.4209634592377514 0 0 0 0
91000001 -0.036429884451797845 -0.04351093867789359 0.6833952934778873 -3.4123108701019182 0 0 0 0
92000001 -0.03811094096043273 -0.04641763319448449 0.5721605044416813 -3.4037734145494882 0 0 0 0
93000001 -0.03836235612044495 -0.045218039038521965 0.4606726352855411 -3.3871880585867116 0 0 0 0
94000001 -0.03812382119762633 -0.04365270122162486 0.3495369595409217 -3.363619978802887 0 0 0 0
95000001 -0.03811250594960954 -0.04274826440305803 0.24279017363865252 -3.337515312626869 0 0 0 0
96000001 -0.03850010660741748 -0.04153948243663435 0.14078375697445056 -3.307220390366934 0 0 0 0
97000001 -0.037658093820143984 -0.04073053953339649 0.043478040653202626 -3.2735552685495724 0 0 0 0
98000001 -0.037336780278666146 -0.039575041283029376 -0.05205011851371317 -3.2344621373144125 0 0 0 0
99000001 -0.03729010488189506 -0.03922321653816779 -0.1403590726296558 -3.1966597755379977 0 0 0 0
100000001 -0.036819973845713234 -0.03836566673439505 -0.2267752890088038 -3.154818668770166 0 0 0 0
