# HZ S RI R 50
1 0.5186298768206109 -0.06881311550371753 0.0003111578649118412 -0.006690152980182143 0 0 0 0
1000001 -0.008087616503255792 0.00028298521482610355 0.11905374708496518 0.03640014966338417 0 0 0 0
2000001 -0.029648045211811323 -0.029876023915676772 0.11863058229990185 0.06549288679730134 0 0 0 0
3000001 -0.008480637393073554 -8.395310256456023e-05 0.1246884376909945 0.09271277559996391 0 0 0 0
4000001 -0.008023994651296055 3.528284031430683e-05 0.1291610523008596 0.12222393410026701 0 0 0 0
5000001 -0.007877973071152525 0.0006482898110185002 0.13580828508630324 0.15135769884328407 0 0 0 0
6000001 -0.007580472098034646 0.0006897019533801712 0.14210110022417746 0.1807460780059506 0 0 0 0
7000001 -0.007748891938398938 0.0009454264782304509 0.14993488397584648 0.20983659918418512 0 0 0 0
8000001 -0.009814564203890909 0.0008993053828663149 0.15968813049005037 0.23842493882914834 0 0 0 0
9000001 -0.007342582290350805 0.0030266849105672743 0.17008944253374292 0.26696164663640765 0 0 0 0
10000001 -0.009204644781380826 0.004556144830552302 0.18257636255621681 0.29589280636410126 0 0 0 0
11000001 -0.009507938268920532 -0.0013172688139646042 0.19397994858932605 0.3233092646236624 0 0 0 0
12000001 -0.006296362545173086 0.0007872263016555378 0.20894604936468916 0.3502814370940661 0 0 0 0
13000001 -0.006683676965355363 -0.0009382299814245637 0.2238308379067133 0.3772137464809023 0 0 0 0
14000001 -0.004167736719708524 -8.608419599957385e-05 0.240133210589745 0.40353020692401903 0 0 0 0
15000001 -0.005425162654423807 0.0006882862923188519 0.2581109324827635 0.43041809637971995 0 0 0 0
16000001 -0.004174675830019471 0.0006852062018704805 0.2769321952437803 0.4554225466155132 0 0 0 0
17000001 -0.005983115413916988 -0.0009828116098667895 0.2964921864934232 0.4813703606713064 0 0 0 0
18000001 -0.004275031807585924 0.0001091928277901243 0.3180079658819431 0.5061732732474385 0 0 0 0
19000001 -0.00389899207203667 0.00046497884493313974 0.34045412709101774 0.5302320948776548 0 0 0 0
20000001 -0.003441604510765003 0.00021714032246763357 0.3637668804396032 0.5538260103894699 0 0 0 0
21000001 -0.00312375840416879 1.328917942899591e-05 0.38818381956467823 0.5765566212224529 0 0 0 0
22000001 -0.002890016608738847 -0.0001245163776139779 0.41398794657143406 0.5984735567457166 0 0 0 0
23000001 -0.0023815110064116358 -0.00028150597917253817 0.44073261440590683 0.6203966434629351 0 0 0 0
24000001 -0.0025650276816846407 0.0004084444919099867 0.4692550733587661 0.6414215841982425 0 0 0 0
25000001 -0.0009604242497651928 -0.00038771061653291103 0.4983488205609233 0.6610080304831859 0 0 0 0
26000001 -0.00047049189229443546 -0.0001607120832404892 0.5285809750471481 0.6803229302428295 0 0 0 0
27000001 2.9033202341756443e-05 -0.00031757832741535595 0.5600312274356678 0.6982939088377967 0 0 0 0
28000001 0.0006909359511368026 -0.000600357028864946 0.5927559190333376 0.7154496704818618 0 0 0 0
29000001 0.0012482112527608812 -0.0006226530507727787 0.6267832750362056 0.7319897208233864 0 0 0 0
30000001 0.0020407482865116826 -0.0005651695124578931 0.6614761183377672 0.7475873958814875 0 0 0 0
31000001 0.0027936859466852 -0.000763748680710395 0.6975159031937572 0.7615940505136034 0 0 0 0
32000001 0.0034369619230187865 -0.0008508363597899068 0.7346739922769099 0.7753947002750549 0 0 0 0
33000001 0.004095337355535032 -0.0009252482820539684 0.7729300713945282 0.7875569366336378 0 0 0 0
34000001 0.004977137674711794 -0.0009873731543794603 0.8125181504227736 0.7984897852610607 0 0 0 0
35000001 0.005639503813350801 -0.0011781374267681205 0.8528638966069239 0.8089140692248967 0 0 0 0
36000001 0.006767145477483009 -0.0013230248654106428 0.8942163868626416 0.8165629673041576 0 0 0 0
37000001 0.007524319550676822 -0.0017083107370493898 0.9368404864057093 0.8229788378586526 0 0 0 0
38000001 0.008422759698508989 -0.0017949551716349068 0.9796823059407911 0.829039383567887 0 0 0 0
39000001 0.009438271178188221 -0.0018941895739409786 1.0236492353472457 0.8325821064526115 0 0 0 0
40000001 0.010735221591801954 -0.002523083060205068 1.068490308787109 0.8350633175175306 0 0 0 0
41000001 0.011802671759654609 -0.0027739478046436743 1.1146055464674272 0.8363243678033528 0 0 0 0
42000001 0.01275018280638897 -0.0030181512800810818 1.1606590305553388 0.8354096401793576 0 0 0 0
43000001 0.013879990044969141 -0.0033680958301512704 1.2078931195450755 0.8330850162385067 0 0 0 0
44000001 0.015255358953829554 -0.003710150856887955 1.2557300876332298 0.8282948032526921 0 0 0 0
45000001 0.01645654886972443 -0.004182573309927414 1.3044355283021145 0.8228553697098959 0 0 0 0
46000001 0.017736469079787258 -0.004441879818395065 1.35375613393815 0.8142372047466472 0 0 0 0
47000001 0.018979284119101953 -0.005239930843327382 1.4028441930733488 0.8051066625671287 0 0 0 0
48000001 0.020182076772045338 -0.005728861896376934 1.4530070929733132 0.7923294969763727 0 0 0 0
49000001 0.021946985831724608 -0.006168293481839763 1.5032212439106587 0.7793540516953754 0 0 0 0
50000001 0.02379152873388892 -0.006694726093471732 1.5528890332858485 0.7627138648926467 0 0 0 0
51000001 0.02501384459070137 -0.007574029035646658 1.6036444950780797 0.7451329032736694 0 0 0 0
52000001 0.026570238767242984 -0.008045673717864146 1.6540932992726871 0.7250627380469592 0 0 0 0
53000001 0.0280973027843867 -0.009036342115237588 1.7045857140316358 0.703248494995981 0 0 0 0
54000001 0.030036276375066805 -0.009851999425157961 1.7556500531043135 0.6788202957487913 0 0 0 0
55000001 0.03182375567439425 -0.010550345551420544 1.8057498843999962 0.6521610348016756 0 0 0 0
56000001 0.03374890963279217 -0.011788341902474844 1.855601637354464 0.6240516008908134 0 0 0 0
57000001 0.035590231461185236 -0.013017568597934523 1.9052403533187852 0.5929770986287243 0 0 0 0
58000001 0.03724231284533481 -0.01432415655066822 1.9543617956416086 0.5605152803223612 0 0 0 0
59000001 0.03922030373587715 -0.015833351426507845 2.0030740040632278 0.52518381320549 0 0 0 0
60000001 0.041219773700069455 -0.017466574496114846 2.050596022354254 0.4880923544641993 0 0 0 0
61000001 0.043488809341530245 -0.018947320667670818 2.097436836285898 0.4493422204329014 0 0 0 0
62000001 0.04552879988148256 -0.02079742664209163 2.144062439459516 0.4086686925492166 0 0 0 0
63000001 0.047495924983147385 -0.022553372986288206 2.1906364503140767 0.36527086944445025 0 0 0 0
64000001 0.049289485514832455 -0.024465199364071266 2.234587647905528 0.31843595799280194 0 0 0 0
65000001 0.05141120565874756 -0.02686205088653583 2.2795819442638714 0.2736643023967595 0 0 0 0
66000001 0.053508414924031 -0.028990253878062595 2.3230546483648116 0.22377861708994312 0 0 0 0
67000001 0.0556427220853445 -0.03169300909924925 2.3649146994168384 0.1727380111887987 0 0 0 0
68000001 0.057276923031404955 -0.034321824385418934 2.4063837452294767 0.1205603126848571 0 0 0 0
69000001 0.05945795701449781 -0.03692266944743225 2.44594889782092 0.06528746837680385 0 0 0 0
70000001 0.0613471194787814 -0.03982847103130091 2.485365364248426 0.008722481873675192 0 0 0 0
71000001 0.0630351555452281 -0.0429916689865548 2.5227965759338833 -0.050186262530700305 0 0 0 0
72000001 0.06458730058150305 -0.046594000261884025 2.559340487806673 -0.10946928096222266 0 0 0 0
73000001 0.06628210254715527 -0.049865223975332384 2.594189654451375 -0.1728438099526195 0 0 0 0
74000001 0.06788012064396895 -0.053517958567517586 2.6283949724120004 -0.23690183515276306 0 0 0 0
75000001 0.06927227265671604 -0.057287509319973215 2.66217048520948 -0.3036891262437645 0 0 0 0
76000001 0.07047912069583293 -0.061315238756469645 2.6937132833117188 -0.370971777937821 0 0 0 0
77000001 0.07138140538336664 -0.06543732536154725 2.723067524738011 -0.44260058847363004 0 0 0 0
78000001 0.07266288744614312 -0.06969270409568507 2.75085653451884 -0.5147032712097286 0 0 0 0
79000001 0.07341606568897327 -0.07429959544305696 2.77840857883756 -0.5906194972400581 0 0 0 0
80000001 0.07375547759319943 -0.07912702474537137 2.8052907648839436 -0.6674932487610359 0 0 0 0
81000001 0.07403468298948745 -0.08368802443351378 2.8280967881077506 -0.7474768595839834 0 0 0 0
82000001 0.07445341938453551 -0.08864037497819412 2.8480452091215733 -0.8296525944836273 0 0 0 0
83000001 0.07435996696488945 -0.09404483806215432 2.8676845343360484 -0.9118214534304461 0 0 0 0
84000001 0.07397384687061812 -0.09915033433315973 2.8843426302402784 -1.000376344405762 0 0 0 0
85000001 0.0734236625838803 -0.10390426555109179 2.8989778850743595 -1.0893328982289538 0 0 0 0
86000001 0.07213527306730132 -0.10886375018774598 2.907511132391281 -1.1809910046569374 0 0 0 0
87000001 0.07178348600929776 -0.11441620476109385 2.9206660933253676 -1.2768347730823888 0 0 0 0
88000001 0.06998987528034599 -0.1199447909750852 2.9256637563331935 -1.3739852371478987 0 0 0 0
89000001 0.06860731863426969 -0.12451875586938718 2.930231441875735 -1.472409270617951 0 0 0 0
90000001 0.06638294650714466 -0.12970268862134024 2.9289348339224537 -1.5743927737641092 0 0 0 0
91000001 0.06428391719599257 -0.13503753778865904 2.925947109714178 -1.6757141486628793 0 0 0 0
92000001 0.06182898367596562 -0.1401698716862631 2.9158313942532055 -1.783070412159093 0 0 0 0
93000001 0.05883007335648202 -0.1450814098548654 2.9030319773550906 -1.889512856798367 0 0 0 0
94000001 0.05591081941821117 -0.15012299691499906 2.8839657373098397 -1.9995926124819352 0 0 0 0
95000001 0.05243944380761973 -0.15506075746828096 2.8599370441610024 -2.11112429313419 0 0 0 0
96000001 0.048627832606306085 -0.16002249169488209 2.829671105946797 -2.224562286783623 0 0 0 0
97000001 0.04474763189645929 -0.1637679457606126 2.7964527686875806 -2.33669545981272 0 0 0 0
98000001 0.04032515010004928 -0.16791441580108216 2.754226232036846 -2.450583760821478 0 0 0 0
99000001 0.035878240977590806 -0.17205208026491317 2.709095589096944 -2.5639583240136767 0 0 0 0
100000001 0.03108704113648332 -0.17593450310596434 2.656245016403581 -2.679007263887136 0 0 0 0
