# HZ S RI R 50
1 0.7220187682854364 -1.055664911362958 0.004741698803676926 0.02051460456967106 0 0 0 0
1000001 -0.008053031076683233 0.0001686770768091522 -0.22038441099393144 -0.14525160543266938 0 0 0 0
2000001 -0.008157219779984508 0.0005464768699770636 -0.26718874990215724 -0.1830395831412985 0 0 0 0
3000001 -0.008293930941062665 -0.00013744327904782446 -0.2923231430309679 -0.23182800919159766 0 0 0 0
4000001 -0.008058918690238505 -9.390780558527963e-05 -0.3167714176821102 -0.2856828475636583 0 0 0 0
5000001 -0.007965602271613923 0.0005338362891175257 -0.3467553429015162 -0.3396860419902847 0 0 0 0
6000001 -0.007521766809549092 0.0003068201125198376 -0.3781983923143163 -0.3954086736414401 0 0 0 0
7000001 -0.0076846941391173875 0.0003147692717937847 -0.416504895354089 -0.448991619295196 0 0 0 0
8000001 -0.009926447919012454 0.000535592845859305 -0.4597579131157601 -0.5000141054638113 0 0 0 0
9000001 -0.007619076604261357 0.002674665677585846 -0.5081533718898629 -0.5491771072398375 0 0 0 0
10000001 -0.003943462498966861 0.0010582416258924942 -0.5624526385628555 -0.5941071147307043 0 0 0 0
11000001 -0.005755626313179175 0.0022192034141024857 -0.6198431119136881 -0.6380481426351634 0 0 0 0
12000001 -0.0048615849567208965 0.000322062161624226 -0.6814495999368252 -0.6762807722111529 0 0 0 0
13000001 -0.005765239420972177 0.0007919313043650491 -0.7481224415582166 -0.7116469062132964 0 0 0 0
14000001 -0.006012431364203949 0.0006864784509741224 -0.8190583824316959 -0.7428289438221162 0 0 0 0
15000001 -0.005695438978742618 0.0006248677724692441 -0.893757826286057 -0.768639521931555 0 0 0 0
16000001 -0.003552366283505664 0.0005432889363070185 -0.9714843137527225 -0.787442722869213 0 0 0 0
17000001 -0.005261819137983265 0.0005977219594228508 -1.0535502828581569 -0.8045195409646623 0 0 0 0
18000001 -0.0035049677537936116 0.0010265133691591344 -1.138259198169787 -0.8133655579581434 0 0 0 0
19000001 -0.004457209692135563 0.0005366088773856758 -1.2251556534458719 -0.818712475883758 0 0 0 0
20000001 -0.0037051148901897342 0.0006534451366691292 -1.3149152375844284 -0.816885936609587 0 0 0 0
21000001 -0.0036274641434097536 0.0006063501146234588 -1.406824091525781 -0.8105038500922598 0 0 0 0
22000001 -0.0012507531556137442 0.0007834307574755734 -1.5012514456041715 -0.79424882396645 0 0 0 0
23000001 -0.002450039679819383 0.0004465781017737837 -1.5969451658080651 -0.7768597919420482 0 0 0 0
24000001 -0.004996216805973761 -0.0028945938764211787 -1.6915200711371987 -0.754586641542855 0 0 0 0
25000001 -0.001153774134829022 0.0002760922834075961 -1.7895250620058518 -0.7153105359611106 0 0 0 0
26000001 -0.0004342819323805339 -0.0009201690565307996 -1.884135311788918 -0.6750870988144413 0 0 0 0
27000001 0.0005341500610612166 0.00026525768299919455 -1.9799482591193795 -0.6248809222914957 0 0 0 0
28000001 0.0010362531521770008 5.5792544334342666e-05 -2.0728106642594244 -0.5690526447522937 0 0 0 0
29000001 0.0018959116352438611 6.502622173720875e-05 -2.1658246204318887 -0.5059021254290306 0 0 0 0
30000001 0.0028289873984612074 -0.000307086631048785 -2.2555638814683765 -0.4372255610166418 0 0 0 0
31000001 0.003845448658952431 -0.00024113463415793433 -2.3441839436322605 -0.36073761733917786 0 0 0 0
32000001 0.005872112785730033 -0.0008860441390410385 -2.431639722804823 -0.2769824386853866 0 0 0 0
33000001 0.005634779702214478 -0.0009510920512427798 -2.5184533851773323 -0.18837644732451583 0 0 0 0
34000001 0.007349569053100736 -0.007491286095511424 -2.5956760948228514 -0.0977471947574066 0 0 0 0
35000001 0.0077451622979527466 -0.0019545994909430887 -2.684588476863356 0.01217950989246962 0 0 0 0
36000001 0.00875361586424928 -0.002239971138404069 -2.7625505945870676 0.12409321542542988 0 0 0 0
37000001 0.00978261748758859 -0.0030681519883651452 -2.835398704108454 0.24293772491137683 0 0 0 0
38000001 0.010932530436217827 -0.003896165034687253 -2.903975560916743 0.36562165214701414 0 0 0 0
39000001 0.012029021765203242 -0.004377976665106416 -2.9675298857954147 0.4979870005756999 0 0 0 0
40000001 0.013264984688148185 -0.005527881660785883 -3.0233166723485 0.6346920712235845 0 0 0 0
41000001 0.014485095558758453 -0.006257475390908642 -3.0762019972469945 0.7781016636690498 0 0 0 0
42000001 0.015213593806990174 -0.007340441509566108 -3.1199359764432812 0.9244652341576549 0 0 0 0
43000001 0.01645215837457783 -0.008438192193760945 -3.1564524742681264 1.0781172499691962 0 0 0 0
44000001 0.017543501689175813 -0.009710024218545771 -3.1847589481309213 1.2364141714934314 0 0 0 0
45000001 0.018463551091195844 -0.01097989194909654 -3.2067770336706127 1.3999094515169603 0 0 0 0
46000001 0.019445579203164514 -0.012209110142940134 -3.2175632834907715 1.5668885437511315 0 0 0 0
47000001 0.02042551144685183 -0.013946257920590148 -3.2231249112935743 1.7351174859561511 0 0 0 0
48000001 0.02105505275921051 -0.015282860381661012 -3.217450030613269 1.9111108037504159 0 0 0 0
49000001 0.021948654598352664 -0.016804037656798134 -3.2044089535087155 2.088273776362376 0 0 0 0
50000001 0.022552798687609427 -0.018500003271570753 -3.1802691664555227 2.2672321231457317 0 0 0 0
51000001 0.02302845415418156 -0.020204635576420157 -3.146747338861101 2.448989807892706 0 0 0 0
52000001 0.023217561975938696 -0.02185266431794443 -3.1042680454173652 2.630302376172019 0 0 0 0
53000001 0.02349468118684684 -0.023674433133470046 -3.0526867886671814 2.8166773165702854 0 0 0 0
54000001 0.02394178491296452 -0.025578193620895126 -2.9891404117002174 3.0038374613634073 0 0 0 0
55000001 0.023910030420129385 -0.027218589245775845 -2.9126648459425053 3.188399047606687 0 0 0 0
56000001 0.023835809568178316 -0.029005141585972522 -2.8290459219870603 3.375500449181327 0 0 0 0
57000001 0.023722769165873285 -0.030813496215423456 -2.728320705655824 3.5582675751635096 0 0 0 0
58000001 0.022980182443649112 -0.03242175319694054 -2.618697281431006 3.7426470032088535 0 0 0 0
59000001 0.02264891102960237 -0.034247286237381463 -2.49517644573171 3.9225222829897 0 0 0 0
60000001 0.021940085373850424 -0.03615429009684638 -2.3621933869127183 4.100179162686346 0 0 0 0
61000001 0.021291445314485787 -0.03732669637366392 -2.215242905657543 4.2720461786397825 0 0 0 0
62000001 0.020368950999873053 -0.03853961145670925 -2.0564301147629265 4.442399448751936 0 0 0 0
63000001 0.01955579912768531 -0.03997548975876353 -1.8861553892381517 4.606741929599784 0 0 0 0
64000001 0.01829917518879008 -0.04092402598399271 -1.6973016657321356 4.764905767803305 0 0 0 0
65000001 0.017180602134613608 -0.041918753968263466 -1.5055728497888679 4.915726656564457 0 0 0 0
66000001 0.01600639454594615 -0.04210021231385991 -1.2947092426494067 5.058737845790699 0 0 0 0
67000001 0.014905854596448966 -0.0430158623165463 -1.0738007846498356 5.189345718672596 0 0 0 0
68000001 0.01360087522675821 -0.04310880649152134 -0.83936662342482 5.3122116160957376 0 0 0 0
69000001 0.01259287889214402 -0.04311840732255538 -0.5945164260775655 5.4231445878976 0 0 0 0
70000001 0.01161528109015621 -0.04282370351652811 -0.33751809747214645 5.522626503351684 0 0 0 0
71000001 0.01046103494510464 -0.0424821478618575 -0.06977715892891359 5.6080564288189825 0 0 0 0
72000001 0.009578357594904026 -0.042016026420430584 0.2079739323571684 5.676190940925534 0 0 0 0
73000001 0.008712522943910526 -0.04078717135031301 0.49683105665404376 5.731146214351311 0 0 0 0
74000001 0.008398754268094128 -0.039669282652008926 0.7906023375509127 5.766474991055777 0 0 0 0
75000001 0.00788790345049106 -0.03870639648271801 1.0928959643703042 5.788466330176611 0 0 0 0
76000001 0.007857742246861324 -0.036859273748192575 1.39792625620957 5.788425101853491 0 0 0 0
77000001 0.007684892890946306 -0.0353900495939549 1.710301317482051 5.768168880931655 0 0 0 0
78000001 0.008397173968750683 -0.033658022755345754 2.0232783591222034 5.730029108582053 0 0 0 0
79000001 0.009762540846382294 -0.03201183463908122 2.3375122425607175 5.6706993853829335 0 0 0 0
80000001 0.011014325219567347 -0.029976699287524135 2.6488769186732006 5.594105623608815 0 0 0 0
81000001 0.013174379554134448 -0.02809355935770403 2.959320057737983 5.491859087329921 0 0 0 0
82000001 0.015126371204916316 -0.026088085696674444 3.262894581473111 5.370047560270734 0 0 0 0
83000001 0.017970535125039707 -0.02437866768914805 3.5586234588051284 5.229306312827313 0 0 0 0
84000001 0.020946230536915786 -0.023054028135415964 3.848943008280528 5.071175552732668 0 0 0 0
85000001 0.024593694138583252 -0.02175923965568741 4.125800452512003 4.894893352597441 0 0 0 0
86000001 0.028527485858584826 -0.02074374574105156 4.393745159590459 4.6986537539070135 0 0 0 0
87000001 0.0332059580130955 -0.02000630894404238 4.648155756401661 4.49152867148764 0 0 0 0
88000001 0.03830860097651809 -0.019757260275235552 4.890551737561694 4.268886228673683 0 0 0 0
89000001 0.043191142198959614 -0.020097569569549088 5.1176571941412465 4.037262660396835 0 0 0 0
90000001 0.04868021806864472 -0.02087607491903354 5.3336047119837815 3.787698714834378 0 0 0 0
91000001 0.05459693202678907 -0.022619216639082895 5.5309718641745516 3.534669897586573 0 0 0 0
92000001 0.060476783077560145 -0.02491255681339338 5.717515993845706 3.269351459801897 0 0 0 0
93000001 0.06630302168036725 -0.027578824352418742 5.892044201176959 3.0033789673387434 0 0 0 0
94000001 0.07217990654817279 -0.03135901725997212 6.055589403991594 2.7263151596404436 0 0 0 0
95000001 0.07812431314978159 -0.03605573700043082 6.198521247463123 2.4453560728923054 0 0 0 0
96000001 0.08393269215962132 -0.04119077057546055 6.336569956442649 2.160076704987423 0 0 0 0
97000001 0.0889907371328009 -0.0467749134212221 6.459762190331326 1.8715002494973687 0 0 0 0
98000001 0.09393863821958616 -0.05336445210581741 6.571944481916807 1.5744766700566484 0 0 0 0
99000001 0.09823926106827338 -0.06094146565571677 6.678901258703298 1.27938230506148 0 0 0 0
100000001 0.10252133053574822 -0.06865515632603715 6.773126933214711 0.9759861617839254 0 0 0 0
