# HZ S RI R 50
1 0.7878855191873668 0.153013105894734 -0.011353008685768093 0.0640126693520655 0 0 0 0
1000001 -0.008294546637609108 3.8756232571234325e-05 -1.1587770394311712 -0.12751756881419635 0 0 0 0
2000001 -0.008410466981132498 0.00044522509600836466 -1.0711155183610497 -0.1771997648187721 0 0 0 0
3000001 -0.008610010091905929 -0.0003436242482676477 -0.9900395453776262 -0.2657801304391185 0 0 0 0
4000001 -0.008186561182032176 -0.00015162578503696053 -0.9171708030150606 -0.37367587950942044 0 0 0 0
5000001 -0.007928101482742369 0.00017325127209560877 -0.8540063057603005 -0.49590109963539286 0 0 0 0
6000001 -0.007640337851414026 -0.0001689172565379615 -0.8003254169164674 -0.6312338012648047 0 0 0 0
7000001 -0.00775979309760428 -4.19054912374695e-05 -0.7741353946735914 -0.7582073198969275 0 0 0 0
8000001 -0.010070813696662588 -0.0003089947688140988 -0.7788684582205309 -0.8620926772607023 0 0 0 0
9000001 -0.007707870318476148 0.001817130410203765 -0.8227844083075146 -0.9287960776014688 0 0 0 0
10000001 -0.004461916874099703 -0.001100818623043111 -0.9001114582488304 -0.9398670493603839 0 0 0 0
11000001 -0.0064067780857539015 -8.442043875890881e-05 -0.9848903498611999 -0.9067626223340024 0 0 0 0
12000001 -0.006620479220738117 -0.0014043121717317263 -1.0792114154872932 -0.8302420392647426 0 0 0 0
13000001 -0.00625939251763792 -0.0010826060054538096 -1.1731523009744256 -0.7074819111304257 0 0 0 0
14000001 -0.005679961513422222 -0.0032881079315254364 -1.2394191476800802 -0.5583564667107481 0 0 0 0
15000001 -0.005880744833486888 -0.0030371270767716066 -1.2812786025421168 -0.392724674146477 0 0 0 0
16000001 -0.006102996044878547 -0.003374526458101348 -1.2743048639935657 -0.22062848573930344 0 0 0 0
17000001 -0.006308364622251101 -0.0029251233110835027 -1.2348099143218072 -0.05239727182036269 0 0 0 0
18000001 -0.005852663914189867 -0.0031402586308166445 -1.18376254147475 0.10670576929319858 0 0 0 0
19000001 -0.006016994179477277 -0.0032426590876226827 -1.1168571595496237 0.25272662128785484 0 0 0 0
20000001 -0.00572517422771776 -0.003563046167594866 -1.0330284736785673 0.38865282642920324 0 0 0 0
21000001 -0.006125636683597615 -0.003959175517501514 -0.941660502586122 0.5111258151990963 0 0 0 0
22000001 -0.006273750463573866 -0.004104651885533993 -0.8340298547023567 0.6287031041854729 0 0 0 0
23000001 -0.006043778882683266 -0.00444687931328677 -0.711204858259425 0.73515468648021 0 0 0 0
24000001 -0.006114478008444913 -0.004412412220909856 -0.572565770091142 0.8303787204399957 0 0 0 0
25000001 -0.006155134221197967 -0.004654256975081979 -0.42316918746625704 0.9009478472571266 0 0 0 0
26000001 -0.007176445956684836 -0.005258751184349232 -0.2774414210012486 0.9553757995786775 0 0 0 0
27000001 -0.0063267500288897004 -0.004658103542434674 -0.12809518792975752 0.9949926466151968 0 0 0 0
28000001 -0.006562910788439307 -0.004661430150397302 0.028553109101036263 1.0168602353662393 0 0 0 0
29000001 -0.006706916508497777 -0.004486136779217944 0.19236612193788122 1.0180984405166746 0 0 0 0
30000001 -0.0067061594224625135 -0.004277006223281445 0.3608627581067456 0.9993698669189185 0 0 0 0
31000001 -0.00691346719620316 -0.003977945254850462 0.5358437500708697 0.9582107215648896 0 0 0 0
32000001 -0.006725902797215705 -0.003726489325772461 0.6985421863012871 0.8892630770824251 0 0 0 0
33000001 -0.006763139592514164 -0.0031294036463252956 0.8516205286925717 0.8002054043409573 0 0 0 0
34000001 -0.00667512233685296 -0.0027232074083822287 1.005668609999002 0.6950247141671508 0 0 0 0
35000001 -0.006560390867187382 -0.0023561005241460715 1.1569982203800602 0.5735552150033746 0 0 0 0
36000001 -0.006076782246432929 -0.0018120955465735298 1.3040959088149193 0.434679901103602 0 0 0 0
37000001 -0.0061669883942231975 -0.001213580413044675 1.4568032676656621 0.27855132324332393 0 0 0 0
38000001 -0.005549929483360351 -0.0006445017952223297 1.6018772065120452 0.10292886389811595 0 0 0 0
39000001 -0.005210394443305022 0.0002332247334762314 1.7291648493665157 -0.07082933909164252 0 0 0 0
40000001 -0.00473660605944457 0.0009099732661588471 1.8289939692450685 -0.24424071021599741 0 0 0 0
41000001 -0.0038966056900410963 0.002106081892765508 1.9056555117588971 -0.41081011004313045 0 0 0 0
42000001 -0.0033495883545076504 0.0027247321806722373 1.9551568887957242 -0.5663675239217824 0 0 0 0
43000001 -0.002445327192772847 0.003707112801531644 1.9784753256468437 -0.7135236173711217 0 0 0 0
44000001 -0.0012871621734864471 0.004768371629246753 1.9676200342416101 -0.8487445940012263 0 0 0 0
45000001 -0.00018285352393444918 0.005808550498935609 1.9266513218768593 -0.9735816791518572 0 0 0 0
46000001 0.001371776950368556 0.006924529726966701 1.8691157488735348 -1.0937680100230252 0 0 0 0
47000001 0.003031657986978329 0.007523604929853106 1.8042296879187352 -1.1991589259870106 0 0 0 0
48000001 0.004770044177428284 0.008881221564687928 1.7297692589124198 -1.3023428283217966 0 0 0 0
49000001 0.006946509763412687 0.009876421825350177 1.63979364942371 -1.400857632630375 0 0 0 0
50000001 0.009271535665357466 0.010629804220171781 1.5371822568740103 -1.4905628513760505 0 0 0 0
51000001 0.01160990766500724 0.011438136429233105 1.4236816867565723 -1.5689085408296024 0 0 0 0
52000001 0.014134887750381572 0.012067572442046669 1.2952049606555476 -1.6402740444804702 0 0 0 0
53000001 0.017137340441839035 0.012365504041289112 1.15713443932438 -1.7056342519080454 0 0 0 0
54000001 0.020329261375461257 0.012862027449751262 1.0088236592673674 -1.7662608997610736 0 0 0 0
55000001 0.023877673469544926 0.012928730846409145 0.8441658416714335 -1.8090118955055372 0 0 0 0
56000001 0.028191438289905925 0.012971064941274172 0.6691451702541835 -1.8170348343951106 0 0 0 0
57000001 0.034267463861326515 0.02000947665813032 0.4732710083513869 -1.7910959786718066 0 0 0 0
58000001 0.0350260624571959 0.011571508630813415 0.2823083403270738 -1.7303262344668844 0 0 0 0
59000001 0.038977635812579195 0.010154528839766272 0.07924220955645124 -1.6325206902926221 0 0 0 0
60000001 0.042933844364029104 0.008388199772038567 -0.12420968692979699 -1.4978685249106143 0 0 0 0
61000001 0.046741175955927125 0.00640306602513509 -0.31582726942208744 -1.3334637962127056 0 0 0 0
62000001 0.050934478170997936 0.0038882169167241756 -0.49561690351405374 -1.1588678036907467 0 0 0 0
63000001 0.05491374059465683 0.0009943990608410516 -0.6402441679609097 -0.9936330466662974 0 0 0 0
64000001 0.05881237186887433 -0.002275042604482348 -0.7431099481473434 -0.8069007285737155 0 0 0 0
65000001 0.06258331253207948 -0.006313080313851109 -0.7765874992903635 -0.6231875698978451 0 0 0 0
66000001 0.06587069866982459 -0.010476848543775912 -0.7803890217112461 -0.38432452894472957 0 0 0 0
67000001 0.06702033007787724 -0.015295926907425268 -0.7489814861661478 -0.1356972621545499 0 0 0 0
68000001 0.07378585310871369 -0.021198531746458565 -0.6632527351629169 0.025105194358006257 0 0 0 0
69000001 0.0730477691103085 -0.026340185616316018 -0.48241490153718225 0.10844277056028417 0 0 0 0
70000001 0.07450792499849236 -0.03195619246844155 -0.24098762039294042 0.1403456295452351 0 0 0 0
71000001 0.07527345445389162 -0.03774432895887489 0.010570603863805393 0.13643222733319924 0 0 0 0
72000001 0.07546250537209201 -0.044025207629389454 0.24725736027147327 0.09697872831414842 0 0 0 0
73000001 0.07499916042564403 -0.04945493943013708 0.4838180686648592 0.009584689870985624 0 0 0 0
74000001 0.07418145141935625 -0.0549740468012596 0.7316991890676797 -0.14322091577284354 0 0 0 0
75000001 0.0726653943347624 -0.06085634088330232 1.0064391312652323 -0.39055801280827546 0 0 0 0
76000001 0.07018674533152827 -0.06584822961889233 1.2547363925270585 -0.7199203618483684 0 0 0 0
77000001 0.06771551969231979 -0.07086871763255978 1.4291838488868962 -1.0639107567178183 0 0 0 0
78000001 0.06490917402942281 -0.07498474062200154 1.5524891753582135 -1.3942799733096451 0 0 0 0
79000001 0.06174827285145425 -0.07945490022200143 1.6318091552450822 -1.7016408043621716 0 0 0 0
80000001 0.059583903874038065 -0.08404172711376146 1.7039080591389573 -1.993871783447094 0 0 0 0
81000001 0.053756134743259944 -0.08572716878078218 1.7387129106783523 -2.257218207950853 0 0 0 0
82000001 0.049564997570429585 -0.08801982154503048 1.753488413875512 -2.494567269154862 0 0 0 0
83000001 0.0460410042935214 -0.08613901218496602 1.7877638286542339 -2.6929802979673187 0 0 0 0
84000001 0.04104478029727509 -0.08833069365923396 1.9814983248184246 -3.141258113863837 0 0 0 0
85000001 0.03739876383127019 -0.09015966623933458 2.1149509994755507 -3.786559087563069 0 0 0 0
86000001 0.036982422318569526 -0.07912435825303478 2.0756478605493305 -4.436528209068052 0 0 0 0
87000001 0.031210416619202614 -0.08798255273437028 1.932811756206919 -5.053024149626312 0 0 0 0
88000001 0.02853585451082203 -0.08636446311811856 1.6219183220645212 -5.632506567960537 0 0 0 0
89000001 0.02721502184824663 -0.08409037587092462 1.2090612877164082 -6.128489408392147 0 0 0 0
90000001 0.026354261865087717 -0.08181929788090052 0.7353660665049933 -6.520608638343755 0 0 0 0
91000001 0.026011877759892 -0.07951955679425476 0.22848838390503295 -6.866919825970827 0 0 0 0
92000001 0.026608917031686316 -0.0773369578972103 -0.3168229446566595 -7.113023244237032 0 0 0 0
93000001 0.027818519242211945 -0.07531535047425349 -0.86186274091403 -7.282945303077715 0 0 0 0
94000001 0.029880957076111245 -0.07373223238793201 -1.4100509662802216 -7.390505529158029 0 0 0 0
95000001 0.032238408242428525 -0.07244335021725971 -1.9603899461979817 -7.433722700680467 0 0 0 0
96000001 0.0357117610716294 -0.07166609797138192 -2.495420892973329 -7.432346120944077 0 0 0 0
97000001 0.03968289313104286 -0.07096668133122183 -3.0109585776884686 -7.386570058409602 0 0 0 0
98000001 0.04368075789218111 -0.07200608217795128 -3.5143290760120403 -7.2982019255020765 0 0 0 0
99000001 0.048033641156968766 -0.0734866005880931 -3.9980092333138546 -7.181547100079508 0 0 0 0
100000001 0.05244664292246502 -0.07601249378572231 -4.463713770574256 -7.027593168974027 0 0 0 0
