# HZ S RI R 50
1 0.9257209432745391 0.102866024599415 0.007083923146414509 0.017273082198258075 0 0 0 0
1000001 -0.00812661784304432 -7.08111305016816e-05 -0.8151465834020866 -0.4214646881986204 0 0 0 0
2000001 0.023246857168908404 -0.012385889077940448 -0.9660916062896593 -0.3474105864490256 0 0 0 0
3000001 -0.008277947083710945 0.00025878340288297465 -1.0269336312329453 -0.37273803227928853 0 0 0 0
4000001 -0.00790878724068048 0.0002383584890647161 -1.0674169088507293 -0.40756709649995837 0 0 0 0
5000001 -0.02069736532614078 -0.005432002077090814 -1.1122664794989494 -0.4579420302298655 0 0 0 0
6000001 -0.010395054661060492 -0.011623973307888969 -1.1591857188240977 -0.5032506447847017 0 0 0 0
7000001 -0.00794243118560607 0.0009178436601818111 -1.2313125389320307 -0.5472368044966807 0 0 0 0
8000001 -0.009983554432165635 0.0009568032700044921 -1.3050665871936304 -0.5881931948361518 0 0 0 0
9000001 -0.007514586663267724 0.003219672832345876 -1.387018720400682 -0.6215598752109488 0 0 0 0
10000001 -0.005432886708760315 0.0009372592007513689 -1.4797156296037532 -0.64374922994172 0 0 0 0
11000001 -0.006399270329476447 0.002105897726194531 -1.5794005421131734 -0.6573218066673863 0 0 0 0
12000001 -0.006816893201609899 0.0011035849454492568 -1.6853722861301588 -0.65876909878114 0 0 0 0
13000001 -0.006330745593487112 0.0012451747800751168 -1.796461262058134 -0.6437221080134741 0 0 0 0
14000001 -0.0062303980755917185 0.0015099528914663438 -1.9081165691141464 -0.6113219085734374 0 0 0 0
15000001 -0.005770272026346104 0.0012567016083953819 -2.0259695949697685 -0.5678634623663852 0 0 0 0
16000001 -0.005114425032605129 0.0016597881535744161 -2.1314876490993737 -0.49861168269380063 0 0 0 0
17000001 -0.002858529320448197 -0.0008953280494493345 -2.2441529594078444 -0.42149881543323375 0 0 0 0
18000001 -0.010497195621526666 -0.003687515468221019 -2.3368638398356882 -0.32415564751944803 0 0 0 0
19000001 -0.0014306575386393166 -0.0022634080679710643 -2.4161764358797857 -0.19302665952292178 0 0 0 0
20000001 -0.002783609524348847 0.002107671131051075 -2.5068712529373673 -0.06967608960606546 0 0 0 0
21000001 -0.0033482965078999887 0.0017920607950233436 -2.5751076419363237 0.06401491331639697 0 0 0 0
22000001 -0.002571053911255333 -0.0011740938120649454 -2.618569787926622 0.2083818592550385 0 0 0 0
23000001 -9.596290497439887e-05 -0.0007100258148877303 -2.670131017109845 0.35337236219747586 0 0 0 0
24000001 -3.6372965304601996e-05 -0.0018532086725691322 -2.70500865917745 0.507137785283905 0 0 0 0
25000001 -0.0007428445432054011 0.0021165646415146895 -2.710696860495111 0.6854856521164502 0 0 0 0
26000001 0.0006669542566498691 0.0014509872445967566 -2.650490472762384 0.876084366066734 0 0 0 0
27000001 0.0008848996611963421 0.002201656626989524 -2.54323868999994 1.0689974056133238 0 0 0 0
28000001 0.001765846015576876 0.001943861558271658 -2.412308719886142 1.2484986620068115 0 0 0 0
29000001 0.0027884018692103997 0.0019991452509456813 -2.2654209895635025 1.4089217900631332 0 0 0 0
30000001 0.003753139044526369 0.0019004780362548465 -2.0925382570873405 1.5429894374043966 0 0 0 0
31000001 0.00491966780949034 0.0016917703880635342 -1.9197323027935436 1.642446328832515 0 0 0 0
32000001 0.00474713762548987 -0.0017378163491473851 -1.7303494156248906 1.711228602494124 0 0 0 0
33000001 0.007095686579636685 0.0013267572425778769 -1.5162268897895597 1.7708155950544382 0 0 0 0
34000001 0.008372837331268604 0.0009023599232928721 -1.3071428728597587 1.8091185197279387 0 0 0 0
35000001 0.009345422649252007 0.0005458981026057978 -1.133745914176461 1.8407711315875548 0 0 0 0
36000001 0.01074380590607611 -1.6596234505272444e-05 -1.0062415683666945 1.8637630214744505 0 0 0 0
37000001 0.011997717711668658 -0.0008021271018884566 -0.911587068950883 1.8819266523534695 0 0 0 0
38000001 0.013314923166345114 -0.0013256236167411648 -0.8469783981792204 1.9030897129588797 0 0 0 0
39000001 0.014631101229565452 -0.0022184324284183453 -0.7742718171884438 1.9256877995946866 0 0 0 0
40000001 0.016276981205340695 -0.003299565269632722 -0.6939797354909546 1.9548082267597031 0 0 0 0
41000001 0.017781058410464352 -0.004078379879468912 -0.6325551038037757 2.0020449051128844 0 0 0 0
42000001 0.019012337551995998 -0.005316830171888111 -0.5814396859408552 2.0606745788880607 0 0 0 0
43000001 0.020088880166625616 -0.0065603034468909 -0.5564024628745822 2.1471414233750887 0 0 0 0
44000001 0.02166514935370316 -0.008218724726565839 -0.5506935554480561 2.2677698964296362 0 0 0 0
45000001 0.022624822026287798 -0.009642515708666788 -0.49838089827201265 2.370915755506289 0 0 0 0
46000001 0.024152126555696388 -0.011026737558002484 -0.4276075764312964 2.464752139256094 0 0 0 0
47000001 0.025143128164219385 -0.01311966720646607 -0.3400875754119671 2.536736020080641 0 0 0 0
48000001 0.025872512459928693 -0.014842396478233091 -0.2578635442615371 2.6169586077486504 0 0 0 0
49000001 0.02702267961084807 -0.016745791018347136 -0.16225183326841586 2.6897572521976283 0 0 0 0
50000001 0.028158354595323842 -0.01856601286634715 -0.06518977394956402 2.754603253436424 0 0 0 0
51000001 0.02873020764041204 -0.020919348199702804 0.03968262330432329 2.8175631397747676 0 0 0 0
52000001 0.02898914227605258 -0.022933803394457223 0.1444511355807299 2.8787502621947154 0 0 0 0
53000001 0.029515475816721856 -0.025447452567271798 0.2550315621358008 2.938656070560049 0 0 0 0
54000001 0.029720182968847614 -0.02751393781821598 0.380929199309566 2.98172131229312 0 0 0 0
55000001 0.030058164333445457 -0.03000915376506202 0.5079807519179329 3.036356868947756 0 0 0 0
56000001 0.029866563814747355 -0.032295454456833454 0.6376140143920145 3.1117591102485287 0 0 0 0
57000001 0.029626557461681673 -0.03484305107342928 0.7724777058636673 3.185205453432077 0 0 0 0
58000001 0.028916007490172747 -0.03729395894620077 0.9144661192485611 3.261292351032202 0 0 0 0
59000001 0.028109727769527613 -0.03988171583331273 1.0654954067266373 3.3273769314874064 0 0 0 0
60000001 0.027195646671296647 -0.04217961564688633 1.2217285643141627 3.367780431537951 0 0 0 0
61000001 0.026095223313861902 -0.044208457876319475 1.3839303492073591 3.3932380428417943 0 0 0 0
62000001 0.024767053936285702 -0.04661467247345848 1.5473508602935098 3.39818225327114 0 0 0 0
63000001 0.023366003695934334 -0.04840361952538594 1.7078689285168567 3.4069021685280823 0 0 0 0
64000001 0.021283508988287424 -0.05008073974503515 1.829323924563184 3.3841092367381886 0 0 0 0
65000001 0.019359359201003803 -0.05156394318188496 2.035352056051998 3.3831093544049993 0 0 0 0
66000001 0.017574264520974475 -0.05260235723432564 2.1988017139646328 3.3716599464784482 0 0 0 0
67000001 0.015363356143576838 -0.053780043376521425 2.362738667814684 3.347000276803332 0 0 0 0
68000001 0.012957941342318582 -0.054905412582069664 2.538957083869596 3.3539791102168777 0 0 0 0
69000001 0.010941553986095255 -0.05514510552954321 2.7367113567473145 3.3618899691347206 0 0 0 0
70000001 0.008621057263750835 -0.055313178804498465 2.956790106776457 3.3634256040058403 0 0 0 0
71000001 0.006261270277056826 -0.05536173689487669 3.203189655024783 3.342050425059653 0 0 0 0
72000001 0.0038319456449086003 -0.054838905336773165 3.4636200457880055 3.293053162053575 0 0 0 0
73000001 0.0016541052597552454 -0.05390683283332859 3.715855760701515 3.207311863243304 0 0 0 0
74000001 -0.00047401705000844473 -0.05260661613990296 3.9209438954942946 3.0603528637563198 0 0 0 0
75000001 -0.0029645267665498395 -0.051236498897463255 4.088880228117906 2.8698487344888415 0 0 0 0
76000001 -0.004332254895604771 -0.048955698866776295 4.2342190449862445 2.65882793265928 0 0 0 0
77000001 -0.006327963465733386 -0.04685639583970898 4.379731241212669 2.437417309929521 0 0 0 0
78000001 -0.007358603664639894 -0.04402042148945863 4.574784402756425 2.2353919101401685 0 0 0 0
79000001 -0.008149576609577857 -0.04118691736337672 4.817730246555919 1.9950762859435274 0 0 0 0
80000001 -0.008329804789964236 -0.03777971782319535 5.02907543200982 1.6797238249895943 0 0 0 0
81000001 -0.008060610348958613 -0.03424417002661251 5.139672620450596 1.2741186720756377 0 0 0 0
82000001 -0.007335324091920567 -0.030538741996453646 5.164833317664472 0.8221358866353565 0 0 0 0
83000001 -0.006015666969318127 -0.026838974955150932 5.124619239604228 0.35407346812570073 0 0 0 0
84000001 -0.004427966363831085 -0.023248420265520375 5.023591873319603 -0.11485062543646042 0 0 0 0
85000001 -0.001961688070464856 -0.019165013950380665 4.860683273664152 -0.5907230564355883 0 0 0 0
86000001 0.0014082897899094827 -0.015635265845386104 4.693601720363633 -1.0660291064950038 0 0 0 0
87000001 0.0053820914702624205 -0.012068773258714312 4.474424005705211 -1.5384314620408046 0 0 0 0
88000001 0.00991436258257446 -0.008822680271158113 4.246034510928716 -2.016327502283238 0 0 0 0
89000001 0.014880029761974172 -0.005957727385706304 3.987906359576344 -2.4814646772621263 0 0 0 0
90000001 0.020809665546710324 -0.0031074537969366547 3.6901714319561876 -2.930810375152059 0 0 0 0
91000001 0.027269226743877654 -0.0012398711899200597 3.396221350626816 -3.365485111272273 0 0 0 0
92000001 0.034313412210374684 -0.0001272734276609205 3.055789083256737 -3.7895450562501356 0 0 0 0
93000001 0.04167875990719847 0.0005727472181474936 2.6868469373106025 -4.160883522844838 0 0 0 0
94000001 0.05002435129763228 0.0005312465983492372 2.3224189181539145 -4.501524230603149 0 0 0 0
95000001 0.05865550487382609 -0.0009909390499221245 1.9536847758164737 -4.7905891648061045 0 0 0 0
96000001 0.06733444285168151 -0.0036007245173797662 1.6049892439224382 -5.061117024167519 0 0 0 0
97000001 0.07557729134209139 -0.0063655041392661075 1.240492075031275 -5.30917667488249 0 0 0 0
98000001 0.08428305543194682 -0.009947613417207514 0.8982948547183365 -5.557855171584679 0 0 0 0
99000001 0.09289345928357502 -0.01477074188640172 0.5677844485743495 -5.777515948212658 0 0 0 0
100000001 0.10213896190803219 -0.0212013564478918 0.3183075843411215 -6.109143362475647 0 0 0 0
