# HZ S RI R 50
1 -0.9060874915242405 0.649749511993021 -0.01636455485559261 -0.03799122296527391 0 0 0 0
1000001 -0.007717930018393867 -8.366398609368685e-05 0.06310699474893823 -0.06638001910115796 0 0 0 0
2000001 -0.007438056207072466 0.0005058989198272196 0.06970190417354659 -0.23345463339192163 0 0 0 0
3000001 -0.007187843519405772 0.0015345721420014606 0.004234594397373128 -0.39791968107894665 0 0 0 0
4000001 -0.007345332666230854 0.0016201277323133149 -0.11500916915722467 -0.5428533174597557 0 0 0 0
5000001 0.0016886300949044248 -0.00196962256505157 -0.27982566674694864 -0.655135577414664 0 0 0 0
6000001 -0.002645340481797213 0.003409706533655403 -0.4795199349973653 -0.7201012053160487 0 0 0 0
7000001 -0.006493880980076356 0.0020523799004317873 -0.6972819824302959 -0.7307097164792059 0 0 0 0
8000001 -0.004529684939807097 0.007116164889910475 -0.9217384313024821 -0.6842016288692989 0 0 0 0
9000001 -0.006372561981932669 -0.004485302541410793 -1.1259684733555435 -0.5909508952568848 0 0 0 0
10000001 -0.0059425819559487374 0.0014484354742060966 -1.3118218631812049 -0.4439237496586435 0 0 0 0
11000001 -0.004378220873113837 0.002705414599308584 -1.4696614972319366 -0.2588232998881312 0 0 0 0
12000001 -0.003198413753796186 0.0014732713662247003 -1.5845211876197358 -0.057230902971052364 0 0 0 0
13000001 -0.004978444623820154 0.0005105787177504214 -1.6630307021093471 0.17348144480926525 0 0 0 0
14000001 -0.0058387837015770215 0.0031020282825771645 -1.6992426089724457 0.42026044226315934 0 0 0 0
15000001 -0.008061227086196499 0.0036614236351809057 -1.6955051035545354 0.6616475838308772 0 0 0 0
16000001 -0.005655121949149577 0.004691995456955432 -1.6499047094435562 0.90112583229715 0 0 0 0
17000001 -0.006731894765891602 0.005433188105639461 -1.5690015966378221 1.1356601478567412 0 0 0 0
18000001 -0.006533905895712556 0.005909991798111835 -1.4537446122255349 1.3692414349357467 0 0 0 0
19000001 -0.006499438477525703 0.006848850639991585 -1.2936031365026404 1.58919611715381 0 0 0 0
20000001 -0.006391933275760561 0.007942923985136898 -1.1009192929343665 1.7835075133649965 0 0 0 0
21000001 -0.006368406712648482 0.00877449032379365 -0.8868226716151024 1.940657713201104 0 0 0 0
22000001 -0.006414904084306827 0.009976339622103814 -0.6673217674679505 2.0615124803632203 0 0 0 0
23000001 -0.007947421792841153 0.008160776079330178 -0.440874768517149 2.1539737655419127 0 0 0 0
24000001 -0.0068662537895916725 0.012646396470109721 -0.19744994184269973 2.2106681696317105 0 0 0 0
25000001 -0.004898237852266119 0.014202614636138323 0.04949204675299752 2.2596471864114336 0 0 0 0
26000001 -0.005368795826332204 0.013780928547809476 0.30153240182146074 2.2799888955832306 0 0 0 0
27000001 -0.0032545402474746725 0.01729333959836456 0.5659840117692334 2.262037379705936 0 0 0 0
28000001 -0.0020231503801070804 0.01931597641570824 0.8321762002462528 2.208647180855562 0 0 0 0
29000001 -0.000694867516939356 0.021236731930185875 1.0930956703828927 2.125121090172536 0 0 0 0
30000001 0.0011990818719306098 0.02328052151670089 1.342515041439252 2.0061284478677663 0 0 0 0
31000001 0.0030709732384259017 0.024865638751196514 1.2429381578902468 1.3850649507232304 0 0 0 0
32000001 0.0034834858336063117 0.02667793837797828 1.1500383883127183 1.0464656320878656 0 0 0 0
33000001 0.008434045440193905 0.028934111704693004 1.2475253800311263 0.8909557320755035 0 0 0 0
34000001 0.011560784361227736 0.030943607190452863 1.3480260202760532 0.7768470053474472 0 0 0 0
35000001 0.015472329363680917 0.03255277892011596 1.4007640476353274 0.6655827359529419 0 0 0 0
36000001 0.01977749829666292 0.03408127968344816 1.4620910473839046 0.4286786709975902 0 0 0 0
37000001 0.024632996299396633 0.035017833179884945 1.3608630164002191 0.1020578733159118 0 0 0 0
38000001 0.029739163225934506 0.03583519618976776 1.2798722730532746 0.023907562946279146 0 0 0 0
39000001 0.035829051739464796 0.03533479197875409 1.197505586239014 -0.18465054561815897 0 0 0 0
40000001 0.041500313154736714 0.034645191793391775 1.175196142989883 -0.36339086149874894 0 0 0 0
41000001 0.04767534696160587 0.033271287990466185 1.1049489488721398 -0.5225639938517878 0 0 0 0
42000001 0.05374537415910599 0.031049886596707474 1.0325364256456506 -0.6674879431363643 0 0 0 0
43000001 0.060059146265211465 0.028133833995225573 0.9466794677558935 -0.7897652835435587 0 0 0 0
44000001 0.06623151326786562 0.024018967525202422 0.8216429585705994 -0.8980526101149073 0 0 0 0
45000001 0.07274481829336873 0.01937622008205691 0.6554761811987976 -1.0103175992714561 0 0 0 0
46000001 0.07846221466112108 0.013526889045754754 0.45604344658681506 -1.1489719206316937 0 0 0 0
47000001 0.08382766854551953 0.0072089547693037735 0.21281238297399813 -1.1746314130292375 0 0 0 0
48000001 0.08843807930301727 -9.252742219383301e-05 -0.01224120561912554 -1.142378978540503 0 0 0 0
49000001 0.09268846762166694 -0.008487893598639395 -0.17775277738708598 -1.1885358376806059 0 0 0 0
50000001 0.09550922527533161 -0.017834376330911752 -0.34483793101168403 -1.1883632991785538 0 0 0 0
51000001 0.09746436592514869 -0.027228695145090485 -0.5070446004943421 -1.1083174441221209 0 0 0 0
52000001 0.09817747816001653 -0.03690210637776516 -0.6278767308081148 -1.044362215743836 0 0 0 0
53000001 0.09743555811552558 -0.04679430561801546 -0.7123818987530007 -0.9846077509913808 0 0 0 0
54000001 0.09550810973686133 -0.05681859162247959 -0.8483249491456399 -0.8101588302033779 0 0 0 0
55000001 0.0925509449063863 -0.06662868925418869 -0.8795518050841089 -0.6594806159974977 0 0 0 0
56000001 0.08797528667934444 -0.07560609137276632 -1.037045947428857 -0.5440120040159248 0 0 0 0
57000001 0.08258632873071559 -0.0840440406914877 -1.0966952765598674 -0.4602774614796714 0 0 0 0
58000001 0.07630184098732805 -0.09154262388951072 -1.1706500686651218 -0.5736822004863512 0 0 0 0
59000001 0.06905557060601387 -0.0981749230055793 -1.0824134552934523 -0.3978921169416803 0 0 0 0
60000001 0.06095206755086693 -0.10381028994699844 -1.2115885011776673 -0.4446672707520686 0 0 0 0
61000001 0.053186283224480074 -0.10788574495489511 -1.3203962379455856 -0.5115417957872389 0 0 0 0
62000001 0.04472242754870089 -0.11122148207931973 -1.312575429755894 -0.6750213975101642 0 0 0 0
63000001 0.03646449381147843 -0.11333814935281951 -1.3974024114113555 -0.7253775595305925 0 0 0 0
64000001 0.02749420287380003 -0.11393362800535993 -1.4864531316987541 -0.6548633317907726 0 0 0 0
65000001 0.01950309715616903 -0.11390742914369387 -1.5757341194332346 -0.5950341051444504 0 0 0 0
66000001 0.012218460761833147 -0.1127557181455409 -1.6776128834729764 -0.5251258012449023 0 0 0 0
67000001 0.005229638904450939 -0.11112256784761503 -1.8408975780728325 -0.4408580619980986 0 0 0 0
68000001 -0.0007761195740409768 -0.10880500280896595 -2.083698516721147 -0.3006107152142027 0 0 0 0
69000001 -0.005757680222687259 -0.10678595253129151 -2.424475301585581 -0.012654151980200423 0 0 0 0
70000001 -0.009846673776265422 -0.10487874233006429 -2.7770240588608788 0.6022228866217402 0 0 0 0
71000001 -0.013885449558775652 -0.10440342231726127 -2.7214799349766596 1.6665375931483515 0 0 0 0
72000001 -0.019908809811867934 -0.1038015798867295 -1.7883993966395528 2.5404062219532135 0 0 0 0
73000001 -0.026866230871666216 -0.10033113397394451 -0.6994233957260274 2.4995970097712106 0 0 0 0
74000001 -0.03179270941981757 -0.09570643483425167 -0.1307123532444593 2.0790591413305926 0 0 0 0
75000001 -0.035063684386109094 -0.09088184721481762 0.09491190198798997 1.7165214839690166 0 0 0 0
76000001 -0.03729890003234319 -0.08658054043245034 0.20250233497479658 1.475043802186449 0 0 0 0
77000001 -0.039153059337609444 -0.08240938406852295 0.26918334558319923 1.3048237813022106 0 0 0 0
78000001 -0.04059269143607394 -0.07827615076239729 0.3234148630898388 1.1856615739970418 0 0 0 0
79000001 -0.04152104681175614 -0.07528645861594248 0.38160178199075306 1.0906757454922813 0 0 0 0
80000001 -0.04182129142707885 -0.0718118260861651 0.4438350557257925 1.0072299826842048 0 0 0 0
81000001 -0.042038594770534225 -0.06881833061365134 0.5061956138834589 0.9231337124966167 0 0 0 0
82000001 -0.04197267404318609 -0.06656841138078286 0.5652087438479321 0.8394282580644478 0 0 0 0
83000001 -0.04196368951775717 -0.06392463787563846 0.621028092734814 0.7535542428232129 0 0 0 0
84000001 -0.041774737797880566 -0.06190451539117353 0.6718671359256327 0.6583063711471675 0 0 0 0
85000001 -0.04192384778357395 -0.06008696269730553 0.7078665475172629 0.555369844363561 0 0 0 0
86000001 -0.041702109292412706 -0.058602448808555044 0.7290836637495682 0.45157694445965507 0 0 0 0
87000001 -0.0415293872475852 -0.05715180421503844 0.7355382980019318 0.349860069432737 0 0 0 0
88000001 -0.04125393614780282 -0.0556593880039832 0.7303565009655617 0.25074996926001547 0 0 0 0
89000001 -0.04073608749321392 -0.05482447046600768 0.7088242412904783 0.15190412563244254 0 0 0 0
90000001 -0.04109903826700162 -0.053577876719160006 0.6697991429914902 0.06103908440321845 0 0 0 0
91000001 -0.04148695979342011 -0.05220760843182805 0.6168405156620468 -0.019922339205936012 0 0 0 0
92000001 -0.041006963588922196 -0.051417840531016994 0.5473734398020383 -0.08197217817060055 0 0 0 0
93000001 -0.041149073289509855 -0.05052719672038722 0.47204298614446977 -0.12318637262974909 0 0 0 0
94000001 -0.041365744448946966 -0.049467680719494575 0.3975186860305042 -0.14036817009941696 0 0 0 0
95000001 -0.041411421094941225 -0.04883513305094374 0.338754691306717 -0.13363014300086765 0 0 0 0
96000001 -0.041744863964064946 -0.04775175276648258 0.2989483883722562 -0.11288657895035743 0 0 0 0
97000001 -0.04178974022913062 -0.04697048369396981 0.2890665333989523 -0.09799705896495467 0 0 0 0
98000001 -0.04184070315109062 -0.04592520745087092 0.29297956414092313 -0.09810406402509941 0 0 0 0
99000001 -0.041821943207720425 -0.044924118597756316 0.3004843942880598 -0.11736012630707922 0 0 0 0
100000001 -0.041675900722999856 -0.04411003841402337 0.3048761730848508 -0.1561743549550416 0 0 0 0
