# HZ S RI R 50
1 0.8423114623905282 0.06472701380415755 -0.0018047695292049532 0.00025929304798511963 0 0 0 0
1000001 -0.0076850774006150206 0.00011509270643041719 0.8399408508562737 -1.4433202605807247 0 0 0 0
2000001 -0.00827707485675975 0.0009705799126614054 -0.8665003914798051 -3.3659752478464506 0 0 0 0
3000001 -0.008130540921126988 0.0008024551758116518 -3.0944750489617987 -3.4609216103893328 0 0 0 0
4000001 -0.007757085300259947 0.0012659756760012738 -4.81904610724746 -2.572047071270875 0 0 0 0
5000001 -0.007367971509122048 0.002077757567668841 -5.939008371491274 -1.2209381769489476 0 0 0 0
6000001 -0.006844858933883586 0.002353981333062816 -6.458859851197239 0.2905400307903351 0 0 0 0
7000001 -0.006939698716503906 0.002674841177522877 -6.476694665355664 1.8480888307444654 0 0 0 0
8000001 -0.003807743264606981 -0.007459593828146277 -6.014259665952738 3.2931526154230775 0 0 0 0
9000001 -0.006582838202410939 0.005569902520658369 -5.2777857268900705 4.564521780691484 0 0 0 0
10000001 -0.004433641723216011 0.0019157995155804515 -4.2421660265905805 5.529911233336522 0 0 0 0
11000001 -0.005163700535732312 0.005395954872065153 -3.112969483731487 6.199407120364319 0 0 0 0
12000001 -0.004826868768149108 0.004108971439614261 -1.9663699403380432 6.579869514254187 0 0 0 0
13000001 -0.007568604422239739 0.008078361513230952 -0.8408432638657292 6.7523073515673895 0 0 0 0
14000001 -0.0033391973595513253 0.0051140153004214945 0.24129311413111992 6.681762621665437 0 0 0 0
15000001 -0.0026074049446551213 0.005577596298772368 1.2444173758281998 6.464506421686105 0 0 0 0
16000001 -0.007067682517126643 0.001982127529397743 2.1286545054309203 6.102317007123373 0 0 0 0
17000001 -0.001769409313799176 0.002884321732833462 2.944351902244068 5.6154428062132 0 0 0 0
18000001 0.0010145033648246067 0.006662606657666423 3.652761491002624 5.0352290393474695 0 0 0 0
19000001 -0.0008270644854378951 0.010841046274779529 4.2329109337951465 4.403386010761438 0 0 0 0
20000001 0.00440333465012742 0.007313316355491219 4.66490918248305 3.717063973200001 0 0 0 0
21000001 0.006016711364323673 0.007541875490676652 5.006382234752906 3.0349245078533578 0 0 0 0
22000001 0.008431604921531093 0.007450581718961645 5.248162972633472 2.3366603524609655 0 0 0 0
23000001 0.011154774018439286 0.007137246258341762 5.384599542140662 1.6369116149403107 0 0 0 0
24000001 0.013929304686133006 0.006649569151533105 5.435561372158779 0.9477466087096632 0 0 0 0
25000001 0.01713615143102705 0.005731434122922577 5.382693156252647 0.28051563347587216 0 0 0 0
26000001 0.020282381016701448 0.004228259012045158 5.236558110941904 -0.3437857604877427 0 0 0 0
27000001 0.02384273101265122 0.0023555129948162833 4.71512347194262 -0.7866933741175496 0 0 0 0
28000001 0.027252250077589284 1.5627957426491767e-05 4.02144539462572 -1.096890260622308 0 0 0 0
29000001 0.031196271022049797 -0.0028523419943883755 3.5004024642820286 -1.2369324341427803 0 0 0 0
30000001 0.03460521620556297 -0.0066255028103062545 3.0322222756156414 -1.493380803262526 0 0 0 0
31000001 0.03806523455812576 -0.011407430346679105 2.584626352971912 -1.580902714197739 0 0 0 0
32000001 0.04076247953009717 -0.016979428530038844 2.1400611324520167 -1.5459042606999371 0 0 0 0
33000001 0.04302847225688502 -0.023222108838081602 1.7812187552875367 -1.825228722334261 0 0 0 0
34000001 0.04402956419978569 -0.03040430808004545 1.2122469237382318 -2.101484392125157 0 0 0 0
35000001 0.044690668401153114 -0.03804841470107572 0.862014472111371 -2.0514253606433557 0 0 0 0
36000001 0.04371398334241664 -0.04627800766734656 0.5255724460852006 -2.020763876695793 0 0 0 0
37000001 0.041439506508790434 -0.05513567464449777 0.5453671999494833 -2.040212506001876 0 0 0 0
38000001 0.03793648347500067 -0.06385791653836978 0.10823147813492881 -1.8674628238658897 0 0 0 0
39000001 0.032430915713666915 -0.07228058617383194 -0.11210275520538052 -1.7759004005514774 0 0 0 0
40000001 0.02556684967528029 -0.08070848857473342 -0.3310219318525407 -1.6709294206725596 0 0 0 0
41000001 0.017085834288218776 -0.08742979658055634 -0.4950432004247214 -1.5663801404901467 0 0 0 0
42000001 0.007246170407602697 -0.09272999070136512 -0.6892976741360541 -1.3927654574229902 0 0 0 0
43000001 -0.003635983168284359 -0.09655331054561236 -0.857282474327233 -1.230927103370753 0 0 0 0
44000001 -0.01510334578697525 -0.09895254937665807 -1.0349175992710986 -1.0746096739840223 0 0 0 0
45000001 -0.027384277443477722 -0.09913386934256511 -1.1628656318510597 -0.9253919575805047 0 0 0 0
46000001 -0.03978144686395148 -0.09686865070247541 -1.3710828205348957 -0.8520795565768008 0 0 0 0
47000001 -0.05129124404157113 -0.0927762108309061 -1.4524439356889556 -0.6796309176535744 0 0 0 0
48000001 -0.06232282050362591 -0.08561256213739607 -1.6417625979509747 -0.582067676754304 0 0 0 0
49000001 -0.07150078587248702 -0.07862862769895433 -1.33609183186707 -0.43506829083368387 0 0 0 0
50000001 -0.08158543757892323 -0.06866882467767875 -0.7923873557559292 -0.23667620863347652 0 0 0 0
51000001 -0.08800214515260434 -0.05799804228332316 -0.7951065965132963 -0.14429772160760146 0 0 0 0
52000001 -0.09193499466314327 -0.04612918604846176 -0.7660689805738831 -0.058415318367988855 0 0 0 0
53000001 -0.09410003330119347 -0.034662665829810806 -0.7490511775833671 0.04664048850765592 0 0 0 0
54000001 -0.0937728249610972 -0.02299202449940667 -0.7157872209239715 0.11519560020961377 0 0 0 0
55000001 -0.09217097654785374 -0.011372657992239183 -0.6864504721725176 0.16869592397995026 0 0 0 0
56000001 -0.08870454570961442 -0.0011064101598624505 -0.6431197640917011 0.2357472638990691 0 0 0 0
57000001 -0.08386914091737173 0.00808078610667443 -0.6075325486370409 0.30240212849234166 0 0 0 0
58000001 -0.07801904066630683 0.016484544961321537 -0.5568909822670538 0.3320976026947195 0 0 0 0
59000001 -0.07102316690812759 0.023776571402416537 -0.5068256050985089 0.3731105384762534 0 0 0 0
60000001 -0.063493342872575 0.028882189529394815 -0.44899443699041985 0.395145473995029 0 0 0 0
61000001 -0.055589322681459774 0.03317848019080496 -0.42793513703160163 0.41958222746064566 0 0 0 0
62000001 -0.047277020282136685 0.03636669471043505 -0.3817220223245282 0.4438692421979301 0 0 0 0
63000001 -0.039138198940252625 0.038380802739849985 -0.3436601547091024 0.4576538810181294 0 0 0 0
64000001 -0.030992870857489398 0.03911497636105081 -0.2994562876380615 0.46397479796835794 0 0 0 0
65000001 -0.023140797616328316 0.039041071158352425 -0.247901385138071 0.46230480918975453 0 0 0 0
66000001 -0.015354087505218465 0.03780637518460379 -0.20598080007133876 0.47369484857549154 0 0 0 0
67000001 -0.00804266944730531 0.03507336445793026 -0.16745096762182932 0.475534578440712 0 0 0 0
68000001 -0.0018341856469203444 0.03196308957178227 -0.12295264927438895 0.46172677307301807 0 0 0 0
69000001 0.003819346989924818 0.028107143179618033 -0.07805857788100763 0.45397875037624336 0 0 0 0
70000001 0.008843355032182816 0.023894703339586067 -0.037252909269048284 0.4441562453683191 0 0 0 0
71000001 0.012968384490297942 0.01935647782955721 -0.009393585290157805 0.4347079076913189 0 0 0 0
72000001 0.01640726433683725 0.014406248413902485 0.022854505387007035 0.41750812391351383 0 0 0 0
73000001 0.019269746035035812 0.009477531923988182 0.04737327590708299 0.4006014005567496 0 0 0 0
74000001 0.02172955338202106 0.004473032722905751 0.06549727422688405 0.3872010171361915 0 0 0 0
75000001 0.02323603569720989 -0.0009052049835892929 0.0788239978963373 0.38290410985176915 0 0 0 0
76000001 0.024299419751984363 -0.0058085856698215565 0.09528049215510957 0.3864944407864966 0 0 0 0
77000001 0.024392494730317436 -0.011414985031998793 0.121343691053811 0.3940720061362033 0 0 0 0
78000001 0.024651595418667814 -0.015937844720615723 0.1523016624197037 0.3854841162156727 0 0 0 0
79000001 0.02399580422801586 -0.020693496033150717 0.18709535534921642 0.3691560759383225 0 0 0 0
80000001 0.02299448619915357 -0.025237281647283064 0.22572515915757374 0.35040594950624815 0 0 0 0
81000001 0.021663356143004096 -0.02935468973129632 0.2524627776143911 0.3283229479634646 0 0 0 0
82000001 0.020069442271689174 -0.032994197917008035 0.2880821553678602 0.2986227938148455 0 0 0 0
83000001 0.01813693331641473 -0.036735269173518666 0.3251825825546632 0.2698601487201858 0 0 0 0
84000001 0.01578420650519716 -0.04018886938953841 0.36299277228084276 0.24252252438881813 0 0 0 0
85000001 0.013488470744997563 -0.0428808793248826 0.39552356865224164 0.20218883432973292 0 0 0 0
86000001 0.011043660349740107 -0.04548935258954425 0.4303027909233265 0.14697877049485944 0 0 0 0
87000001 0.008449761101593007 -0.04805749252288154 0.438709208692863 0.08328642208139211 0 0 0 0
88000001 0.005653485133042381 -0.0499768323319346 0.4460135229197185 0.03339684684813106 0 0 0 0
89000001 0.0030718321864645465 -0.051951234561357876 0.44835616331323347 -0.03859948037855158 0 0 0 0
90000001 0.00021147583010255367 -0.05346032418328528 0.42591800329062024 -0.10979775640346279 0 0 0 0
91000001 -0.002774305332058746 -0.054648932678246546 0.3850899324079796 -0.1715323799100768 0 0 0 0
92000001 -0.0054069740469203445 -0.055984697793800886 0.33401948709539353 -0.2184979330290192 0 0 0 0
93000001 -0.008183595535739274 -0.05655798976091243 0.27668450901515884 -0.24785533609539245 0 0 0 0
94000001 -0.010872871141862354 -0.05704069326371928 0.22129095486806624 -0.26305103551441106 0 0 0 0
95000001 -0.013651471054124483 -0.05728549765737229 0.1711151461896859 -0.26577221798447115 0 0 0 0
96000001 -0.016462842481573807 -0.05747692734292128 0.1280135803461272 -0.262128651834009 0 0 0 0
97000001 -0.018546550634361694 -0.05716226133505228 0.09123420760799145 -0.2555236753975645 0 0 0 0
98000001 -0.020915892646740455 -0.0571264526506632 0.053687989385862375 -0.24444398308245346 0 0 0 0
99000001 -0.02354207085231245 -0.05687603979004196 0.022864369653289134 -0.22441296830792173 0 0 0 0
100000001 -0.02570246838628707 -0.056287251527279446 0.00203648126623954 -0.19697598230256727 0 0 0 0
