# HZ S RI R 50
1 -0.7574355078760457 0.35896128682730355 -0.28820635017363183 -0.23156148669983087 0 0 0 0
1000001 -0.007660464060010731 -0.00023946449774315544 0.05270935611706263 -0.05952587371806097 0 0 0 0
2000001 0.0014441446662744814 -0.0035020554840310704 0.04859199446772599 -0.19816962206037428 0 0 0 0
3000001 -0.00719646227695303 0.0012332978923259397 -0.009821550001743643 -0.3269209653829043 0 0 0 0
4000001 -0.006812475092375099 0.0014210713972631316 -0.10586602798345303 -0.43649006627946446 0 0 0 0
5000001 0.0017631184262095984 -0.0017658114872550336 -0.23373008209797655 -0.5207978182223781 0 0 0 0
6000001 -0.0026370280621903996 0.003280706022175828 -0.38702905925870684 -0.5714957367419141 0 0 0 0
7000001 -0.006285177111432898 0.00193771028928373 -0.554443083220293 -0.5830892597837442 0 0 0 0
8000001 -0.004412315899313077 0.005245228751150424 -0.7279293934192697 -0.5514698120281507 0 0 0 0
9000001 -0.005457022328998463 -0.001155726987415189 -0.8906036000930091 -0.4817713370211822 0 0 0 0
10000001 -0.0038710278840973673 0.00025612614648717403 -1.034729635249364 -0.3733811366129473 0 0 0 0
11000001 -0.004939116535881673 0.0020730198709054625 -1.1636215777738035 -0.23387144510788002 0 0 0 0
12000001 -0.003142470555930728 0.0012100875139569327 -1.2573193392017872 -0.07919419417283391 0 0 0 0
13000001 -0.005751638631490006 0.0033797151652651485 -1.326809164250988 0.09805626591170977 0 0 0 0
14000001 -0.006874283638551833 0.003442167798448033 -1.3626617374381347 0.2850384977487715 0 0 0 0
15000001 -0.006666243390266691 0.0038460313441371907 -1.3651679063539852 0.4741054688485295 0 0 0 0
16000001 -0.006016559050462359 0.00481897914516809 -1.3390435174650597 0.6614385961239969 0 0 0 0
17000001 -0.006643854332807639 0.0048221048642370385 -1.2842857856392718 0.8443840551107172 0 0 0 0
18000001 -0.012870233028714397 0.0013058155838119607 -1.2117916003525036 1.0221232327899996 0 0 0 0
19000001 -0.0066083013256324685 0.0038385739784137208 -1.0983225100275085 1.1866749605509643 0 0 0 0
20000001 -0.006641815430339839 0.005604469604385485 -0.9688993884748939 1.3389492805844816 0 0 0 0
21000001 -0.00649194782640033 0.008275534897168894 -0.8192762420511144 1.4678168401242384 0 0 0 0
22000001 -0.008513199778097131 0.008458558648830994 -0.6630557043353246 1.5767202176829769 0 0 0 0
23000001 -0.005768804891158624 0.009712579334007052 -0.49180912307987973 1.6579409733713657 0 0 0 0
24000001 -0.00580845057094609 0.010248259146762775 -0.31419134520995734 1.7179139624618414 0 0 0 0
25000001 -0.005129087801341491 0.0136637830639498 -0.12977236051368238 1.7618627536527875 0 0 0 0
26000001 -0.005825436617543524 0.015496497998391328 0.05593285227255645 1.7838875043644595 0 0 0 0
27000001 -0.0031169669312510937 0.01690714128004112 0.24616537809223332 1.78438831683824 0 0 0 0
28000001 -0.0021316257784828813 0.018879808603898148 0.4400228689332121 1.760235535702557 0 0 0 0
29000001 -0.0008062963888550408 0.020613755982939224 0.6315514232674586 1.7175279634203 0 0 0 0
30000001 0.0010421303321532945 0.022479869038770445 0.8182947685553138 1.6532939993483793 0 0 0 0
31000001 0.003181717352146441 0.024184164098474403 0.9976709622473274 1.5663283628947264 0 0 0 0
32000001 0.005399669634731004 0.025649323526999265 1.1678156802636335 1.4613110962581308 0 0 0 0
33000001 0.0086096365627202 0.02807824185998709 1.2241154945648502 1.1767726349673016 0 0 0 0
34000001 0.012003379643634076 0.029869978063081212 1.2218227056144477 0.9427318153034678 0 0 0 0
35000001 0.015660475065395724 0.030710724060440817 1.3026213561783302 0.8009094525209323 0 0 0 0
36000001 0.020239317021480064 0.032084229770458064 1.3767921137160302 0.6709644107799514 0 0 0 0
37000001 0.024772575406769394 0.03248023750576718 1.4386482693550169 0.5424935299346131 0 0 0 0
38000001 0.029641856627083882 0.03291448451827446 1.464431992587 0.3977562507305565 0 0 0 0
39000001 0.03514695171512395 0.03221082346799377 1.481857232374169 0.20838436899065083 0 0 0 0
40000001 0.04079250890048075 0.03104691230959138 1.4543000576147627 0.012154394098178086 0 0 0 0
41000001 0.04648226618512535 0.029191872016432436 1.4109584200757597 -0.15626586070409695 0 0 0 0
42000001 0.05164933482164207 0.02646904319028814 1.3751320280306145 -0.3023492429996518 0 0 0 0
43000001 0.05712352304997117 0.022890430073134134 1.3303180211260295 -0.4609983706783211 0 0 0 0
44000001 0.06188733472466308 0.01851511955141868 1.2569925609202814 -0.5959555355711983 0 0 0 0
45000001 0.06696245218715614 0.013895347252996262 1.1451768657633155 -0.7175133187033147 0 0 0 0
46000001 0.07083656875957414 0.008193438706422761 1.0127707588691184 -0.8209053468170608 0 0 0 0
47000001 0.07377063095042098 0.002536552582582342 0.8659301956525632 -0.9012900787978355 0 0 0 0
48000001 0.0769664901977278 -0.003586276140719477 0.716583174602864 -0.9545076677123819 0 0 0 0
49000001 0.07915096956965458 -0.01014941610694207 0.5438928971475392 -0.9956510792339207 0 0 0 0
50000001 0.08060788489114516 -0.017225095567891945 0.3544638756341543 -1.0243356528522862 0 0 0 0
51000001 0.08118113245088976 -0.02422804996300721 0.1843628811346295 -0.9955471101562161 0 0 0 0
52000001 0.08107308742005154 -0.031063857764426692 0.013210866587950471 -0.9270610785190581 0 0 0 0
53000001 0.0801649323808677 -0.03768547497680085 -0.08803995907869946 -0.9043229535834233 0 0 0 0
54000001 0.07873479017540114 -0.04424557141511719 -0.13908526370115934 -0.9257080814947194 0 0 0 0
55000001 0.07655182843945937 -0.050168751509129146 -0.08347018894595765 -0.9764041524023362 0 0 0 0
56000001 0.07385384400274847 -0.0563195140770568 -0.10610510886942437 -1.1039534945645144 0 0 0 0
57000001 0.07074355579451724 -0.061984070973342895 -0.1530352207990548 -1.2020693586243552 0 0 0 0
58000001 0.06740832150393603 -0.06690720581104119 -0.26711083048526146 -1.256963951884153 0 0 0 0
59000001 0.06336501787517688 -0.07172585807526467 -0.3674901393929586 -1.3011957737210469 0 0 0 0
60000001 0.05923556818814884 -0.07554235575556664 -0.46756258337974516 -1.2971376150649527 0 0 0 0
61000001 0.05505678674977352 -0.0792251230007321 -0.5602490658983312 -1.2667027456411277 0 0 0 0
62000001 0.05035734025617344 -0.08305015578823934 -0.6399817042180798 -1.2388210401696877 0 0 0 0
63000001 0.045676089305499996 -0.0858683818063481 -0.7201930741219144 -1.2100642455423798 0 0 0 0
64000001 0.04053751225312854 -0.0882840523084572 -0.7984593851580897 -1.1845464306986715 0 0 0 0
65000001 0.035857122280191056 -0.08988668290362922 -0.8764804099884675 -1.1693372271485631 0 0 0 0
66000001 0.03147259113821522 -0.09108714317557615 -0.9741597740918332 -1.1808349348025382 0 0 0 0
67000001 0.0272692814370748 -0.09150807261719233 -1.1251405251265256 -1.2191330081794616 0 0 0 0
68000001 0.02341896631532084 -0.09180996968222965 -1.3700829441263265 -1.264461718468679 0 0 0 0
69000001 0.020655642511214895 -0.09199412991199392 -1.7832527541936078 -1.248547739013203 0 0 0 0
70000001 0.018437514281958015 -0.09249387595059913 -2.3872684584374904 -0.9493532030422092 0 0 0 0
71000001 0.016679448825438994 -0.09519150113053859 -2.8188115412017707 -0.05093364345790008 0 0 0 0
72000001 0.012329745052569717 -0.0986542545066659 -2.442475215025984 0.9549928729291425 0 0 0 0
73000001 0.0061275901962305175 -0.10020337463473994 -1.6922156539295405 1.3216306584770072 0 0 0 0
74000001 0.0003631110293782358 -0.09989784161204208 -1.1714372382675227 1.2821357290050905 0 0 0 0
75000001 -0.004269616380229078 -0.09932208948592897 -0.8761968957958515 1.1567173084177993 0 0 0 0
76000001 -0.008648788730189351 -0.09806632065030525 -0.7043426284652334 1.0502560383985202 0 0 0 0
77000001 -0.01258768093742085 -0.09705228181083603 -0.5958634328503074 0.9766347881886622 0 0 0 0
78000001 -0.01796007615436525 -0.09594001967024653 -0.5146723372816567 0.9316190619206902 0 0 0 0
79000001 -0.01979146042090497 -0.09379391034599328 -0.4457501402556505 0.9089553770066081 0 0 0 0
80000001 -0.023051160334905937 -0.09300437964231657 -0.3776698816620418 0.8977108721583362 0 0 0 0
81000001 -0.025866913850243593 -0.09018143745440142 -0.3081821698002062 0.8924025691035299 0 0 0 0
82000001 -0.02844651747051945 -0.0885851601192011 -0.2357271374063324 0.8889475405309476 0 0 0 0
83000001 -0.03127690242727571 -0.08660744550014142 -0.16160566638862334 0.8836660098473922 0 0 0 0
84000001 -0.03343348922600867 -0.08551829439791503 -0.07963241352811351 0.8710168290714653 0 0 0 0
85000001 -0.035477991632280416 -0.08270840511169618 0.001153279564522278 0.849528509966656 0 0 0 0
86000001 -0.03738324952001685 -0.08092351242024377 0.07867178566435673 0.8177243202100483 0 0 0 0
87000001 -0.039064187996479476 -0.07862953851897884 0.15010000909446608 0.7779535827696925 0 0 0 0
88000001 -0.04067966149351393 -0.07689329987643623 0.22009956311809825 0.7310008159108479 0 0 0 0
89000001 -0.041967713068324766 -0.07500845314656204 0.2828277507022372 0.6695295122207318 0 0 0 0
90000001 -0.043853622528250175 -0.07321524240148426 0.33319555818815194 0.5988787016687341 0 0 0 0
91000001 -0.045827748038409465 -0.06938130174447033 0.36629274992290894 0.5231979166045634 0 0 0 0
92000001 -0.0463996508632858 -0.06800785709688288 0.38217952808798183 0.4434405283334616 0 0 0 0
93000001 -0.04745074926212519 -0.06764464020591757 0.37402638797127075 0.3704682115845249 0 0 0 0
94000001 -0.04908579073212366 -0.06557505062507328 0.34672801742118126 0.319503093163227 0 0 0 0
95000001 -0.04982918806584234 -0.06413792419081364 0.3160484547565879 0.29454374176991555 0 0 0 0
96000001 -0.05081233795232773 -0.06196551686206381 0.2994796839873733 0.29236063291735154 0 0 0 0
97000001 -0.052173193401845765 -0.06022018739195176 0.30541678672108125 0.30447519149015767 0 0 0 0
98000001 -0.05276621027121989 -0.058153102701819864 0.3368082123517937 0.30948148413007603 0 0 0 0
99000001 -0.053614312840783294 -0.05622899659571073 0.3858323597334889 0.3011494219276685 0 0 0 0
100000001 -0.05424966005623286 -0.054549555519842856 0.44794824444188724 0.27394849897485324 0 0 0 0
