# HZ S RI R 50
1 0.3312594870029521 -0.15236863108492957 -0.09716583135041972 -0.005836107341399652 0 0 0 0
1000001 -0.007979680315787576 0.00010572077439603792 0.2143880258711805 -1.6733419322427812 0 0 0 0
2000001 -0.008100187569295444 0.000943940174609231 -1.7707476261206145 -2.3691089593546124 0 0 0 0
3000001 -0.008107789940940463 0.000987427383005821 -3.0707337849677936 -1.7905715231535255 0 0 0 0
4000001 -0.007576192242461995 0.0015789068096276051 -3.801815863510497 -0.9188693698906817 0 0 0 0
5000001 -0.005360282260245232 -0.0015762009634807822 -4.162465458187327 0.06507329698526808 0 0 0 0
6000001 -0.0067181563958161805 0.001998168673431983 -4.208580106913158 1.050272550952452 0 0 0 0
7000001 -0.006782113171270323 0.002741757925851067 -3.9674586347620338 1.9920270762444634 0 0 0 0
8000001 -0.00897809394724923 0.002735582913073784 -3.491151301090798 2.793191583972569 0 0 0 0
9000001 -0.006303285377007701 0.005170823730473953 -2.8572491397918105 3.415230351238961 0 0 0 0
10000001 -0.004169079272059245 0.003061181277487509 -2.135234599278495 3.842839811823059 0 0 0 0
11000001 -0.004659549435154989 0.0046067742544574335 -1.3914513395903507 4.081891162154415 0 0 0 0
12000001 -0.00482305324106354 0.0038172454633630054 -0.6688858710251376 4.156787967442065 0 0 0 0
13000001 -0.006001287095296584 0.0031131070906630573 0.01739925321123376 4.103731384080853 0 0 0 0
14000001 -0.0032282937105969924 0.004647594437775964 0.6400703364414402 3.922504827536822 0 0 0 0
15000001 -0.0026920392472513433 0.005339557343543345 1.1822289580171494 3.660295558129957 0 0 0 0
16000001 -0.0026941292941803 0.008729163891128823 1.6488362632207598 3.3304576429227555 0 0 0 0
17000001 -0.0005626457897921023 0.006096987742493848 2.023221278540073 2.949717613875079 0 0 0 0
18000001 0.0006320913596844873 0.006444690186006165 2.320548040716629 2.53842837977865 0 0 0 0
19000001 0.00204825453733725 0.00713713841065211 2.5430759479874956 2.1166126447852007 0 0 0 0
20000001 -0.004557728370874392 0.009026208840116302 2.704511382998609 1.7311546763172216 0 0 0 0
21000001 -0.002095992892729599 0.019710208043169357 2.835936762247352 1.3360502081742955 0 0 0 0
22000001 0.0015596021117711795 0.010627197310344661 2.8787845321700467 0.9629519389065395 0 0 0 0
23000001 0.011131217582649757 0.007094647056454762 2.8831728961511467 0.5852501411198431 0 0 0 0
24000001 0.013862792268680405 0.0066477443170403355 2.843215545811024 0.2332904579083273 0 0 0 0
25000001 0.016504499996990666 0.005711980948595967 2.69960121013403 -0.09946431943474812 0 0 0 0
26000001 0.019955635393934072 0.004447680542618345 2.497315264974331 -0.35331278928654936 0 0 0 0
27000001 0.023191842850990813 0.003039740777208689 2.156357631515196 -0.5239527850643865 0 0 0 0
28000001 0.0268893296602025 0.0005420593883199631 1.9333282289025306 -0.7410058600628746 0 0 0 0
29000001 0.030962044894866435 -0.0023299389531448497 1.7480682635527436 -0.8436249791399748 0 0 0 0
30000001 0.03450947442147657 -0.006029142576387424 1.6441695665029323 -0.9815037232304783 0 0 0 0
31000001 0.03769203796796401 -0.010468136094393813 1.2024385229879946 -1.077021374321973 0 0 0 0
32000001 0.040595088093889904 -0.01615316577262504 0.9825534486784799 -1.0819239279367305 0 0 0 0
33000001 0.04295238639818825 -0.02248972020351658 0.6593680482876574 -1.0937662779635904 0 0 0 0
34000001 0.04438213699335565 -0.029669642189689722 0.28009033464286165 -0.9334645196352359 0 0 0 0
35000001 0.044942447843578544 -0.03749491841007659 0.014018395425583276 -0.6791030893541252 0 0 0 0
36000001 0.04404267244989831 -0.045667402714986316 0.05843963761122184 -0.8319564708364349 0 0 0 0
37000001 0.04150815391069718 -0.054593119465377996 0.07467005101527695 -0.9862770861353245 0 0 0 0
38000001 0.037824915845484364 -0.06337840636619514 -0.01477302428587235 -0.9760884362775145 0 0 0 0
39000001 0.03271659847019449 -0.07161040473287625 -0.11957703272061813 -0.8799541490996374 0 0 0 0
40000001 0.02602509328542983 -0.07983890006628995 -0.1818778730119912 -0.8651055516706951 0 0 0 0
41000001 0.017403826017791578 -0.08680623194540169 -0.2634120552206025 -0.7855459581259755 0 0 0 0
42000001 0.007763883700495741 -0.09193668842263672 -0.34215071340300035 -0.7351822086451675 0 0 0 0
43000001 -0.0030166072301296616 -0.09610060355066784 -0.41105656304134536 -0.6460112075762381 0 0 0 0
44000001 -0.014372053223417978 -0.09846938731684392 -0.46398819356171983 -0.5258580664449438 0 0 0 0
45000001 -0.02667642104816727 -0.0986680008853893 -0.530281700837935 -0.45994232047123024 0 0 0 0
46000001 -0.04045658484481948 -0.09751295904261029 -0.3363050070643087 -0.33589278904219144 0 0 0 0
47000001 -0.05188377219796814 -0.09341601943415667 -0.401678078594182 -0.32150395551397415 0 0 0 0
48000001 -0.06319254509871293 -0.08605756210588371 -0.3930076139834072 -0.2613371183537842 0 0 0 0
49000001 -0.07247140404833836 -0.07884237248466829 -0.39862610181610775 -0.214774652051838 0 0 0 0
50000001 -0.0806293130760181 -0.06897781459398555 -0.42501575961116467 -0.17366091388236407 0 0 0 0
51000001 -0.0870073602692299 -0.05826434275413639 -0.41807512766138083 -0.11441614959238028 0 0 0 0
52000001 -0.09084973211086021 -0.04662592173857586 -0.4314498150302381 -0.0705997398102742 0 0 0 0
53000001 -0.09335020941530224 -0.03514433914673775 -0.41472255852491396 -0.010974445941088689 0 0 0 0
54000001 -0.0933029036980274 -0.023508814199886173 -0.4122457840135565 0.031201914953821294 0 0 0 0
55000001 -0.09174068701463745 -0.012262363705851272 -0.4041859769381643 0.07146206627345186 0 0 0 0
56000001 -0.08829372265988314 -0.002151707814895762 -0.38540863401480896 0.10477292128909897 0 0 0 0
57000001 -0.08360380925479693 0.0070244974719674514 -0.3676324283711266 0.1430671723868137 0 0 0 0
58000001 -0.07784296785906307 0.015284583708398488 -0.3299086553599299 0.16346486774322289 0 0 0 0
59000001 -0.07118024605846718 0.022771273486226883 -0.3060305081563626 0.18674099049818257 0 0 0 0
60000001 -0.06364901205644995 0.027842666330955387 -0.27933918186740164 0.20782725990312148 0 0 0 0
61000001 -0.05559934120981069 0.032449390754725124 -0.25613766312961184 0.21245933726676666 0 0 0 0
62000001 -0.047652501168421686 0.03573221462458945 -0.24577946539497605 0.22460623273511834 0 0 0 0
63000001 -0.039432069315391165 0.03789287669594034 -0.23974664088761052 0.25464848959442443 0 0 0 0
64000001 -0.0314963518055376 0.03893578902094977 -0.21168723409721474 0.2476579133974071 0 0 0 0
65000001 -0.0235360638665283 0.03860038273655836 -0.1760747167772303 0.24103798674184743 0 0 0 0
66000001 -0.01580116871671031 0.03730409483517918 -0.15649099346697526 0.2537166859636858 0 0 0 0
67000001 -0.008319882714331475 0.03465759542090517 -0.14195975316403409 0.2755003699492173 0 0 0 0
68000001 -0.00207830872467569 0.031478301670900405 -0.1167397025054383 0.28406883857303555 0 0 0 0
69000001 0.003520134196726409 0.02808718901012232 -0.08619663329509028 0.25080560896726517 0 0 0 0
70000001 0.008466049591623588 0.023712957651692994 -0.061047472051503106 0.26664642915098635 0 0 0 0
71000001 0.012794408545840312 0.019292314018620395 -0.03540394120686158 0.26129100727488197 0 0 0 0
72000001 0.016236004506220217 0.014001259146142149 -0.015535104801712834 0.2464433219133598 0 0 0 0
73000001 0.019181650018681568 0.009471165883771494 -0.008199056511384034 0.24449727437928065 0 0 0 0
74000001 0.021365063715031586 0.004481536860602219 -0.0046792132081565655 0.24191847649060833 0 0 0 0
75000001 0.02295461172791874 -0.000952651335564805 6.274156805656137e-05 0.2514152932351023 0 0 0 0
76000001 0.023966178312246334 -0.005994763038100803 0.01357996900180302 0.27020728715004416 0 0 0 0
77000001 0.024297757320297892 -0.011040734837807596 0.0411841614458503 0.2870735303024913 0 0 0 0
78000001 0.02426218764741999 -0.015761223564588363 0.07704639966347648 0.29342437975957875 0 0 0 0
79000001 0.023590053224392258 -0.020823361604270115 0.12105411667195069 0.3007134244880461 0 0 0 0
80000001 0.022616574660019845 -0.025159973975084418 0.1600733189026011 0.28851198164923875 0 0 0 0
81000001 0.021374670411160045 -0.029432922764916745 0.19400596003898007 0.2670031784453626 0 0 0 0
82000001 0.0196264694229952 -0.032963362676321745 0.22092747516489625 0.24147157149954612 0 0 0 0
83000001 0.017902980744347607 -0.034176436010230106 0.25002292919908736 0.21399012788450025 0 0 0 0
84000001 0.015238645093395242 -0.03936100495321574 0.2828023191961242 0.1843376452526567 0 0 0 0
85000001 0.013494606680720663 -0.04287627717103497 0.32606767872597764 0.1455863622589339 0 0 0 0
86000001 0.010814108695412328 -0.04523958326957292 0.34685102126417044 0.09278018920848723 0 0 0 0
87000001 0.008459358321241782 -0.04802428595692961 0.36357582798071014 0.04851222607906061 0 0 0 0
88000001 0.0056541154976780935 -0.05001246447418656 0.3782096045163695 -0.01660617642189506 0 0 0 0
89000001 0.0030702080813492165 -0.051711782801856336 0.37099916484792206 -0.08920765120556517 0 0 0 0
90000001 0.00017784134785726386 -0.053166644837818564 0.33994180997240464 -0.15660899399837083 0 0 0 0
91000001 -0.002745202333070987 -0.05442305840318143 0.28951137857274273 -0.211954794105299 0 0 0 0
92000001 -0.005361544671337279 -0.0557271120927611 0.2310822648463713 -0.24870554700927908 0 0 0 0
93000001 -0.008156950885941143 -0.05610014671907251 0.1690900246857303 -0.26917803118335276 0 0 0 0
94000001 -0.010951344948777454 -0.05689361306159456 0.1123985652142494 -0.27108154680470425 0 0 0 0
95000001 -0.013625304047401338 -0.057196014908588784 0.061734368246353054 -0.2609848541035056 0 0 0 0
96000001 -0.016332498656188882 -0.05740428447341478 0.022699451183953948 -0.2451340220957367 0 0 0 0
97000001 -0.01845678623011234 -0.05730669604762806 -0.012060837769062357 -0.22612032885944547 0 0 0 0
98000001 -0.02118480657626644 -0.056896413422063724 -0.041470071376572284 -0.20320893866599435 0 0 0 0
99000001 -0.023568571065039654 -0.056641422897006445 -0.06462168285703873 -0.1744302622090659 0 0 0 0
100000001 -0.025663841017859537 -0.055901979747196934 -0.07540884088578433 -0.13958928570507917 0 0 0 0
