# HZ S RI R 50
1 0.4682972357804269 -0.05904420598271521 -0.001966435263463073 0.0017125081788646843 0 0 0 0
1000001 -0.007839373517198302 0.0002606274758500263 0.8755097039658003 -1.2619033469276397 0 0 0 0
2000001 -0.007953967600678962 0.00088377042868781 -0.5465314044923566 -3.213340272542693 0 0 0 0
3000001 -0.008065049406941345 0.0007035772462284705 -2.6751966710279054 -3.5413188948632994 0 0 0 0
4000001 -0.007781551031374327 0.0012846141359049179 -4.465561307522622 -2.8435053623669844 0 0 0 0
5000001 -0.007415871044461268 0.002053148306437227 -5.7237101383450355 -1.6116102083705532 0 0 0 0
6000001 -0.007103044507407157 0.0020814642351155077 -6.405128038779134 -0.1705548808435007 0 0 0 0
7000001 -0.0070631724200373456 0.0026161075151370696 -6.6065582787730674 1.33665894869404 0 0 0 0
8000001 -0.009072798367688494 0.0029875045838736957 -6.371003033330387 2.800095304665553 0 0 0 0
9000001 -0.00635212392674879 0.005518674624605988 -5.774125885930761 4.136435985450231 0 0 0 0
10000001 -0.00850008626772351 0.0033072195963058898 -4.9004964706793785 5.2547274400912185 0 0 0 0
11000001 -0.005936344949329277 -0.003708297151545526 -3.8086225844260047 6.0594910718531425 0 0 0 0
12000001 -0.00493530365852237 0.004072472408247702 -2.6231377945295455 6.648197198854036 0 0 0 0
13000001 -0.0030378102055337165 0.004778901301327954 -1.4068942492372234 6.945184739605489 0 0 0 0
14000001 -0.0024271177171271523 0.0022386959094675618 -0.2473795079001286 6.997473204858249 0 0 0 0
15000001 -0.0025244489453911975 0.005568465163185535 0.8481931275400151 6.880962399101681 0 0 0 0
16000001 -0.006421708875790949 0.0006985436029673429 1.8270847277028215 6.581425903513866 0 0 0 0
17000001 -0.008305664566677211 0.007085054074987091 2.7510078943335228 6.177481432829138 0 0 0 0
18000001 0.000725437747756672 0.006923606286884965 3.5707993550900277 5.5990515244498225 0 0 0 0
19000001 0.0023831319233102053 0.0071451397059703 4.247076457047661 4.9547653890941055 0 0 0 0
20000001 0.0043732772727003155 0.007296565281783392 4.788686130865464 4.269268522505922 0 0 0 0
21000001 0.006084088449450111 0.007497992455796274 5.219374212213083 3.5560997932636016 0 0 0 0
22000001 0.006761138977172502 0.03403769127859953 5.6364732310893695 2.8023333692324814 0 0 0 0
23000001 0.012206468843106779 0.008301723548514401 5.755420727891595 2.063151699046699 0 0 0 0
24000001 0.014228729996540918 0.006545306893085135 5.855113446988089 1.3130139347165974 0 0 0 0
25000001 0.017216903994426914 0.005642329532649844 5.844095508596866 0.5766420844781741 0 0 0 0
26000001 0.020445437405960235 0.004272392670694356 5.737122718054663 -0.11939252231841244 0 0 0 0
27000001 0.023587855739389714 0.002603070923707708 5.186602049911105 -0.6467853403638065 0 0 0 0
28000001 0.02716800581510858 7.42651851185713e-05 4.424744477374191 -1.016836291789664 0 0 0 0
29000001 0.03111215835722018 -0.0029480444043637507 3.8103773451629968 -1.2365441200017877 0 0 0 0
30000001 0.034822741601991586 -0.0067042229924709346 3.2669916078378365 -1.5071911393353739 0 0 0 0
31000001 0.03804371580007935 -0.011405227604773261 2.7556621830057386 -1.35788149120824 0 0 0 0
32000001 0.04065149422643645 -0.017157491570341278 2.326745820713514 -1.6395478351923591 0 0 0 0
33000001 0.042960117373903844 -0.02337139259992176 1.8746091223898624 -2.14307065656312 0 0 0 0
34000001 0.04393521585367536 -0.03044375491634243 1.3516261710870772 -2.2478775411713694 0 0 0 0
35000001 0.044668374769788056 -0.03809750035646715 1.0146800042324908 -2.2311964453296347 0 0 0 0
36000001 0.04350612237716335 -0.046419557981291805 0.6588199187829747 -2.244397805856446 0 0 0 0
37000001 0.04137264015501637 -0.05509202847972778 0.5535166658148075 -2.1527685690450022 0 0 0 0
38000001 0.03783221784283999 -0.06386130948785594 0.13646430675750948 -2.1039654087076927 0 0 0 0
39000001 0.03232432938888 -0.07240278099384258 -0.10634611603509976 -1.969669474229455 0 0 0 0
40000001 0.025472642568575957 -0.08067915874902616 -0.3647158462211513 -1.8641335673240265 0 0 0 0
41000001 0.017123514928555895 -0.0873243867249562 -0.5658183599133169 -1.735256239731998 0 0 0 0
42000001 0.007236510531337768 -0.09252460833166581 -0.7340044742590216 -1.5588715265558526 0 0 0 0
43000001 -0.003591965239254444 -0.09672192422928323 -0.9345173872922695 -1.4134164876268305 0 0 0 0
44000001 -0.014972415103887244 -0.0988360777709902 -1.1206160337832591 -1.247781044603724 0 0 0 0
45000001 -0.027306480682966247 -0.09896892252304007 -1.3075438997401476 -1.1185686985662193 0 0 0 0
46000001 -0.039725769617654776 -0.09676096461343789 -1.4995520918333711 -1.0352488538755218 0 0 0 0
47000001 -0.051038055391260294 -0.09288786437094343 -1.6302622278087093 -0.8326035912975011 0 0 0 0
48000001 -0.062139648368635024 -0.08540912176476578 -1.7994665606976088 -0.6597057801621642 0 0 0 0
49000001 -0.07368047238701055 -0.0786728936041303 -0.8601410007981345 -0.3998928715493244 0 0 0 0
50000001 -0.08154475442467167 -0.06876271571977842 -0.8573986299632144 -0.2749387084414373 0 0 0 0
51000001 -0.08776634599985404 -0.05766174076583623 -0.8813226718183692 -0.1747728684001362 0 0 0 0
52000001 -0.0919005165503129 -0.046354638745018 -0.876518625535906 -0.03900565697025876 0 0 0 0
53000001 -0.09414283250237815 -0.034393285190669136 -0.8069596577238675 0.05687946004790033 0 0 0 0
54000001 -0.09411731969432517 -0.02271096363169954 -0.7852403162217506 0.1398176230907449 0 0 0 0
55000001 -0.09208014907395307 -0.01158376838406028 -0.7492652989223354 0.20405728427354675 0 0 0 0
56000001 -0.08877821297297353 -0.0011263590468548238 -0.6935131276077696 0.26284617859537035 0 0 0 0
57000001 -0.08386812222029313 0.008113440249205137 -0.6708963330872904 0.33044212872616097 0 0 0 0
58000001 -0.07780589272696445 0.01646074627635569 -0.6127440821531087 0.36504236531832507 0 0 0 0
59000001 -0.07094960751130841 0.02375390657855358 -0.5549193494214161 0.4082599411353639 0 0 0 0
60000001 -0.06321379143644072 0.028784642434504452 -0.4851291149532537 0.42280144699883826 0 0 0 0
61000001 -0.05551751602628831 0.03321223159344599 -0.4501512328635146 0.4552421109284165 0 0 0 0
62000001 -0.047194090341770294 0.03632630787507949 -0.40026202132393085 0.47769940002934813 0 0 0 0
63000001 -0.03919675106533988 0.03825147100221507 -0.3633280914709943 0.4856165975492392 0 0 0 0
64000001 -0.03103917006328176 0.03927418962208691 -0.30977772877922166 0.5050753135860928 0 0 0 0
65000001 -0.023077213562979152 0.03804886292011064 -0.26171479865018593 0.5077161621870556 0 0 0 0
66000001 -0.015410225970276402 0.03751618006641403 -0.2192908088581918 0.520458714584423 0 0 0 0
67000001 -0.00808973032611557 0.035003227325278496 -0.16607117082923978 0.5137793509113406 0 0 0 0
68000001 -0.001765927478863658 0.03192165089953018 -0.12353642945274573 0.4988391530738439 0 0 0 0
69000001 0.0037534118652202486 0.028111582981538583 -0.07836329807540016 0.4908654869761809 0 0 0 0
70000001 0.008601667794903173 0.023948890561293495 -0.028625563886143308 0.4814098551187524 0 0 0 0
71000001 0.01292810646239222 0.019395630621137364 0.0027409270934176055 0.4667376396074341 0 0 0 0
72000001 0.01632291075675276 0.014008355677817158 0.032877127523729066 0.4507289506580472 0 0 0 0
73000001 0.019317128806396258 0.00935807502358644 0.059457418066091776 0.4323887680815137 0 0 0 0
74000001 0.021598483755660553 0.0044700781073856895 0.07958223757064244 0.4159798556445741 0 0 0 0
75000001 0.02309031405077167 -0.0009705765171731975 0.09469965153873049 0.4055480295919927 0 0 0 0
76000001 0.024158601346934906 -0.006011559794692975 0.11106610052572387 0.40786579837810427 0 0 0 0
77000001 0.02439313233461754 -0.011242093932646757 0.1367867060988799 0.412349864622936 0 0 0 0
78000001 0.024365249671049097 -0.015899533622481532 0.16779593969661427 0.402047793673701 0 0 0 0
79000001 0.023999256397732996 -0.020894665631073575 0.19743095788576295 0.38350422390454797 0 0 0 0
80000001 0.022727683108730527 -0.025149200955350882 0.23685082826458792 0.36234177444273896 0 0 0 0
81000001 0.021569207925548343 -0.029127003407644333 0.2681558346501302 0.3383128387717044 0 0 0 0
82000001 0.02015935545891397 -0.0332752602061951 0.2991877794991467 0.30965961920980734 0 0 0 0
83000001 0.017989033710461736 -0.036687860199441834 0.3294295616913745 0.28706719503948974 0 0 0 0
84000001 0.015928596394134856 -0.04003588763035863 0.369265956530233 0.2586937568622238 0 0 0 0
85000001 0.01353607763276033 -0.04292784228703137 0.4050876729843207 0.21830947371954168 0 0 0 0
86000001 0.010884387813030435 -0.045462193190166096 0.438576745092354 0.17011224307498882 0 0 0 0
87000001 0.008890927621482131 -0.047945950254476455 0.4639959802475513 0.10585974916788142 0 0 0 0
88000001 0.005789772829300682 -0.050038808397973915 0.46450342897001695 0.04299456140327291 0 0 0 0
89000001 0.0030295402678643694 -0.05204015598150021 0.4682384087144104 -0.020654757443552545 0 0 0 0
90000001 0.000170708405287601 -0.05336212051953191 0.4524472802921223 -0.09568644834025587 0 0 0 0
91000001 -0.0011566877247004297 -0.05527143079016188 0.41581716137811964 -0.1598880327416764 0 0 0 0
92000001 -0.005358074297933789 -0.05592555482172886 0.36705370178429053 -0.21238782750953267 0 0 0 0
93000001 -0.008235834247103573 -0.056488621949087374 0.3103707149464285 -0.24892522928077962 0 0 0 0
94000001 -0.010354313586931053 -0.05590164491559123 0.25272271462625084 -0.2691135285487935 0 0 0 0
95000001 -0.013711648478190694 -0.05747625984302336 0.20076602629172452 -0.27649636603336714 0 0 0 0
96000001 -0.016490557900408872 -0.057589857757759585 0.15497430174369137 -0.27566946462233255 0 0 0 0
97000001 -0.01844491644941716 -0.05727853614237786 0.11310229130143423 -0.2708022812104095 0 0 0 0
98000001 -0.02097798396056893 -0.05704048559925036 0.07502767006845798 -0.2601963417555727 0 0 0 0
99000001 -0.02360984771670669 -0.05655173131422362 0.038632892679046876 -0.24254844871072098 0 0 0 0
100000001 -0.025960489860172083 -0.056264412960846236 0.015208313300927097 -0.21691743468653765 0 0 0 0
