# HZ S RI R 50
1 -0.9225787925814476 -0.046827069578528856 -0.002758102829331648 -0.001139226252610424 0 0 0 0
1000001 -0.008741241693962907 -9.808648474456472e-05 -0.042013298261034455 0.41399371773983756 0 0 0 0
2000001 -0.00832950921197203 0.00025001857568709626 0.34600328883034365 0.7818223577285663 0 0 0 0
3000001 -0.007392574058351356 0.000826365030092367 0.8114709536469389 0.8400020401040916 0 0 0 0
4000001 -0.007205448312311323 0.0009103975317116133 1.2080135110609989 0.6988929933990571 0 0 0 0
5000001 0.0014748747387748622 -0.003371461444693444 1.493881244811286 0.43927116768763486 0 0 0 0
6000001 -0.0001839234717023031 0.007916725300378598 1.667716353759664 0.11180457431241923 0 0 0 0
7000001 -0.005826750376821999 -0.0002810639140322838 1.7225106227441327 -0.21749385140914193 0 0 0 0
8000001 -0.003682818378050233 0.0028392632034019375 1.6909757314411977 -0.5386935230430241 0 0 0 0
9000001 -0.004362778413549711 -0.004210844403091501 1.5862647163694914 -0.8115735854094815 0 0 0 0
10000001 -0.004695015269745128 0.0016776548295111343 1.4324188939282665 -1.0444361245345952 0 0 0 0
11000001 -0.003321347890698197 -0.0016042864054737265 1.2514425307403896 -1.2272508540827651 0 0 0 0
12000001 -0.0006210958913800738 -0.0034501335191191025 1.0544630286316132 -1.3604237655970803 0 0 0 0
13000001 -0.003757654023955993 -0.002248712038770799 0.8565350058912332 -1.4542701176905717 0 0 0 0
14000001 -0.002252324765740269 -0.0020820728638700076 0.6563814088290245 -1.51315240204531 0 0 0 0
15000001 -0.002993424653857977 -0.003014286766374591 0.4644314963645826 -1.5406868571899106 0 0 0 0
16000001 -0.0007279748939752979 -0.0023120359355572736 0.28117285918329266 -1.5408678954883952 0 0 0 0
17000001 -0.0008629325222567524 -0.0022611913111084004 0.11083850086254268 -1.5200262479968303 0 0 0 0
18000001 -0.00011288057371845868 -0.003795423148389888 -0.04656951920594996 -1.4813488314356025 0 0 0 0
19000001 -0.00034694083594754253 -0.005125974228666 -0.1881802316751281 -1.4282473483116989 0 0 0 0
20000001 -0.00019799407585498544 -0.0055757583410387 -0.3174894795221254 -1.3642853909925323 0 0 0 0
21000001 0.00020480235912452495 -0.006216500913039174 -0.43283844609644184 -1.291025795493437 0 0 0 0
22000001 0.005331966825801006 -0.006485320045288109 -0.5336003144812027 -1.209260303758355 0 0 0 0
23000001 0.002670380488539936 -0.006989394909326913 -0.6245808711534613 -1.1267421000398516 0 0 0 0
24000001 0.002254412613137747 -0.008499997354235326 -0.7033433928529611 -1.0391256460770526 0 0 0 0
25000001 0.002827076160017528 -0.009297935417978227 -0.7714133330143568 -0.9481787194149002 0 0 0 0
26000001 0.003625306931861231 -0.010118446146769445 -0.8281549320233125 -0.857130750313673 0 0 0 0
27000001 0.004183368037861717 -0.011489361363566427 -0.8774604749297671 -0.7627730230760367 0 0 0 0
28000001 0.004955235437310031 -0.012605748798426525 -0.9169134372936165 -0.6674401265148744 0 0 0 0
29000001 0.005580817847400333 -0.013867879736639367 -0.9467218929932982 -0.5728734244934658 0 0 0 0
30000001 0.006276107670673889 -0.015275214922104215 -0.9667470273663346 -0.47940410457292476 0 0 0 0
31000001 0.006927576135049455 -0.01715120867846906 -0.9792774691071993 -0.3861740625527181 0 0 0 0
32000001 0.007733909577077166 -0.0186748630600678 -0.984272367014634 -0.2963923870440908 0 0 0 0
33000001 0.008010021532498756 -0.02036869069382066 -0.9809539673085678 -0.2067065442311129 0 0 0 0
34000001 0.008607437826431743 -0.02259308364835553 -0.969986642929584 -0.12119151239888584 0 0 0 0
35000001 0.008895014720464287 -0.024874999251197252 -0.9531314927901139 -0.03759826561380847 0 0 0 0
36000001 0.008362328731311439 -0.027787424336814887 -0.9290990045616789 0.04119048553091746 0 0 0 0
37000001 0.009134552578087068 -0.029977818801890252 -0.8982107616844933 0.11535946345303225 0 0 0 0
38000001 0.008577478831393188 -0.03275425992468992 -0.8623320598509959 0.18446241110983042 0 0 0 0
39000001 0.008228992918908974 -0.03606092337999146 -0.8233372517957446 0.2490539544961844 0 0 0 0
40000001 0.006712369967912283 -0.03836780583480153 -0.7781763404154654 0.3115044171614386 0 0 0 0
41000001 0.005310119017126134 -0.04124066713509334 -0.7268664022818184 0.3659666061751451 0 0 0 0
42000001 0.0032588981631252872 -0.04405557833953874 -0.675176873697379 0.41427219982224456 0 0 0 0
43000001 0.0012245829095835982 -0.046332395709889874 -0.6159191157689226 0.4582059196287096 0 0 0 0
44000001 -0.0013681216014144123 -0.04891130960814372 -0.5547950619961585 0.493669121469131 0 0 0 0
45000001 -0.003715455425669387 -0.050694022737068085 -0.49339628171825023 0.5200953139790856 0 0 0 0
46000001 -0.006765880883695145 -0.052453882140059915 -0.43287025945295304 0.5396929937643261 0 0 0 0
47000001 -0.010025174550529538 -0.05399979736385229 -0.37209326447638713 0.5539267997877939 0 0 0 0
48000001 -0.013629737571147748 -0.054877206061191675 -0.3115311862569959 0.560909572529094 0 0 0 0
49000001 -0.016924866269561866 -0.055424387730386646 -0.25513864375033507 0.5629375703522612 0 0 0 0
50000001 -0.02038265380187045 -0.05584440252321341 -0.19974989795157325 0.5592336322899881 0 0 0 0
51000001 -0.02380062841466238 -0.05546154236511539 -0.1472469610628452 0.5501054147572351 0 0 0 0
52000001 -0.02701102224956846 -0.05476874707289456 -0.09760611198628777 0.5357556971980312 0 0 0 0
53000001 -0.03018137144445737 -0.053444314937818045 -0.05134492970007721 0.518396497159911 0 0 0 0
54000001 -0.03308437828877596 -0.05211823067405332 -0.008668280238675441 0.49685437565769014 0 0 0 0
55000001 -0.035616968346062094 -0.050443862293632104 0.030591540744416945 0.46977806316872905 0 0 0 0
56000001 -0.03796538681110731 -0.04861815129879997 0.06571735631763581 0.43733702758498544 0 0 0 0
57000001 -0.03999460932390117 -0.04671945836988497 0.08917982783484234 0.39887940093099894 0 0 0 0
58000001 -0.04172349811896161 -0.04471289143375659 0.09507840898559049 0.36487174220426233 0 0 0 0
59000001 -0.04285848373266493 -0.04267080891009979 0.09938196374063396 0.3479530859938535 0 0 0 0
60000001 -0.04416238324919565 -0.04033217768387599 0.11236847246498717 0.334103126708612 0 0 0 0
61000001 -0.04481932312563119 -0.03835875538676825 0.12768966458908249 0.31780790754371907 0 0 0 0
62000001 -0.04526559151021114 -0.03634609497268358 0.14083761187358387 0.2982197877563728 0 0 0 0
63000001 -0.04560375025191829 -0.034681269595344434 0.15304357089491852 0.2784337668378109 0 0 0 0
64000001 -0.04592746082524898 -0.03275218963599652 0.16256618931656755 0.25877382608994426 0 0 0 0
65000001 -0.04608851038231377 -0.03109006220900349 0.170498166194831 0.23841703408167164 0 0 0 0
66000001 -0.04562027974150224 -0.029596151517199916 0.17690402918117393 0.21819724481213856 0 0 0 0
67000001 -0.0453897893371242 -0.02801371804325341 0.17932847495904236 0.19771446845251012 0 0 0 0
68000001 -0.04512925714301322 -0.026690073751388998 0.18026047583256694 0.17711373202325492 0 0 0 0
69000001 -0.044687929859571 -0.025682690074271566 0.17710710080350453 0.1573944614230499 0 0 0 0
70000001 -0.044189717629192285 -0.024575864578763162 0.17016250266018357 0.14060560457976062 0 0 0 0
71000001 -0.04355885550880901 -0.02376070631991193 0.15971778635270176 0.12895190433123915 0 0 0 0
72000001 -0.04318608253237352 -0.022619980953752308 0.14805967780350626 0.12428380029975765 0 0 0 0
73000001 -0.04275168263053552 -0.02194182614032067 0.13604105012511478 0.12592041490156938 0 0 0 0
74000001 -0.0424430561377567 -0.021000220222510125 0.1262107322180413 0.1382963185122291 0 0 0 0
75000001 -0.04181609394733747 -0.020716915686631043 0.1253216618226594 0.16558627130008174 0 0 0 0
76000001 -0.04141540009394665 -0.02017328994997807 0.14790622495348937 0.2076936048394393 0 0 0 0
77000001 -0.041018776221571955 -0.019883421106416194 0.2269348920663922 0.2451253715354347 0 0 0 0
78000001 -0.041061855387165426 -0.018662965564175363 0.35468645812742045 0.19343467528072 0 0 0 0
79000001 -0.04018328836302733 -0.01921199075031286 0.3915421722629827 0.0480693222196182 0 0 0 0
80000001 -0.03953291474830653 -0.0185924335797413 0.33182060547975745 -0.049226364512994024 0 0 0 0
81000001 -0.03920232905802147 -0.018371160475068777 0.2657711009184006 -0.0857660640937662 0 0 0 0
82000001 -0.03864815008472473 -0.018154663352833073 0.21807447143795974 -0.09519241142933627 0 0 0 0
83000001 -0.03824492780153671 -0.01781776266143742 0.18352006311580524 -0.09576119627317257 0 0 0 0
84000001 -0.03796139961615389 -0.017713905395152066 0.1589192014759292 -0.09398820374322903 0 0 0 0
85000001 -0.037895379553697164 -0.017458861809118768 0.13881381005380972 -0.09073881199572081 0 0 0 0
86000001 -0.037604658863403535 -0.01734138624827259 0.12363261109412071 -0.08701282043604494 0 0 0 0
87000001 -0.03720023519031643 -0.017099187840179837 0.11123638433346665 -0.0829237297109308 0 0 0 0
88000001 -0.03667967706314411 -0.016948891181995777 0.10102735450866508 -0.0818139697703377 0 0 0 0
89000001 -0.036243830052284015 -0.017052946759431968 0.09142069289335895 -0.07882320329882123 0 0 0 0
90000001 -0.03640682573469367 -0.016937775808412266 0.08281127368996347 -0.07621467966411846 0 0 0 0
91000001 -0.036115331415230455 -0.016820343602003168 0.07497268390707967 -0.07345286448559993 0 0 0 0
92000001 -0.03556079474454364 -0.01670530993363921 0.06851339997736598 -0.07082173365256748 0 0 0 0
93000001 -0.03528194677044533 -0.016831381684745454 0.06244863858229596 -0.06800321270483568 0 0 0 0
94000001 -0.035292501668189015 -0.016965278176789285 0.05581822895736296 -0.06402243901169027 0 0 0 0
95000001 -0.03502845761754078 -0.017149218995757425 0.05114287495398219 -0.06018152252715515 0 0 0 0
96000001 -0.0349929781829125 -0.017225287580587254 0.04721984784986623 -0.05318830578950944 0 0 0 0
97000001 -0.03483670159635472 -0.016991207328006828 0.04720906373013076 -0.04564857049674452 0 0 0 0
98000001 -0.0345142152397492 -0.017096643307277785 0.05526963766715294 -0.040467648126239784 0 0 0 0
99000001 -0.03399669371701933 -0.017152878686142226 0.06665541608507385 -0.04690371424954874 0 0 0 0
100000001 -0.03403661810102958 -0.01710181925356283 0.0640774404508013 -0.06213309698057069 0 0 0 0
