# HZ S RI R 50
1 -0.3477796172620567 -0.7136008038452022 -0.002534014574436798 0.002521940642917589 0 0 0 0
1000001 -0.008946052415427301 0.00025772479157904556 0.6795820717249695 -1.107184109326413 0 0 0 0
2000001 0.006209710583554111 -0.0027595527751118373 -0.5675550412374483 -2.796056011057471 0 0 0 0
3000001 -0.00889258926383437 0.000959973585052096 -2.3949302762215323 -3.150691440838933 0 0 0 0
4000001 -0.008730137662619796 0.0018634801527510562 -3.992305483004736 -2.5843213505332177 0 0 0 0
5000001 -0.0070776328943209605 -0.005821375866018895 -5.118721609004498 -1.4839378048931362 0 0 0 0
6000001 0.0008886689523158385 0.001972937696483897 -5.758525988517219 -0.12106126916074421 0 0 0 0
7000001 -0.007998065425440196 0.003606735337499255 -5.926883014519043 1.263549524972476 0 0 0 0
8000001 -0.009816979103859015 0.00400385284376817 -5.6749578930071305 2.5781988664285533 0 0 0 0
9000001 -0.007517233230020667 0.006448275492607959 -5.1281744633404625 3.7004002997130025 0 0 0 0
10000001 -0.0031537803770311968 -0.004526692199272104 -4.355535733251732 4.572886285049217 0 0 0 0
11000001 -0.004531289597768935 0.0051687843991469135 -3.5027964441034736 5.274200206038772 0 0 0 0
12000001 -0.009342341592430359 0.006117160913411042 -2.5921478094390746 5.739543595621285 0 0 0 0
13000001 -0.003879303533036986 0.004213171996439368 -1.6167292014212968 5.999713383710241 0 0 0 0
14000001 -0.0047918105120844335 0.006157678601971799 -0.6839685571430989 6.088148586055752 0 0 0 0
15000001 -0.004405271569433037 0.0061173796558018296 0.2060655400283507 6.016389448366882 0 0 0 0
16000001 -0.00688355585358965 0.001796599156704452 1.01068215997528 5.802862382925985 0 0 0 0
17000001 -0.0054448834223778985 0.010403094168933915 1.773197114258288 5.514652490896158 0 0 0 0
18000001 -0.0033183574966070732 0.006112656732541386 2.4189966672013643 5.104849966897531 0 0 0 0
19000001 -0.008970681311290788 0.00848694686502227 2.9800880568782464 4.660800124041905 0 0 0 0
20000001 -0.0008886543661474989 0.007806326703625776 3.448919342634707 4.119403541013495 0 0 0 0
21000001 -0.00026456481391164664 0.008096762212554839 3.813203919471537 3.563925726917661 0 0 0 0
22000001 0.0007290637481125239 0.008432800067153086 4.0850711895903205 2.985437388834398 0 0 0 0
23000001 0.002078033915229673 0.00861263954572487 4.271359484236756 2.4177550129028558 0 0 0 0
24000001 0.0032545672408941613 0.008975513767256516 4.383369725903255 1.8674160136890052 0 0 0 0
25000001 0.00462666463476761 0.00900927548717074 4.449060294220924 1.3461761271505674 0 0 0 0
26000001 0.006056887184515993 0.009086428306524265 4.472211785972176 0.8594019580373147 0 0 0 0
27000001 0.0074564509969955095 0.008953606620291349 4.452042915019428 0.39133995442059866 0 0 0 0
28000001 0.009174238134515155 0.008591206904720563 4.381120173122513 -0.06224342947893023 0 0 0 0
29000001 0.010812084658208418 0.008160562012360432 4.266088205653647 -0.49223633590291604 0 0 0 0
30000001 0.012985048945158806 0.007766601596376094 4.101627137540894 -0.8979096361064014 0 0 0 0
31000001 0.01463837412504521 0.0070143131921695445 3.8975911709506317 -1.2678747450039054 0 0 0 0
32000001 0.01663328440217721 0.006050365512462457 3.663640563301382 -1.5997159959520535 0 0 0 0
33000001 0.018704561807993455 0.005065212569574274 3.3921130281297875 -1.8948183861001802 0 0 0 0
34000001 0.0203539824623959 0.0036433430384166547 3.099179757975374 -2.1488338816303947 0 0 0 0
35000001 0.022659958703383835 0.0018790143099583277 2.794900014918879 -2.366189704107065 0 0 0 0
36000001 0.024662722319390706 0.0002497939353891792 2.147123255357635 -2.3438256246817013 0 0 0 0
37000001 0.026774933389432723 -0.002363897784582031 1.4808704566398707 -2.091325894716034 0 0 0 0
38000001 0.028869762925961225 -0.0049494891570386335 1.05511960409323 -1.8806567558532734 0 0 0 0
39000001 0.030458465755906126 -0.007691503957295497 0.687106760990968 -1.7314091645506207 0 0 0 0
40000001 0.03244798147943994 -0.011227293161886925 0.4630486732796393 -1.6719168217502376 0 0 0 0
41000001 0.03364853262768865 -0.014923185742998234 0.2670334330287972 -1.597891123436623 0 0 0 0
42000001 0.03432776762748446 -0.018900521936373295 0.09913632419904189 -1.5410386109482035 0 0 0 0
43000001 0.0346745920639493 -0.022962387849945802 -0.014856333337161376 -1.519188288732617 0 0 0 0
44000001 0.03486140554242663 -0.027631823877172508 -0.13459496436759974 -1.5014839410143164 0 0 0 0
45000001 0.03444011784524996 -0.03245377965100926 -0.28559932764021145 -1.3838404085782423 0 0 0 0
46000001 0.03328905453116484 -0.037402353953479454 -0.4271748934496329 -1.2554774226623517 0 0 0 0
47000001 0.03168790728212141 -0.04241307911562913 -0.5198187990930846 -1.1229548963593379 0 0 0 0
48000001 0.02849476506398805 -0.04777095181206452 -0.6132678556873848 -1.0469991066635687 0 0 0 0
49000001 0.026909125680573343 -0.05347233001528118 -0.6932739304809239 -0.9243436774439946 0 0 0 0
50000001 0.022127539878099466 -0.05710107540877729 -0.8183701648869857 -0.7209632090746899 0 0 0 0
51000001 0.017258736715198862 -0.06145656780018867 -0.8865430310332577 -0.6806175271528774 0 0 0 0
52000001 0.01296576261664379 -0.06556460835683739 -1.0084884175383164 -0.47454123653469293 0 0 0 0
53000001 0.005527165435918833 -0.0684315275787147 -1.1167026703278633 -0.33678944708247305 0 0 0 0
54000001 -0.0010207476287208105 -0.07083106667900138 -1.1867434468738556 -0.20633505624260384 0 0 0 0
55000001 -0.006038988761938685 -0.07740885722144564 -1.2696421652893908 -0.1330148464979864 0 0 0 0
56000001 -0.015828404830499253 -0.07367754323082706 -1.2984690337049969 0.05673390262477137 0 0 0 0
57000001 -0.024045507109145728 -0.07359518133640293 -1.5919581291939586 0.20144254725956368 0 0 0 0
58000001 -0.032294187666578135 -0.07237504855312184 -1.4952652005705613 0.1671755691547912 0 0 0 0
59000001 -0.040844812608154 -0.06985314358191884 -1.3389112513688466 0.3231435835205745 0 0 0 0
60000001 -0.04923937005131757 -0.06651859108445073 -1.39328232049434 0.3604715704514788 0 0 0 0
61000001 -0.05736119122648427 -0.06163094034489194 -1.4924188968168568 0.49956573811215876 0 0 0 0
62000001 -0.06497886528054708 -0.055572172666671346 -1.5878281822035119 0.6675249393128757 0 0 0 0
63000001 -0.07239675214239985 -0.04772250710887689 -1.6597374499253081 0.6420604219441203 0 0 0 0
64000001 -0.07916913547636108 -0.04066279938098914 -2.019721713936565 0.7810585651429164 0 0 0 0
65000001 -0.08395775603188693 -0.029390512435273915 -1.601621550218028 0.6702804420062979 0 0 0 0
66000001 -0.08538158526162835 -0.016153553516353166 -1.5638840540485741 0.8387637321442388 0 0 0 0
67000001 -0.08647703534344346 -0.00422269641152167 -1.442313016196408 0.9577213615153738 0 0 0 0
68000001 -0.08585623414677064 0.007814634537042477 -1.3192586962452908 1.060465703199585 0 0 0 0
69000001 -0.08320786895282378 0.01987364309159011 -1.1895787657351127 1.152465114400334 0 0 0 0
70000001 -0.07908959865177768 0.031224125491838887 -1.048222990991055 1.23691620346778 0 0 0 0
71000001 -0.07335416892836352 0.04232270925057634 -0.8869384861037952 1.3010706637222673 0 0 0 0
72000001 -0.06601180037627996 0.05224056315521086 -0.7241528037933995 1.3302795245913173 0 0 0 0
73000001 -0.05695370481458315 0.06213114063931127 -0.5811525290577145 1.3227386991873196 0 0 0 0
74000001 -0.046354674914107295 0.07073972478750602 -0.4843188013270645 1.2996753487691621 0 0 0 0
75000001 -0.03578391094815125 0.07524790279645524 -0.4298236902108675 1.3021052713395316 0 0 0 0
76000001 -0.020815494821965336 0.08193639379089446 -0.37618629244852336 1.351929559844474 0 0 0 0
77000001 -0.007413119289583928 0.08467767325566046 -0.28700211801769093 1.4385967274216211 0 0 0 0
78000001 0.006382090520355621 0.0852225403291268 -0.14556125271857834 1.5152217656904556 0 0 0 0
79000001 0.01985677137659911 0.08353161579831955 0.02583817423437395 1.5556033054505711 0 0 0 0
80000001 0.032681777290278616 0.08060886984743558 0.2031907747439286 1.5643910188955137 0 0 0 0
81000001 0.04509019233705461 0.07606756945068646 0.37245009220830716 1.5396698548606949 0 0 0 0
82000001 0.056731198196039494 0.07034678487509907 0.5336718466523352 1.5002458789048005 0 0 0 0
83000001 0.06777649442643764 0.06321224606779009 0.690908544534421 1.4519740970110124 0 0 0 0
84000001 0.07711640797552502 0.054820665726305236 0.8518235783065724 1.3921394352601748 0 0 0 0
85000001 0.08553831489660256 0.04525601023060982 1.01156082362355 1.3194158141503365 0 0 0 0
86000001 0.0932063852371194 0.03387260282882593 1.2225122363547478 1.2369452360818172 0 0 0 0
87000001 0.09862694591455756 0.022424389636891796 1.4367545356886766 1.0513076630964577 0 0 0 0
88000001 0.1026422503305344 0.01102329260552935 1.5424983681954254 0.8239208871348409 0 0 0 0
89000001 0.10477895434591245 -0.00048383020163136637 1.66776240997073 0.6053086287472853 0 0 0 0
90000001 0.10568158046761954 -0.012221118702529187 1.7352713319810984 0.319306428146581 0 0 0 0
91000001 0.10505185619062128 -0.023457806921829572 1.7206481388169503 0.03032664127087087 0 0 0 0
92000001 0.10339698435655632 -0.03383990658573079 1.6422545505856119 -0.23289920600598235 0 0 0 0
93000001 0.10073016989052154 -0.04354747796731781 1.5210364519084 -0.45789002836889525 0 0 0 0
94000001 0.09749111812113637 -0.05277785901822921 1.364739848908949 -0.6445906427838843 0 0 0 0
95000001 0.09340144679708065 -0.06126831961488925 1.1893583334548445 -0.7895134622197709 0 0 0 0
96000001 0.08921077299888325 -0.06911103869316375 0.9914107961741132 -0.8772823402187494 0 0 0 0
97000001 0.08450647668803435 -0.07569747982536838 0.8123903645777846 -0.9155779495379738 0 0 0 0
98000001 0.07981761316815493 -0.08244789445891958 0.65253491652166 -0.9353426605984455 0 0 0 0
99000001 0.07383183045735008 -0.08918312889560706 0.48911090104779265 -0.9215171809732682 0 0 0 0
100000001 0.06747367312987919 -0.095113603095271 0.3406194631003245 -0.856900903830081 0 0 0 0
