# HZ S RI R 50
1 -1.2501562879927355 0.321170159786031 0.0005614499585654235 0.0032171932301547058 0 0 0 0
1000001 -0.00880525513038974 0.0005423874492285703 0.6593407296785423 -1.2156244963210903 0 0 0 0
2000001 -0.009213325765731377 0.0011588549610513346 -0.7953357354357581 -2.8788564908656173 0 0 0 0
3000001 -0.008458671964568659 0.0009420644503225719 -2.7047742340566128 -3.013048608031092 0 0 0 0
4000001 -0.00850221748793285 0.0019242920044575155 -4.22405426875608 -2.2604450696006917 0 0 0 0
5000001 -0.012814157419676639 0.00044463582973137494 -5.216708603311589 -1.0607317494030282 0 0 0 0
6000001 -0.011507799926245494 0.002404120868447496 -5.662974877212513 0.31824272365035083 0 0 0 0
7000001 -0.007880906114858999 0.0037009890442161533 -5.630444949000183 1.6896246851123653 0 0 0 0
8000001 -0.007229026874271042 -0.006225115151638786 -5.2085500497475925 2.869025727671337 0 0 0 0
9000001 -0.0072575128613189075 0.00656843628706877 -4.595330923053193 3.884507718893848 0 0 0 0
10000001 -0.004964128771216401 0.0045278740735703515 -3.782677625165182 4.650674438912289 0 0 0 0
11000001 -0.005806115036844747 0.005794263650820097 -2.9019622683779356 5.185210497946371 0 0 0 0
12000001 -0.005896861953755138 0.005202129530122128 -1.9923022405906905 5.513485635691188 0 0 0 0
13000001 -0.006756537486312151 0.007977919508472623 -1.0854960214456855 5.669090218729009 0 0 0 0
14000001 -0.009547891813938924 0.00919496916829029 -0.22658769284762106 5.654075545737972 0 0 0 0
15000001 -0.008323573909435727 0.006847113446133055 0.571912464983493 5.489901049041647 0 0 0 0
16000001 -0.0037893695138604645 0.006349986822838312 1.301249406839179 5.2101451357065995 0 0 0 0
17000001 -0.013847208648219705 0.0027929399919881313 1.9078966992412734 4.884823908986596 0 0 0 0
18000001 -0.007947843844584293 0.010700691108523216 2.4830136654347523 4.471822765960922 0 0 0 0
19000001 -0.007986056386643502 0.006873726453993702 2.929905286603444 4.006172300671455 0 0 0 0
20000001 -0.004938825864353609 0.005409309068037909 3.2941256240962984 3.49999535728694 0 0 0 0
21000001 -0.00039820523740949766 0.00802083411726635 3.575764847402597 2.970911663830493 0 0 0 0
22000001 -0.009789158839868894 0.010133860396027315 3.7737479387641364 2.466305245780716 0 0 0 0
23000001 0.0014123838866087692 0.007784959427905969 3.877734251420943 1.9307473113997766 0 0 0 0
24000001 0.002741817683687208 0.008368506363274367 3.946038730779861 1.4481491782256943 0 0 0 0
25000001 0.0044910355892833365 0.008986657420581613 3.9649349018715188 0.9892108382120791 0 0 0 0
26000001 0.0021826945512398587 0.009948138055931317 3.960201472724917 0.5727457122427255 0 0 0 0
27000001 0.007708800447132406 0.008929771260640105 3.9078210524787957 0.16360363626748978 0 0 0 0
28000001 0.008975577918522644 0.008511479170375143 3.8256107658083836 -0.22107618015840574 0 0 0 0
29000001 0.0108927487439731 0.008300290420801168 3.6957191029459606 -0.5894536730602709 0 0 0 0
30000001 0.012903321731791805 0.007642012718182288 3.5348344688500806 -0.9245302117754884 0 0 0 0
31000001 0.014707728701536275 0.006952793518014858 3.3415628019666097 -1.2326256335956354 0 0 0 0
32000001 0.01643053072255997 0.006023411724343385 3.123765122917582 -1.5028414161404997 0 0 0 0
33000001 0.018599291399963858 0.004996745559073571 2.8785279833520585 -1.7425699609292287 0 0 0 0
34000001 0.020695081538409783 0.003595049684716726 2.6132908521981872 -1.9455962806230747 0 0 0 0
35000001 0.02253331954840544 0.0017558045361946073 2.343313877396237 -2.116460087200058 0 0 0 0
36000001 0.02460083529665134 0.00012668969188718554 1.775564181202167 -2.0651792798269764 0 0 0 0
37000001 0.02685189753783177 -0.0020273309193742125 1.2242043761420485 -1.8380347202082086 0 0 0 0
38000001 0.028989415138710683 -0.004599230129248365 0.8754497802964333 -1.6386293901853348 0 0 0 0
39000001 0.030709935571147914 -0.007593293889905188 0.5992006889780035 -1.520180334070326 0 0 0 0
40000001 0.0323433892020861 -0.01127543783275819 0.38511969955195124 -1.4438455769908352 0 0 0 0
41000001 0.03371352161104052 -0.014714192853119066 0.20649473055616235 -1.3851003448571035 0 0 0 0
42000001 0.03419944752864771 -0.018693921216297812 0.07457132505375075 -1.3272270862103515 0 0 0 0
43000001 0.034746076526467565 -0.022966394920779787 -0.025887027311059865 -1.3111762758134098 0 0 0 0
44000001 0.034804888493769726 -0.02767147434882534 -0.12618522002920715 -1.300672883512653 0 0 0 0
45000001 0.034250045584407536 -0.03247607615079681 -0.2504704438000056 -1.1926077600581886 0 0 0 0
46000001 0.03328974498253026 -0.03737706612317366 -0.36310603387808693 -1.075185758821109 0 0 0 0
47000001 0.03175474545414946 -0.04246350053437703 -0.4363450865779809 -0.9525240480677679 0 0 0 0
48000001 0.028527250415898202 -0.04719042382038946 -0.5149903373881975 -0.8964047955857771 0 0 0 0
49000001 0.025965908250630294 -0.05213783529742196 -0.591016395522911 -0.7608850746313471 0 0 0 0
50000001 0.022211434302098168 -0.05691138468560914 -0.662608903659547 -0.5684620333811973 0 0 0 0
51000001 0.01716515675862083 -0.06134084325513439 -0.7173973323520252 -0.5075209705045868 0 0 0 0
52000001 0.011748402630525024 -0.0648682831277164 -0.8320580742737529 -0.37125217116940584 0 0 0 0
53000001 0.005447138748516195 -0.0682495028596721 -0.8923637435853502 -0.1873486042515369 0 0 0 0
54000001 -0.0008621346352885166 -0.07090517144192413 -0.9347590944812735 -0.09623995661126591 0 0 0 0
55000001 -0.00827767816128358 -0.07258562942974348 -0.9928000200497114 0.036930949496261925 0 0 0 0
56000001 -0.015793791366196314 -0.07343665418661863 -1.00413539313992 0.22430851131688026 0 0 0 0
57000001 -0.023766156224453903 -0.07351550709831568 -1.25779505958138 0.27354971333378547 0 0 0 0
58000001 -0.03217971970910807 -0.07224363799978202 -1.2686510833335887 0.2525537092506883 0 0 0 0
59000001 -0.04107422228159643 -0.06985770853452979 -1.110937841331189 0.3562392332379409 0 0 0 0
60000001 -0.049006110698835446 -0.06668757448993931 -1.1301193375625178 0.3742398746473665 0 0 0 0
61000001 -0.057286591654277186 -0.061717227745251256 -1.2392550160419928 0.37435830976253376 0 0 0 0
62000001 -0.06513627797781285 -0.05559729325308818 -1.426071721551224 0.725943052770098 0 0 0 0
63000001 -0.07265302515080316 -0.047773753792617675 -1.3957044261679643 0.5471525130198776 0 0 0 0
64000001 -0.07900869837265008 -0.03848264811764957 -1.8256869163380571 0.6850908539042709 0 0 0 0
65000001 -0.08382545630576631 -0.028082003544021693 -1.3991815508371537 0.5555768495410734 0 0 0 0
66000001 -0.08549943262840003 -0.01604065798441653 -1.3760362732531408 0.699889492128163 0 0 0 0
67000001 -0.08644502197892975 -0.004178313494364481 -1.2764329414381204 0.8073226472333231 0 0 0 0
68000001 -0.08586115569063996 0.007844704915837698 -1.1727953651711058 0.899517125760974 0 0 0 0
69000001 -0.08332505487752599 0.019848663337024217 -1.0652605047661658 0.9855845555323347 0 0 0 0
70000001 -0.07900746886871823 0.03146118539887367 -0.9439654697635841 1.0657251443604845 0 0 0 0
71000001 -0.07333530949952355 0.04237735186354821 -0.8038482295248927 1.1261883653579654 0 0 0 0
72000001 -0.0658967894247419 0.05255512816761105 -0.660516021706661 1.1534810772249213 0 0 0 0
73000001 -0.05701232429578395 0.062076432196251724 -0.540450542164004 1.1454318736853166 0 0 0 0
74000001 -0.046371319102693875 0.07078584997116234 -0.4612246522678488 1.1308782550911969 0 0 0 0
75000001 -0.034444899230336244 0.07746386709792509 -0.4208199698698774 1.1426998627766585 0 0 0 0
76000001 -0.02096808667407126 0.08237271980060691 -0.38274800109912255 1.200389652664542 0 0 0 0
77000001 -0.007485727800455926 0.08477471345386293 -0.30598152604902035 1.2942448038831103 0 0 0 0
78000001 0.006685646670093432 0.08532780138919188 -0.17191353848407762 1.3835042521035632 0 0 0 0
79000001 0.02000066191092131 0.0835357699715238 -0.008513884683854875 1.4268397886778783 0 0 0 0
80000001 0.030872368864516563 0.08336050688607 0.16411220080889505 1.439728647799128 0 0 0 0
81000001 0.04142898652170363 0.08005734960010234 0.3286399944799659 1.42513715567878 0 0 0 0
82000001 0.05660232282837795 0.07016522606866507 0.47994008918135866 1.3922931579456326 0 0 0 0
83000001 0.06618450118046168 0.06209244712767181 0.639410459998615 1.3500444836453211 0 0 0 0
84000001 0.07716760789043953 0.055384569572177744 0.7933408956353214 1.2909329325384988 0 0 0 0
85000001 0.08573851964855343 0.045160640617543525 0.9529776956233293 1.2389210807672655 0 0 0 0
86000001 0.09324900346628474 0.03357467602573388 1.1628404917366755 1.1436979657626911 0 0 0 0
87000001 0.09833059904290127 0.022425508445195072 1.3297016624789793 0.9450922647099171 0 0 0 0
88000001 0.10265335220060284 0.010740892131201649 1.4642758594524756 0.7801125386485767 0 0 0 0
89000001 0.10509202558868458 -0.0005856499767918707 1.5978414237059435 0.5373987151855273 0 0 0 0
90000001 0.10557448636623167 -0.012197048578594528 1.6526957729321872 0.24704420391764237 0 0 0 0
91000001 0.10501966777991242 -0.023414179087162625 1.6268736889919582 -0.03668969821805754 0 0 0 0
92000001 0.10326397056753021 -0.03376864569295285 1.5390441994715267 -0.29165314656098773 0 0 0 0
93000001 0.10065627942038825 -0.04365558498261953 1.4120814591912165 -0.503856337937101 0 0 0 0
94000001 0.09746464899025256 -0.05288917438523202 1.2531644099634613 -0.6809845786168646 0 0 0 0
95000001 0.09313837703493409 -0.06118145992911113 1.0640589566539664 -0.814862220042486 0 0 0 0
96000001 0.08883647619541875 -0.06938303649588666 0.8683477532359736 -0.8902420214397149 0 0 0 0
97000001 0.08457343370261146 -0.07536850710917291 0.6902365044591035 -0.9164741946383803 0 0 0 0
98000001 0.0796157598557872 -0.08233655829663211 0.5326107725839869 -0.9243381023352817 0 0 0 0
99000001 0.07399266523441153 -0.0889428108091427 0.3718371989262635 -0.9009460962220982 0 0 0 0
100000001 0.06746932001103828 -0.09492527082452114 0.23475469433498292 -0.8114234875695288 0 0 0 0
