# HZ S RI R 50
1 0.7606599011169985 0.04392075005939699 -0.06327477486465949 -0.044961122966577484 0 0 0 0
1000001 -0.008448156525137357 0.00038696243025622575 0.18798535351785167 -1.3025645519496611 0 0 0 0
2000001 -0.006437204397076695 -0.0017076548382360278 -1.4057861984203515 -1.860212236165274 0 0 0 0
3000001 -0.0018162564066007843 -0.0046741298888800875 -2.429464227900332 -1.3419944889799884 0 0 0 0
4000001 -0.007777010013669087 -0.000351165761423414 -2.9935446896828335 -0.6111195062127374 0 0 0 0
5000001 -0.008220769784611814 0.0024872597839514783 -3.233059514852005 0.20467197804787765 0 0 0 0
6000001 -0.007759357323606892 0.002891601076233424 -3.1862204293699374 0.9786719709910257 0 0 0 0
7000001 -0.007651720940237752 0.003430902799918346 -2.9269549050582433 1.6646857515295133 0 0 0 0
8000001 -0.009770331283399835 0.003684011322782411 -2.524153712677681 2.213054943355247 0 0 0 0
9000001 -0.0072443762639428705 0.006351217612076266 -2.039814337537625 2.6169757425748723 0 0 0 0
10000001 -0.006345949488627713 0.0004807653191213896 -1.5139867811761345 2.870880447513769 0 0 0 0
11000001 -0.005474160409423999 0.0048095832767008385 -0.9905934853979703 3.0117877480254727 0 0 0 0
12000001 -0.007079918385409776 0.0016806648439780497 -0.5000594635876856 3.036527096013082 0 0 0 0
13000001 -0.005059360916604857 0.0048874440693204325 -0.029292814385525983 2.988372972465047 0 0 0 0
14000001 -0.004814341417175201 0.005733923651616668 0.38469387467815014 2.8572691545717737 0 0 0 0
15000001 -0.004389280073360631 0.006086638669531438 0.7410378364280106 2.678171898939231 0 0 0 0
16000001 -0.004652688115533144 0.008537547171081319 1.0502335258070534 2.4644926678740937 0 0 0 0
17000001 -0.005078246827035365 0.008404077285230016 1.3053524790305815 2.227449394172147 0 0 0 0
18000001 -0.004091425759106118 0.005662746358715541 1.5076096290965597 1.9707278039533367 0 0 0 0
19000001 -0.0025002275467983425 0.007843805041079446 1.667597938234372 1.7047417349930722 0 0 0 0
20000001 -0.0010685816629016891 0.007672932675868383 1.7815416824924126 1.4369789817035123 0 0 0 0
21000001 -0.0003156821445757411 0.008075450931298734 1.8521360334160308 1.1709450262431857 0 0 0 0
22000001 0.0003981482043647889 0.008453516000340867 1.8860422208894425 0.9127429447125377 0 0 0 0
23000001 0.0018419415582547568 0.00862825377457804 1.8907026034396397 0.672677342548735 0 0 0 0
24000001 0.003234638068580113 0.008985312143133469 1.86607451123686 0.4529950749804229 0 0 0 0
25000001 0.004321208347224228 0.009027977225509071 1.8483617884731625 0.2505342336613008 0 0 0 0
26000001 0.005973638532607114 0.009137044792770482 1.8163493489440041 0.06494611888770671 0 0 0 0
27000001 0.0074617878284741505 0.008984048003114895 1.768754744021314 -0.10472935743222478 0 0 0 0
28000001 0.009102003216954153 0.00852446411165592 1.7049537604939913 -0.26782523418390713 0 0 0 0
29000001 0.010792060718976352 0.00854015702418448 1.6288116559865613 -0.4159981516652343 0 0 0 0
30000001 0.012904364693267924 0.007971915855365667 1.5318121637154196 -0.5505460290622075 0 0 0 0
31000001 0.014553496144268218 0.00719683989871813 1.428847267918572 -0.6690380367621297 0 0 0 0
32000001 0.0165265828901709 0.006320474190435275 1.318969954253132 -0.7710224966546689 0 0 0 0
33000001 0.018579985996271437 0.005130495580491033 1.196207230105612 -0.8577794127668859 0 0 0 0
34000001 0.020499500556890444 0.003772527387690145 1.0710075895853048 -0.9251127468584639 0 0 0 0
35000001 0.022636500392364978 0.0019562641710798604 0.9275838471475856 -0.9625230190817795 0 0 0 0
36000001 0.024710814242125193 0.000174854272277982 0.6671516977583097 -0.896496396248129 0 0 0 0
37000001 0.02699612210571238 -0.0020340024513303035 0.412226518695592 -0.7338687384327692 0 0 0 0
38000001 0.02905290659302186 -0.004707237664079056 0.2821450556171663 -0.6458124440747097 0 0 0 0
39000001 0.030800482882946408 -0.007670478145698841 0.1747346439778418 -0.5756697020987848 0 0 0 0
40000001 0.03259337715303801 -0.011083886772517017 0.1158165909391353 -0.5508367604604042 0 0 0 0
41000001 0.033789231312699404 -0.014752324216625793 0.06589297435782385 -0.5093873906051862 0 0 0 0
42000001 0.03452884293402655 -0.01854230579487348 0.030188262361278917 -0.4873641346285613 0 0 0 0
43000001 0.03476300491030542 -0.02311108448358134 -0.006455378659593966 -0.4979132572453881 0 0 0 0
44000001 0.035091188654645986 -0.027804860175117987 -0.04674295311639019 -0.5119088858132401 0 0 0 0
45000001 0.0343756340513206 -0.032549108763213416 -0.07223464383630444 -0.487087589351102 0 0 0 0
46000001 0.03335213133800711 -0.03756989806216717 -0.10629053133836693 -0.4703410058289504 0 0 0 0
47000001 0.03167849101815534 -0.04252345895986094 -0.13732186615556286 -0.4303124564114272 0 0 0 0
48000001 0.02858960942347624 -0.04732130358803275 -0.16203032675354365 -0.39853599554731095 0 0 0 0
49000001 0.02573157949225958 -0.05235741489954702 -0.1901998881632098 -0.3680789201259716 0 0 0 0
50000001 0.02205853727585689 -0.05701020150547784 -0.19114103489496934 -0.326410504809996 0 0 0 0
51000001 0.017308375876060423 -0.06170630004975999 -0.20625188366270322 -0.3049554273926595 0 0 0 0
52000001 0.011531730345296492 -0.06529471704693379 -0.20415369415396217 -0.2460298609096298 0 0 0 0
53000001 0.005474971744582342 -0.06875453760649831 -0.18401653476587218 -0.20191717357567768 0 0 0 0
54000001 -0.0010199724312016788 -0.07123510282632556 -0.23404070304501606 -0.17838593187496998 0 0 0 0
55000001 -0.00829207915843897 -0.07309003501098077 -0.19921815566520873 -0.12191546178064272 0 0 0 0
56000001 -0.016092092454890305 -0.07406161247438721 -0.15116619703995965 -0.1201457534782113 0 0 0 0
57000001 -0.024314606802124685 -0.07418065838733394 -0.27940688510917183 0.07363075902275878 0 0 0 0
58000001 -0.03298114394668504 -0.07307562852141586 -0.3970575850091619 0.21505447997507318 0 0 0 0
59000001 -0.041815144786607875 -0.07039734416511458 -0.5063414299276762 0.29934541819533633 0 0 0 0
60000001 -0.05027157091334658 -0.06731752723786052 -0.6044224801406132 0.2589448991881474 0 0 0 0
61000001 -0.058526175294213105 -0.061955898255280896 -0.7362582477869225 0.2525093637179749 0 0 0 0
62000001 -0.06650840092919365 -0.055367687534746246 -0.780621974237633 0.6803253871917151 0 0 0 0
63000001 -0.073938778805606 -0.04711477994961863 -0.6951171134640396 0.40816030998888386 0 0 0 0
64000001 -0.08016330887077468 -0.03787634221045737 -0.975931237804866 0.34911641298172613 0 0 0 0
65000001 -0.08466207753506819 -0.027617515308525766 -0.7679539651155813 0.15862582500695382 0 0 0 0
66000001 -0.08620719453752573 -0.015503967725626603 -0.7773082217428618 0.2334739629862426 0 0 0 0
67000001 -0.08700778039730274 -0.0036091898398449684 -0.7463456577530213 0.30638112680731466 0 0 0 0
68000001 -0.08630776815164169 0.008453711017019758 -0.710887905793434 0.3751230599186736 0 0 0 0
69000001 -0.08358762512558776 0.020655734596391587 -0.6663960512032333 0.4427821417553815 0 0 0 0
70000001 -0.079478296151426 0.0321965585558642 -0.610577179821824 0.5095937261665822 0 0 0 0
71000001 -0.07344313561784592 0.04319220606475473 -0.5355982850998502 0.5591436846206217 0 0 0 0
72000001 -0.06606870918682585 0.05354869588378775 -0.46000527301594873 0.5830697269923126 0 0 0 0
73000001 -0.05698775350041008 0.06325916210285079 -0.4056768358904314 0.5828921248640715 0 0 0 0
74000001 -0.046169454500992795 0.07177304179380259 -0.392937411154982 0.5830767959348816 0 0 0 0
75000001 -0.033748249956925665 0.07836953948050833 -0.4047083693043388 0.6233422876194319 0 0 0 0
76000001 -0.020171152020613755 0.08321043634158941 -0.40611284192446173 0.7171553918568412 0 0 0 0
77000001 -0.006513286981183657 0.08532317599849988 -0.35498984030361674 0.8426813641185728 0 0 0 0
78000001 0.00715861002822657 0.08545610591390101 -0.24186396053638504 0.9544768321562543 0 0 0 0
79000001 0.02082029865051164 0.08368225219183181 -0.09326509452336412 1.0228019677423625 0 0 0 0
80000001 0.033692561184723795 0.08054144726552837 0.056638910053794546 1.047668786749324 0 0 0 0
81000001 0.045933898426723796 0.07576219086382789 0.2024046258774737 1.0471093934276832 0 0 0 0
82000001 0.0573557779517571 0.07006672546763498 0.3403696811347721 1.034825362794934 0 0 0 0
83000001 0.06864957667194718 0.0627779860206861 0.4799093434937872 1.0132666493595837 0 0 0 0
84000001 0.07803989798899881 0.054315592258223966 0.6317587445233126 0.9678630988642941 0 0 0 0
85000001 0.08631722631785803 0.04435074910173059 0.7989311277982616 0.9128545887867322 0 0 0 0
86000001 0.0932054437346975 0.03279324352503342 0.9583474204455531 0.7822896713849153 0 0 0 0
87000001 0.09861837141382614 0.02220784442840172 1.089049083409718 0.6782425906266523 0 0 0 0
88000001 0.10297386448549915 0.010104795200679625 1.2554860023898544 0.4963410893095436 0 0 0 0
89000001 0.10486601528921993 -0.0014297165988983787 1.3607484754663068 0.2410246207294935 0 0 0 0
90000001 0.1054455006616496 -0.01286829449976216 1.3766794789084 -0.04117222018507201 0 0 0 0
91000001 0.10474269993292762 -0.023997350895506024 1.312046287761228 -0.3055721917887706 0 0 0 0
92000001 0.1032046259238348 -0.03443921732113126 1.1921026519979223 -0.5316477148913944 0 0 0 0
93000001 0.10024147632488806 -0.04400393831177476 1.0331284711250848 -0.7138209344232996 0 0 0 0
94000001 0.09719871300870651 -0.05296230993854691 0.8558359985349315 -0.8491043395644366 0 0 0 0
95000001 0.09274011454808569 -0.061542750078794825 0.6473587628610612 -0.942311477075739 0 0 0 0
96000001 0.08858892335896668 -0.06923054165813265 0.43641306939055097 -0.9748533915842237 0 0 0 0
97000001 0.0839353279644335 -0.07572333893958028 0.253898831601361 -0.9509129466176252 0 0 0 0
98000001 0.07914122288102493 -0.0824349159484413 0.0994975784627387 -0.9052308784457112 0 0 0 0
99000001 0.07366829428182513 -0.08913991146312816 -0.0484668162739394 -0.8411555104115399 0 0 0 0
100000001 0.06700454773118349 -0.0948516415218417 -0.16231171453481938 -0.7142461899127329 0 0 0 0
