# HZ S RI R 50
1 -1.7824228546625591 0.711884265299867 0.00028520823172702506 -0.00016333945939402838 0 0 0 0
1000001 -0.008758251456318929 0.0009630312699918674 -0.03466853680543876 0.33361735796118175 0 0 0 0
2000001 -0.008325411298309097 0.001148165620417917 0.2802057867111448 0.629137027844074 0 0 0 0
3000001 -0.007932501803318842 0.001573650649901786 0.6488924506747626 0.6750217146738587 0 0 0 0
4000001 -0.007753760296642672 0.0016322341602958707 0.9602577486262752 0.5647254961696432 0 0 0 0
5000001 0.0007323818595677098 -0.002248747476750738 1.18540771541741 0.36514252908861783 0 0 0 0
6000001 -0.003088009206711555 0.0031224095827779015 1.3203350904280893 0.11806913499863637 0 0 0 0
7000001 -0.0066293678345966745 0.0019575040412394243 1.3695907424199196 -0.13908510994305845 0 0 0 0
8000001 0.002384764080864542 0.013443862439260152 1.347481637897264 -0.3931374801069694 0 0 0 0
9000001 0.00012812970482580695 -0.0035758734419069397 1.2685638570098725 -0.5939826619605895 0 0 0 0
10000001 -0.006120333649141688 0.00036350537748545037 1.159395093094385 -0.76916712809597 0 0 0 0
11000001 -0.003996037567590754 0.0013738131151036057 1.02577013815872 -0.9130981663249857 0 0 0 0
12000001 -0.0016720191670458733 0.0006174602175310737 0.8795155527210629 -1.0174865198131509 0 0 0 0
13000001 -0.003645052145811071 0.001377311606833229 0.7331331359341535 -1.0871869562134646 0 0 0 0
14000001 -0.0016414455635789917 0.002663986706961467 0.5861609810208774 -1.1340580047219093 0 0 0 0
15000001 -0.0036541446591239757 0.002178434524040207 0.4474452367329771 -1.158133406144065 0 0 0 0
16000001 -0.0005315593699799729 0.0033873083805413774 0.3133271733598648 -1.160628462222004 0 0 0 0
17000001 -0.002394240736754668 0.002365276646686595 0.19210511629715626 -1.150383008635542 0 0 0 0
18000001 -0.0018717576955969292 0.0017836889113443043 0.078839747906075 -1.1263616725377426 0 0 0 0
19000001 -0.0014144184281488636 0.0017534634319737329 -0.02255152889337549 -1.0928030630657677 0 0 0 0
20000001 -0.0009246288379268644 0.0015839663646489395 -0.11496921772930259 -1.0513739985509343 0 0 0 0
21000001 -0.0003560388665953463 0.0014934820782457117 -0.19668561131953166 -1.004417845746693 0 0 0 0
22000001 -2.4845118255231216e-05 0.0012750995108318616 -0.26938124353100945 -0.9535567194272853 0 0 0 0
23000001 0.0010588329991424433 0.0008693205118172155 -0.33237247757352756 -0.8989395082429499 0 0 0 0
24000001 0.001668077505299103 -0.001846976318811492 -0.38693989140908036 -0.8455759142683943 0 0 0 0
25000001 0.0022920264830921713 0.0008236614072998902 -0.437452238853866 -0.7880152879071396 0 0 0 0
26000001 0.003038721294528736 0.00045766553794249166 -0.4790837465363355 -0.7303454480967165 0 0 0 0
27000001 0.0035474688720713637 0.00014777692511858549 -0.5143770734683446 -0.6746274288941962 0 0 0 0
28000001 0.0042944777042502455 -2.9827117833229005e-05 -0.5445466625165021 -0.6185280508075167 0 0 0 0
29000001 0.004960907124992162 -0.00047575897403990435 -0.5704843200124314 -0.5633412491806726 0 0 0 0
30000001 0.005967897728593875 -0.0009544819797938116 -0.590512187300432 -0.5081718192829584 0 0 0 0
31000001 0.006607660252724668 -0.0015006954969911158 -0.6064613885454577 -0.4542080756206895 0 0 0 0
32000001 0.007612809174802102 -0.0019367941153446032 -0.618932975437785 -0.4033247545732252 0 0 0 0
33000001 0.008518926312046182 -0.0022160212089131293 -0.6267981247709866 -0.351903045544419 0 0 0 0
34000001 0.00930509918993443 -0.002893033094030811 -0.6309124499119986 -0.30351810209515895 0 0 0 0
35000001 0.010398952563505924 -0.0037213283671035787 -0.6331506462660089 -0.2557968971228876 0 0 0 0
36000001 0.011309494744079872 -0.004493878310287094 -0.6321765137476901 -0.21078218355884418 0 0 0 0
37000001 0.012353525286900757 -0.005420039912220622 -0.6287652362789089 -0.16802519009863084 0 0 0 0
38000001 0.013173444920119817 -0.006316908441780786 -0.6229888740497855 -0.12551564147266442 0 0 0 0
39000001 0.01421777562551907 -0.007793370276746465 -0.6150801888117545 -0.0867945544796556 0 0 0 0
40000001 0.01516039218778531 -0.008633359918166432 -0.6064879382205766 -0.04806476804825642 0 0 0 0
41000001 0.016136578452537062 -0.009664360784190692 -0.5953641263542091 -0.011707328386148467 0 0 0 0
42000001 0.01684709220797447 -0.010989338109093437 -0.5837077497359979 0.021626655454777093 0 0 0 0
43000001 0.017652621727911353 -0.012571548141600648 -0.5712172708043467 0.05741060981158679 0 0 0 0
44000001 0.018427665543060134 -0.014150407867920751 -0.5546188294652465 0.0902390241050182 0 0 0 0
45000001 0.01958534091902478 -0.015433837967608693 -0.5378282088774963 0.12017643734287725 0 0 0 0
46000001 0.020148285994230544 -0.017304717037315384 -0.52005470057133 0.15002167431016034 0 0 0 0
47000001 0.020725035005405623 -0.018993794238866914 -0.5017107544026351 0.1774983043499944 0 0 0 0
48000001 0.021294063712177447 -0.020736669345619053 -0.48232644716225914 0.20509280461354046 0 0 0 0
49000001 0.021946979771227525 -0.02299395302262384 -0.4618293843180362 0.22885981123241486 0 0 0 0
50000001 0.022298468717897774 -0.025448189824925426 -0.4394171998457249 0.25438283310605514 0 0 0 0
51000001 0.022281909296867877 -0.027475776090417108 -0.4160936051659773 0.2774189886668892 0 0 0 0
52000001 0.02241610303375955 -0.02977060282917309 -0.3912755584670793 0.299481036865415 0 0 0 0
53000001 0.02204820794434752 -0.03212646686610697 -0.36428672070940593 0.3201247715188624 0 0 0 0
54000001 0.02164552549700832 -0.03441724402160921 -0.3351616706745185 0.33899913108123936 0 0 0 0
55000001 0.021173044737396018 -0.036856752881945155 -0.30196150170448455 0.355076720353477 0 0 0 0
56000001 0.020128328821179004 -0.039017708053740656 -0.26544466362813113 0.3644955149718853 0 0 0 0
57000001 0.0193762287932827 -0.041565459449040165 -0.23021778645028607 0.3616274822844915 0 0 0 0
58000001 0.01824451575218825 -0.04370493713661521 -0.21022342447862258 0.3525197151796174 0 0 0 0
59000001 0.016798371587204677 -0.046130552013768054 -0.19794346363082096 0.35549215755237823 0 0 0 0
60000001 0.014969083298713055 -0.0480258844384483 -0.1807447076190897 0.3643144155584959 0 0 0 0
61000001 0.01337603591896848 -0.05009092190976234 -0.15750024195267276 0.37314467674202956 0 0 0 0
62000001 0.011364416071545314 -0.05171733949470418 -0.13234129023458596 0.3791499135489063 0 0 0 0
63000001 0.00924822477818965 -0.05338306477836164 -0.1056469280095412 0.38163481430112783 0 0 0 0
64000001 0.006865867461452209 -0.05494270709659116 -0.07902117139003044 0.3816814038222568 0 0 0 0
65000001 0.0045341682197437136 -0.05592129460660669 -0.05285099502290829 0.3786543649218395 0 0 0 0
66000001 0.0024591504271016798 -0.056993049231891184 -0.026388357343795577 0.3738631962937668 0 0 0 0
67000001 -1.7027126359552434e-05 -0.057542448202449324 4.455924976933673e-05 0.3638690893022452 0 0 0 0
68000001 -0.0024350113593454613 -0.057620523991026074 0.022617011712658848 0.3515314956852977 0 0 0 0
69000001 -0.004763171011209211 -0.05814834449403769 0.04198421416461187 0.33515607356143845 0 0 0 0
70000001 -0.007018950612907079 -0.058049572751625526 0.05459727487595096 0.31668759975573246 0 0 0 0
71000001 -0.008955950671481043 -0.05799895047862093 0.060751075942793886 0.2969402010830286 0 0 0 0
72000001 -0.01117536422483626 -0.057319763138432504 0.05834207465270483 0.28126058135365173 0 0 0 0
73000001 -0.013132574328943955 -0.057089627162669694 0.04778559411546572 0.27308312687957587 0 0 0 0
74000001 -0.014628415557984407 -0.05638229143084242 0.030060988631672274 0.2764895518893857 0 0 0 0
75000001 -0.01637043270273833 -0.05562562029387606 0.00745849992590945 0.2989597458844559 0 0 0 0
76000001 -0.01757981024901461 -0.05493429629755414 -0.010655360602996334 0.35686996476678734 0 0 0 0
77000001 -0.019001038208181765 -0.05430484198445698 0.013059135089269964 0.46512177284549455 0 0 0 0
78000001 -0.020450933060254705 -0.05318517719424546 0.1611902133294992 0.5777622597194553 0 0 0 0
79000001 -0.02135472470773257 -0.0528069506623412 0.39620508350429895 0.5252223965152529 0 0 0 0
80000001 -0.022628878489346953 -0.05173130356653113 0.4930476125706302 0.3357508878482744 0 0 0 0
81000001 -0.023422354458013796 -0.050730288458702186 0.47165519632644537 0.1903928569003556 0 0 0 0
82000001 -0.023859702664106232 -0.049767272088212994 0.42410224069104013 0.10781930555774527 0 0 0 0
83000001 -0.02458136237172009 -0.04857133261915894 0.37964410975302293 0.059570592823490975 0 0 0 0
84000001 -0.024665817966011333 -0.048000029507718374 0.341832515517738 0.026972046985643677 0 0 0 0
85000001 -0.025597395812784706 -0.04714574189679548 0.311748876313014 0.007086170878635275 0 0 0 0
86000001 -0.025814563826753487 -0.04644786377954183 0.28723260503247106 -0.009181399325359 0 0 0 0
87000001 -0.026379368423400256 -0.04565014438169102 0.266299418236885 -0.02022850051637075 0 0 0 0
88000001 -0.02615844739520882 -0.044777689318003695 0.24985859757557885 -0.03128771204330862 0 0 0 0
89000001 -0.02608889869081514 -0.044457015742723885 0.2337520863127441 -0.0412412476405412 0 0 0 0
90000001 -0.026807397896367626 -0.043741273138168855 0.21840028538389958 -0.048896691940207765 0 0 0 0
91000001 -0.027160678656502218 -0.04314182272914861 0.2028974891571079 -0.056530460333896464 0 0 0 0
92000001 -0.02648437555914493 -0.04254509894250087 0.18926974854447218 -0.06293551108574076 0 0 0 0
93000001 -0.026854106624025816 -0.041902154978966634 0.17739711420816326 -0.06759823352649992 0 0 0 0
94000001 -0.02681266451282472 -0.04194484921513351 0.1639817055872529 -0.072225438361587 0 0 0 0
95000001 -0.02665466482581515 -0.0417617639233252 0.1497564840126799 -0.07297626766013163 0 0 0 0
96000001 -0.026806332648864242 -0.0413980681536922 0.13653118291138994 -0.07029794724792007 0 0 0 0
97000001 -0.027027916221409733 -0.04109852710470942 0.12498851614952027 -0.06373401573964316 0 0 0 0
98000001 -0.02719654939027058 -0.04094995275567295 0.12362140378502595 -0.04961688956967622 0 0 0 0
99000001 -0.026593230115438987 -0.04071588209173981 0.14228764349438788 -0.04045705162986321 0 0 0 0
100000001 -0.027059470827339057 -0.04035643453991052 0.16046764355196033 -0.0661053949128931 0 0 0 0
