# HZ S RI R 50
1 -1.0911869817106807 -0.2671953700141935 -0.0037346203438969544 0.0005753469518324221 0 0 0 0
1000001 -0.008480690103235076 -3.9309361233837973e-05 0.06191567587418556 -0.06305823636908879 0 0 0 0
2000001 -0.008313231116879163 0.0002662158038728829 0.05945764115325888 -0.2229403113325291 0 0 0 0
3000001 -0.00792683393154575 0.0006377236475298225 -0.012425327037717433 -0.3693393448995906 0 0 0 0
4000001 -0.007704558805805275 0.0007441246790370804 -0.12857321107089528 -0.4865637192501554 0 0 0 0
5000001 0.0009170154189999279 -0.002803963907553329 -0.27408816023344607 -0.5688503616505668 0 0 0 0
6000001 -0.0034999255363194295 0.0024347838559754323 -0.43962923628599204 -0.6112324196792229 0 0 0 0
7000001 -0.006875588323323214 0.0010074377274755018 -0.6122590722455141 -0.611776267485929 0 0 0 0
8000001 -0.006785868447879522 0.006047991016329993 -0.7857012768926355 -0.571515413986723 0 0 0 0
9000001 -0.002165005760569048 -0.0006636329290897114 -0.9414879920514526 -0.4927013992300463 0 0 0 0
10000001 -0.005754305743566514 -0.0008163358263151028 -1.0776433036581914 -0.3868637710808912 0 0 0 0
11000001 -0.005143444949009728 0.0009322724236182243 -1.1999115806039566 -0.2497610174914368 0 0 0 0
12000001 -0.0030754205204586616 -0.0006037124853189963 -1.2878856052717294 -0.1027034134059713 0 0 0 0
13000001 -0.006369944926988716 0.0002693239883406361 -1.3524334927790145 0.06305550920888627 0 0 0 0
14000001 -0.0059334694178432195 -9.816622186121611e-05 -1.3846443965971942 0.23608424776638437 0 0 0 0
15000001 -0.005615144943477769 -0.0019370071799478705 -1.3927511152666385 0.4113220199537609 0 0 0 0
16000001 -0.005384901300799378 0.000999005906454971 -1.3734864285193704 0.5916643220924409 0 0 0 0
17000001 -0.006120325185351603 0.0007356204977348323 -1.3293174226375177 0.7587105077129235 0 0 0 0
18000001 -0.005563323912179661 0.0007403024441014775 -1.263636991767581 0.9160194699416789 0 0 0 0
19000001 -0.00554000171980187 0.0007208163486199004 -1.1806221593079922 1.0593978203090253 0 0 0 0
20000001 -0.005616070712493251 0.000575452782348626 -1.0813820070764328 1.1913519696883044 0 0 0 0
21000001 -0.005647767781034822 0.0005142626195041099 -0.9653693054949556 1.309299910244931 0 0 0 0
22000001 -0.005648141971197058 0.0007505108177505842 -0.8366047375089185 1.4135877731618132 0 0 0 0
23000001 -0.005240895004884552 0.0006030370524269529 -0.695789875943975 1.5032307056258258 0 0 0 0
24000001 -0.005351442199347519 0.00046309525710632333 -0.5485008960676171 1.5774971982811612 0 0 0 0
25000001 -0.005249880144947412 0.0005539952552366688 -0.39578319218490815 1.6379898524053405 0 0 0 0
26000001 -0.005235414370073156 0.0006856801625905834 -0.24089718876733243 1.680787095732037 0 0 0 0
27000001 -0.005121901671513696 0.0007871524503001252 -0.08282292593211571 1.7083528556957746 0 0 0 0
28000001 -0.005123949417198115 0.0005151465434646182 0.06983320706299889 1.7227039135649551 0 0 0 0
29000001 -0.00539759083289339 0.0006917960772096261 0.22914225817118208 1.7273466873713532 0 0 0 0
30000001 -0.005396918309528468 0.0007764732688751084 0.38585053318228757 1.7161013110434375 0 0 0 0
31000001 -0.00549004735033986 0.0006837669307216059 0.5442482285393719 1.6908391066315076 0 0 0 0
32000001 -0.005252329512992303 0.0011065536437665294 0.6989872432593921 1.6515528667529598 0 0 0 0
33000001 -0.005161294368350768 0.001261777419633239 0.8488989579553307 1.5954083834614285 0 0 0 0
34000001 -0.005307165593932137 0.0013037702534899468 0.9930550082101982 1.526620481456613 0 0 0 0
35000001 -0.005534120511440273 0.001546328051870588 1.1357018090818745 1.445532139373058 0 0 0 0
36000001 -0.005320899880781087 0.001789053961476647 1.270607281033113 1.3446501646239406 0 0 0 0
37000001 -0.005355967702397408 0.0018729757554985288 1.386379901297603 1.2315869167677387 0 0 0 0
38000001 -0.005589888934417018 0.00226408567826638 1.4955866760752248 1.1146748854082595 0 0 0 0
39000001 -0.005718393320685963 0.0024068305258612165 1.6008404378908638 0.9908130870202871 0 0 0 0
40000001 -0.005827715530942053 0.003027870535840846 1.6686459339898014 0.8465025645222416 0 0 0 0
41000001 -0.005930044620844397 0.0037310296809808796 1.594772008758516 0.6033345116321837 0 0 0 0
42000001 -0.005880908590819241 0.004719403755875472 1.6308774454872315 0.4457761455720325 0 0 0 0
43000001 -0.005352446177691878 0.005600968253286191 1.6511104289488745 0.293793113675318 0 0 0 0
44000001 -0.005401378013236725 0.006120791931733314 1.6738456382358058 0.16243287589804495 0 0 0 0
45000001 -0.004501461642630457 0.0071776322015340895 1.688048654493429 0.010543302633853259 0 0 0 0
46000001 -0.004153673451775184 0.007843213622523262 1.6823233233026678 -0.13972980954738706 0 0 0 0
47000001 -0.0038867554027608047 0.009064269108025777 1.6600104194928866 -0.30085968046550265 0 0 0 0
48000001 -0.003478333900304495 0.010019180790840724 1.5919898714013831 -0.44736409117772424 0 0 0 0
49000001 -0.0026296251250421845 0.01096271559692418 1.5003318800487686 -0.569184992639393 0 0 0 0
50000001 -0.0019038643308580095 0.011751108312859863 1.4019741434761301 -0.6709383260147627 0 0 0 0
51000001 -0.0009814198161910103 0.01286386734170089 1.3109148596987503 -0.7613553143481351 0 0 0 0
52000001 -2.4213091314201897e-05 0.014229465311390035 1.2398447693455064 -0.8343826517919295 0 0 0 0
53000001 0.0009965544936551233 0.015641363052090882 1.1546001592681605 -0.9075282624818717 0 0 0 0
54000001 0.0020961928788534225 0.0168703130738414 1.0549381990106887 -0.9612903700729837 0 0 0 0
55000001 0.003895800348897023 0.018532031966188956 0.9590133275566506 -1.0182069516925063 0 0 0 0
56000001 0.005565852114953814 0.020161092554405752 0.8409682615256279 -1.1039980528681028 0 0 0 0
57000001 0.007521776569206335 0.021662779348752274 0.7172395117586627 -1.125870039143248 0 0 0 0
58000001 0.009962841706770234 0.023440257364473627 0.6134276164334131 -1.182392069172194 0 0 0 0
59000001 0.01279541232676329 0.02496716215249376 0.46094332758625123 -1.1690129722283114 0 0 0 0
60000001 0.015888189337372807 0.02605110746590187 0.39338786203657206 -1.1715496680375423 0 0 0 0
61000001 0.019712893386549246 0.0270986148676466 0.41694799413512434 -1.2940080549892525 0 0 0 0
62000001 0.02365944018665554 0.027428973822047748 0.34171437952620226 -1.6609604287036743 0 0 0 0
63000001 0.028007449024871883 0.027706089286270164 0.19178847408394892 -1.7295368961159332 0 0 0 0
64000001 0.03686538310754025 0.027042135679047164 0.1689611412461582 -2.005514118878237 0 0 0 0
65000001 0.03867757453498816 0.028300355240565588 0.06466616718155915 -2.1045752616504294 0 0 0 0
66000001 0.04113181123671486 0.025276693627721423 -0.0756823407261972 -2.239040038239382 0 0 0 0
67000001 0.045599574575179894 0.024385115905544145 -0.25151772539509437 -2.44405043129282 0 0 0 0
68000001 0.058020482673628415 0.022584152615633794 -0.5211250667406859 -2.7266259440913654 0 0 0 0
69000001 0.055524546552659544 0.020115601834715217 -1.0123839567121817 -2.9561843229050795 0 0 0 0
70000001 0.06111804827250629 0.017559974355406665 -1.8076956893890903 -3.0168037067561855 0 0 0 0
71000001 0.06703832939549122 0.014104316803920701 -2.746027464669895 -2.560787469738058 0 0 0 0
72000001 0.07271834922882675 0.009712755296483232 -3.2839328372487353 -1.600994455949749 0 0 0 0
73000001 0.07944914393750496 0.003648742445735954 -3.219243471827281 -0.6566329884105 0 0 0 0
74000001 0.08224153589290957 -0.0029271969357502164 -2.877457770587456 -0.05814922850274584 0 0 0 0
75000001 0.08565860645496803 -0.010142560665579343 -2.5318921105043732 0.2656478900981329 0 0 0 0
76000001 0.08835730700156257 -0.018041162692258885 -2.274577858722084 0.452046181429373 0 0 0 0
77000001 0.09027247004849812 -0.02609943753375989 -2.068814744596857 0.6107411690465514 0 0 0 0
78000001 0.0910289097921988 -0.03408123870872999 -1.8877129295191721 0.7358526206642635 0 0 0 0
79000001 0.09109014268905002 -0.04267839415226074 -1.7333069307331805 0.8444897403816163 0 0 0 0
80000001 0.09028779208907342 -0.05095663069751141 -1.5891144955457275 0.944968076898161 0 0 0 0
81000001 0.08887323910837819 -0.059416557213118316 -1.454828841847171 1.040448203196175 0 0 0 0
82000001 0.08618384363482905 -0.06738401131138806 -1.317071648398155 1.1312122580015684 0 0 0 0
83000001 0.08306119449922035 -0.07548619791916121 -1.1741827271860232 1.2154302761491211 0 0 0 0
84000001 0.07886361736689666 -0.08280474749375007 -1.0226427418030142 1.2862376680263052 0 0 0 0
85000001 0.07373576667724864 -0.0895993480254096 -0.8647349517725369 1.341008121631613 0 0 0 0
86000001 0.0685518259627239 -0.09623935551478793 -0.7045248408747724 1.3749321275295137 0 0 0 0
87000001 0.06254809090396182 -0.10146334908595196 -0.5477781561407171 1.3916159273021578 0 0 0 0
88000001 0.0565153438760251 -0.1064372767178849 -0.3891483025466437 1.3932295951102762 0 0 0 0
89000001 0.0501107696723371 -0.1112630593943358 -0.2291373877031299 1.3684049340941238 0 0 0 0
90000001 0.04300974000806542 -0.11499096516561477 -0.07995060088983665 1.3182178311171777 0 0 0 0
91000001 0.03518836214421269 -0.11851464675146398 0.04868051822836464 1.2397183056757728 0 0 0 0
92000001 0.02868324454885118 -0.12019590554394854 0.14803884101580006 1.1489704659474596 0 0 0 0
93000001 0.02152514117786033 -0.1225565208102528 0.2105349586019597 1.0513115806949458 0 0 0 0
94000001 0.014026252928189724 -0.12346934952753119 0.23466266377397763 0.9666953506857868 0 0 0 0
95000001 0.006975097441428968 -0.12455923361518158 0.23840741546980074 0.9146302007077094 0 0 0 0
96000001 -0.0008145726734967584 -0.12451093371416924 0.239682657013847 0.8967173626804016 0 0 0 0
97000001 -0.008077949143995197 -0.12416176083458665 0.265962332134326 0.9134297234694599 0 0 0 0
98000001 -0.015152315569778986 -0.12313026103123771 0.3254709490763678 0.9306068588227977 0 0 0 0
99000001 -0.021696371080932055 -0.12101875520569212 0.40951461945583517 0.9336645173278514 0 0 0 0
100000001 -0.028372385246788052 -0.11882366056278836 0.5081787138016549 0.921798109368313 0 0 0 0
