# HZ S RI R 50
1 0.7992001088768577 0.06392633229828663 -0.007505898983524724 -0.005715468555369687 0 0 0 0
1000001 -0.007946003412465243 -5.4048620630315953e-05 0.19733687611577322 -1.4451097351626618 0 0 0 0
2000001 -0.008149218154338203 0.00038781241545022345 -1.6110124010753268 -1.9784753032833873 0 0 0 0
3000001 -0.00839957958165526 0.00019551968431419722 -2.6844491283059875 -1.306728221434684 0 0 0 0
4000001 -0.00812176376126615 0.00022355515345976872 -3.1771960457811397 -0.44918294993822055 0 0 0 0
5000001 -0.010198878640241143 -0.002371485269290382 -3.3130223249368935 0.3976389185981162 0 0 0 0
6000001 -0.00756378744386879 0.0009002715035778833 -3.1888139713128387 1.1604041326188361 0 0 0 0
7000001 -0.00775893571915622 0.0012093179661014104 -2.8806427094608975 1.7986108066552318 0 0 0 0
8000001 -0.009812891712008871 0.0010520052660615876 -2.457687079142289 2.290757858799723 0 0 0 0
9000001 -0.007685248134921889 0.0034318789370359083 -1.9764321006112646 2.6412943352058096 0 0 0 0
10000001 -0.005443064796172846 0.001069437096632857 -1.4716451214122794 2.8607695905252233 0 0 0 0
11000001 -0.006302436563177984 0.002293493276100411 -0.9844655882426314 2.967787470669854 0 0 0 0
12000001 -0.00576701468634086 0.0013942899003979493 -0.5207344272998661 2.9826878690190273 0 0 0 0
13000001 -0.005713625380377671 0.0009814891523144138 -0.09365624638220957 2.925762811688148 0 0 0 0
14000001 -0.006930083735840281 0.006406590369784474 0.2897185660952135 2.8147235939533846 0 0 0 0
15000001 -0.005711204511912223 0.0006468181593816678 0.6198039459635236 2.643911071184291 0 0 0 0
16000001 -0.004825648076118578 0.0023885728186442447 0.9100140720515845 2.4471065150049087 0 0 0 0
17000001 -0.00486909327815534 0.0013625575402803538 1.149379531674465 2.2305949456804575 0 0 0 0
18000001 -0.004392139534129986 0.0017285350841718945 1.3468052460396738 1.9999881824741699 0 0 0 0
19000001 -0.004054146042557114 0.0019058783930288902 1.504409389835471 1.7645662845785246 0 0 0 0
20000001 -0.003328767820636675 0.0020044906952910784 1.6219268744708921 1.5253081632509062 0 0 0 0
21000001 -0.0033848794970515327 0.0021479591426702177 1.7051466549671295 1.2903520910515964 0 0 0 0
22000001 -0.0027363765942654745 0.0020589800379833684 1.755708169618978 1.0590858216317636 0 0 0 0
23000001 -0.001824465868920795 0.0020798211451548026 1.7788799901358638 0.8387277840605826 0 0 0 0
24000001 -0.001137295869296833 0.0022948793612895587 1.7859971389642442 0.6328164301526301 0 0 0 0
25000001 -0.00025947169175064743 0.0024157278384187414 1.7694474125907982 0.43655456265665493 0 0 0 0
26000001 0.0004241199650582358 0.0023817113346235267 1.734851245685137 0.2538553126161041 0 0 0 0
27000001 0.0011699864140511378 0.0023637080430142466 1.6820682462967962 0.08345155964260191 0 0 0 0
28000001 0.0019224342880817683 0.0021482299515567303 1.6225889779836171 -0.0708791921369198 0 0 0 0
29000001 0.0028568951105168608 0.0021787126306411003 1.5549353093566638 -0.2149236277811883 0 0 0 0
30000001 0.004231308514571708 0.0022899974141517964 1.4815957463448073 -0.340881100922251 0 0 0 0
31000001 0.005100536298484581 0.0018427030544470597 1.402392855033322 -0.455544384289123 0 0 0 0
32000001 0.006344290188253484 0.001812559903032589 1.3168183508504894 -0.5549367714267737 0 0 0 0
33000001 0.007481823395193818 0.0016462742618134308 1.227289716677801 -0.6453738657327991 0 0 0 0
34000001 0.008585535714107594 0.0012690196854349505 1.1299647482448023 -0.7214589191843459 0 0 0 0
35000001 0.009924004702345595 0.0006559781945923125 1.0321148123810007 -0.7833004301138352 0 0 0 0
36000001 0.01135711895059163 0.00021144092454450527 0.9343057531012857 -0.8342068886535517 0 0 0 0
37000001 0.012711891539109121 -0.0005584918034312591 0.8372735213513133 -0.8768989528922608 0 0 0 0
38000001 0.013945704640135271 -0.001359081757799796 0.7411976312594925 -0.9068282765003113 0 0 0 0
39000001 0.015267860332326355 -0.002076642189116334 0.6489596009069354 -0.9258902250321653 0 0 0 0
40000001 0.017012310761754555 -0.0032834761202908958 0.5591195600586351 -0.9377140872339957 0 0 0 0
41000001 0.018364314488219475 -0.004245113080892158 0.4736798521024114 -0.9428247253305795 0 0 0 0
42000001 0.019583062239373367 -0.005687667746240742 0.39296498279572945 -0.9433966821973391 0 0 0 0
43000001 0.02087623320407992 -0.007062262457426082 0.30982315508586133 -0.9341717835111939 0 0 0 0
44000001 0.022363265577183045 -0.008597542791474715 0.24030996951491318 -0.9229817506866742 0 0 0 0
45000001 0.023626985426522282 -0.010397708581531216 0.13625239699970876 -0.8368899925780257 0 0 0 0
46000001 0.024915247187680407 -0.011865117263474912 0.07613704922613922 -0.7759988352339774 0 0 0 0
47000001 0.026096736609484215 -0.014131296379707368 0.011240153243166498 -0.6686863007154892 0 0 0 0
48000001 0.026889027790400172 -0.015911215714704902 -0.03445015871456408 -0.5852054629614241 0 0 0 0
49000001 0.028160390620604516 -0.018149012792292786 -0.06983149985281852 -0.49876899212711207 0 0 0 0
50000001 0.02914477472453672 -0.02044056150444066 -0.09449966514223385 -0.4414987243668992 0 0 0 0
51000001 0.02964692491669664 -0.02279418591945829 -0.10972105793736547 -0.4444346796010972 0 0 0 0
52000001 0.029707228465673457 -0.024878789945788807 -0.1408203823079019 -0.42988315461151205 0 0 0 0
53000001 0.030243892812825694 -0.027671460865144062 -0.15824972202324605 -0.40797059081572074 0 0 0 0
54000001 0.03035836717773796 -0.030150934956534425 -0.18107980275157842 -0.37547888340984137 0 0 0 0
55000001 0.03006025428785584 -0.03263898382105962 -0.20010752323265202 -0.3502067411852925 0 0 0 0
56000001 0.03013663179644469 -0.0357684572265035 -0.21380757722374066 -0.32887770597225774 0 0 0 0
57000001 0.029158301776477217 -0.03844524450656002 -0.25073829767745476 -0.31540846094075753 0 0 0 0
58000001 0.028473758881994233 -0.041201642361282396 -0.2674754368452353 -0.2703292350687498 0 0 0 0
59000001 0.02696192691005184 -0.0442966070399518 -0.2471302191953687 -0.25839174813888044 0 0 0 0
60000001 0.02573870516586656 -0.046939149920355236 -0.267492359712015 -0.24026429450621367 0 0 0 0
61000001 0.023826212359885423 -0.04947974778987094 -0.27603502912903893 -0.2297493639546034 0 0 0 0
62000001 0.021568427803130667 -0.051894553851399544 -0.1925873701049082 -0.31491930260709644 0 0 0 0
63000001 0.01889012726744261 -0.05366560246182168 -0.40280496566394824 -0.23664244035626958 0 0 0 0
64000001 0.01599537446388244 -0.054780863629480855 -0.3314100216438425 -0.23396014568229756 0 0 0 0
65000001 0.013313916216210758 -0.055510385536709436 -0.36006013120972763 -0.19715093648735488 0 0 0 0
66000001 0.010315383291015947 -0.05615201337572748 -0.50067307372075 -0.19515416299720825 0 0 0 0
67000001 0.0075799278014648105 -0.05653904506677421 -0.8143674516471239 -0.336872128351857 0 0 0 0
68000001 0.004764367073893375 -0.05742439657749093 -0.8700985539063746 -0.08352346121986659 0 0 0 0
69000001 0.0020918783663807085 -0.056458809608903836 -0.8730850046102071 -0.02994926430848073 0 0 0 0
70000001 -0.0002739668968502818 -0.05572152067153729 -0.8564278721188624 0.026429758638493474 0 0 0 0
71000001 -0.0032843553779321227 -0.0547076233120369 -0.8534345495170464 0.08532647140853503 0 0 0 0
72000001 -0.006184552576132565 -0.053515252745320416 -0.8328362729258622 0.13875340243163303 0 0 0 0
73000001 -0.008715222458429326 -0.05141526625294009 -0.8262650872295335 0.16825265517817786 0 0 0 0
74000001 -0.011251385918249899 -0.0487720133510088 -0.8553561546533143 0.2010431260566685 0 0 0 0
75000001 -0.013671120120594682 -0.04585579006367446 -0.9119909332721363 0.2660871130194245 0 0 0 0
76000001 -0.015349322399889629 -0.0421319101966717 -0.9589452706525562 0.379296332999556 0 0 0 0
77000001 -0.0163945559257924 -0.03877090192474261 -0.9653881868437877 0.5239182664880379 0 0 0 0
78000001 -0.017058295286281628 -0.034359768082320635 -0.9261835025484421 0.6726054612470671 0 0 0 0
79000001 -0.01705435087995703 -0.030515501219212947 -0.8569942319620539 0.7962143038970043 0 0 0 0
80000001 -0.016720627914976433 -0.025988884923879962 -0.7792423008602207 0.9066175632691018 0 0 0 0
81000001 -0.01547816799737844 -0.02114023740579196 -0.6977824671559185 1.0107454631942778 0 0 0 0
82000001 -0.013772370800960934 -0.01622560697733355 -0.6088839318430651 1.1166487103131264 0 0 0 0
83000001 -0.013645668446370631 -0.011571395305257335 -0.4950821337747177 1.2366016895159109 0 0 0 0
84000001 -0.008644791403739464 -0.008246061043337808 -0.3626602104082543 1.3515725576258233 0 0 0 0
85000001 -0.0038624351991169135 -0.0017161338660919723 -0.1930605386379544 1.4791685000953168 0 0 0 0
86000001 0.0019406859346473026 0.0030163167318948765 0.07176596234397424 1.5395007807484082 0 0 0 0
87000001 0.007907598386247596 0.006525742876032497 0.29182607123244225 1.5848607536031845 0 0 0 0
88000001 0.015054885365485231 0.010006773684326814 0.6092542372748557 1.5849796364979798 0 0 0 0
89000001 0.02288779835152305 0.012115851629732397 0.9419876303867682 1.4530245191283182 0 0 0 0
90000001 0.031432709303610945 0.013632681293469728 1.2114014056804825 1.2133551996291538 0 0 0 0
91000001 0.04016456399704962 0.013797146643108542 1.3871222653974342 0.9174828576188727 0 0 0 0
92000001 0.0488597569007244 0.012726500366386635 1.4742072146149352 0.604088582478448 0 0 0 0
93000001 0.057732532889135865 0.010942173691904844 1.4793634129405302 0.30363004097298757 0 0 0 0
94000001 0.06664780677315214 0.008322246694612402 1.4105784251430546 0.01767941418171804 0 0 0 0
95000001 0.07529571341079881 0.004624156560978094 1.2713703469120095 -0.2101102402848257 0 0 0 0
96000001 0.0841346927682593 0.00027627686940525823 1.1170460090677456 -0.3517864994175078 0 0 0 0
97000001 0.09253401078703198 -0.00443888263837423 0.9889800811188225 -0.44664261789251375 0 0 0 0
98000001 0.10118646735572234 -0.010596473283509314 0.8691571169140755 -0.5431736588690006 0 0 0 0
99000001 0.10911899657483312 -0.018111904332634703 0.7144520951979828 -0.6176779490135642 0 0 0 0
100000001 0.11704432030079272 -0.026602136537833967 0.5337406887153295 -0.6138442815249804 0 0 0 0
