# HZ S RI R 50
1 -0.6842247758964286 0.6216784320498326 -0.18649521867041563 -0.2647373538914019 0 0 0 0
1000001 -0.00812966418423371 -0.000481147138034918 0.043118764713018926 -0.04571231182437636 0 0 0 0
2000001 -0.012608642911864467 -0.009988278284491357 0.04185920060634725 -0.16004237908661195 0 0 0 0
3000001 -0.0075961274193255 -0.0003522787984800435 -0.011257923668255836 -0.2646630102810363 0 0 0 0
4000001 -0.007673405414689666 -0.0004898098728977528 -0.09450276800526532 -0.34744083324626823 0 0 0 0
5000001 0.0009900744224759855 -0.004232768414283547 -0.19788237663522237 -0.40458208589410394 0 0 0 0
6000001 -0.0033652091470470153 0.000870280161748786 -0.31498818651867505 -0.4343440088049165 0 0 0 0
7000001 -0.007018564921667015 -0.0007744695243890054 -0.4378172075279347 -0.43417751580546504 0 0 0 0
8000001 -0.006957835460362587 0.002971499901142759 -0.5604905222013894 -0.40577915760009264 0 0 0 0
9000001 -0.006182808058702399 -0.004829569561047947 -0.6716083189427517 -0.35130498621860196 0 0 0 0
10000001 -0.006939656000847461 -0.0026787003332640166 -0.7692376795494759 -0.2745926930156752 0 0 0 0
11000001 -0.005377727912816644 -0.00210576210529237 -0.8552333240267808 -0.17748154737661637 0 0 0 0
12000001 -0.0032717504215707552 -0.0034953608513327143 -0.9167303028053749 -0.07033525739433044 0 0 0 0
13000001 -0.005893268736390736 -0.0022695631981016953 -0.9627701075144491 0.04659566739811131 0 0 0 0
14000001 -0.006818507334954115 -0.00250542522025311 -0.988002757329921 0.1689211265312319 0 0 0 0
15000001 -0.005948439094334247 -0.0025468828100062477 -0.9922827703141834 0.2943890809749703 0 0 0 0
16000001 -0.005250824970385145 -0.003331725736183835 -0.9795555957040787 0.4202381132417106 0 0 0 0
17000001 -0.005540315610415044 -0.0037768884800779695 -0.948084795819874 0.5400445005385047 0 0 0 0
18000001 -0.0053128312172347715 -0.003224862499081458 -0.9017230495847217 0.6522196005030981 0 0 0 0
19000001 -0.005256929094039259 -0.00328406864047013 -0.843532957534365 0.7547751603212361 0 0 0 0
20000001 -0.004877955768879711 -0.0035482558519957822 -0.7722707564864036 0.8486426434629354 0 0 0 0
21000001 -0.0047240330000679785 -0.003743369048945526 -0.6919801936237994 0.9324085457374809 0 0 0 0
22000001 -0.004683221397671819 -0.003909722026334968 -0.6015374828897484 1.008203507025546 0 0 0 0
23000001 -0.004224927145628692 -0.004297057876249466 -0.5027996286200609 1.072490381846183 0 0 0 0
24000001 -0.004012040679032493 -0.004520193698735397 -0.399264603497202 1.123118016586708 0 0 0 0
25000001 -0.0036893633407267686 -0.004551360871848873 -0.28959239003688964 1.1693305106516696 0 0 0 0
26000001 -0.0034307977588662777 -0.004766236065557348 -0.1776099669322758 1.2011758525587657 0 0 0 0
27000001 -0.0032817756701085683 -0.0052055040207549 -0.06629332293531975 1.2194448719330557 0 0 0 0
28000001 -0.0030567290069647432 -0.005370197276539111 0.04234569516225759 1.2325471004600252 0 0 0 0
29000001 -0.0028306749258668186 -0.005679415484440471 0.15478324264432322 1.2374086708605843 0 0 0 0
30000001 -0.0024326141517580975 -0.006017305168526165 0.267421632692982 1.2282235874983798 0 0 0 0
31000001 -0.0024479947078982576 -0.006309157814537377 0.3799476545208391 1.210970615601899 0 0 0 0
32000001 -0.0020153087849671893 -0.006337728932209017 0.4911837263667798 1.1848205391058737 0 0 0 0
33000001 -0.0018401569098089269 -0.006420817990015612 0.5991601542895092 1.1469365937820641 0 0 0 0
34000001 -0.0014628516431900733 -0.006768480626072766 0.7034222265839811 1.0989406744024175 0 0 0 0
35000001 -0.0014484426582505826 -0.0071363261191058945 0.8056127059052017 1.0422007947439076 0 0 0 0
36000001 -0.0009056502798893663 -0.007393090234261919 0.8999639873381211 0.9721890353080072 0 0 0 0
37000001 -0.0005855093656358737 -0.0076542845932819 0.9892096219811408 0.8967400068696126 0 0 0 0
38000001 -0.0007413595367265677 -0.007866542030278327 1.0708141454623121 0.8133413788538427 0 0 0 0
39000001 -0.0003260846241481634 -0.00816865546958919 1.1516527366264178 0.725006209881484 0 0 0 0
40000001 2.3271853160670937e-05 -0.00823588803062363 1.2254665618614171 0.626109027549249 0 0 0 0
41000001 0.00021741029188410632 -0.008270292580210037 1.2181750385355115 0.4601242047281535 0 0 0 0
42000001 0.00024342604246269513 -0.00838389020999158 1.1660223220045234 0.3131053770569986 0 0 0 0
43000001 0.0007265988079445384 -0.00826805925058932 1.1763890165907347 0.2036097406823093 0 0 0 0
44000001 0.0010792217390876682 -0.008352155175002427 1.186674667975994 0.09695432341413196 0 0 0 0
45000001 0.0015340690805882556 -0.008154945008875496 1.1938929461235732 -0.008182259578302367 0 0 0 0
46000001 0.0019139421783778783 -0.007911060073165294 1.189476408457315 -0.11906828825966329 0 0 0 0
47000001 0.002175563710557155 -0.007878205572046217 1.1692540428474767 -0.2267309469618862 0 0 0 0
48000001 0.0025300155911952005 -0.0077118128051409315 1.1216832606439708 -0.32735506664904684 0 0 0 0
49000001 0.003074432101143387 -0.007385458089470467 1.0489146802988856 -0.4055582605733259 0 0 0 0
50000001 0.0038418544917475047 -0.0071418881195050845 0.9710642760105921 -0.47864853476171165 0 0 0 0
51000001 0.004486406477659618 -0.007010258614183587 0.913808241835586 -0.5399072685100115 0 0 0 0
52000001 0.005136105904624732 -0.0063668891243288265 0.8501102654930538 -0.5957658452554275 0 0 0 0
53000001 0.005938075813434841 -0.005771979437946162 0.7834986978295506 -0.6341052192183523 0 0 0 0
54000001 0.006874429416111649 -0.005332548083482466 0.7116538361031263 -0.6734822265095499 0 0 0 0
55000001 0.008024800588833394 -0.004633518715672627 0.6376999012783554 -0.7065324222884888 0 0 0 0
56000001 0.008956997125218129 -0.003871247214674342 0.5680598528879562 -0.7339114556886698 0 0 0 0
57000001 0.01070557695262755 -0.0033602373288476434 0.49849443056099685 -0.747960587277506 0 0 0 0
58000001 0.01225082884578525 -0.002612496700198279 0.43210588767449937 -0.7672739911894978 0 0 0 0
59000001 0.014351436694801337 -0.002088740707785145 0.3516813184448204 -0.8093203000451937 0 0 0 0
60000001 0.0160773627729137 -0.0018576284426314864 0.30532160287147847 -0.8275118660030968 0 0 0 0
61000001 0.01875840946224094 -0.001568700517677002 0.2843008815386614 -0.8930216090967594 0 0 0 0
62000001 0.021026642666481663 -0.0015669121794189879 0.23355027280635654 -0.9959395719710337 0 0 0 0
63000001 0.02386795958814072 -0.002035080645005365 0.1564215207395513 -1.0946312832270837 0 0 0 0
64000001 0.026239583515379628 -0.0021688937434002848 0.12032181387426405 -1.1793977388878767 0 0 0 0
65000001 0.028976259404663935 -0.002959851042959726 0.14644828721269265 -1.3778222443141153 0 0 0 0
66000001 0.03190285969412514 -0.003765346159737771 0.022971745437191316 -1.536007871328164 0 0 0 0
67000001 0.03447979678309947 -0.004540882039439932 -0.06995051842075535 -1.6471294530761014 0 0 0 0
68000001 0.03731708567498526 -0.005658595726658246 -0.19309549395095402 -1.7982651254581299 0 0 0 0
69000001 0.040498461850734635 -0.006975630162174966 -0.38099873473367357 -1.9760645960244163 0 0 0 0
70000001 0.04379598230291501 -0.008334796099041343 -0.6828716062879299 -2.1517621514257432 0 0 0 0
71000001 0.04752747206603395 -0.010139099066393554 -1.160295419486974 -2.283008772478011 0 0 0 0
72000001 0.05120875100784008 -0.01183445346373572 -1.8430838902853697 -2.2073982939223282 0 0 0 0
73000001 0.05505287769653421 -0.014855583194013481 -2.5365971051117673 -1.7166468243864756 0 0 0 0
74000001 0.05873679017132509 -0.018415372727628748 -2.8899510369856367 -0.8877559558039201 0 0 0 0
75000001 0.06179285542197849 -0.022932496203724288 -2.756593220180243 -0.09480704909521967 0 0 0 0
76000001 0.06420680030865003 -0.027514330213644116 -2.401594212580383 0.4214083983726111 0 0 0 0
77000001 0.06575849323767029 -0.03221023323143092 -2.04221957154576 0.6887349874935913 0 0 0 0
78000001 0.06495801360162141 -0.04242808188063034 -1.7440139748064938 0.8302078316605472 0 0 0 0
79000001 0.06817506149230478 -0.04080972391295779 -1.5270034212236316 0.9157306776965728 0 0 0 0
80000001 0.06973674197523269 -0.04574814176675592 -1.3404241733037636 0.980948697649626 0 0 0 0
81000001 0.06970867997384864 -0.04905013510717678 -1.1794381184768807 1.037061608554235 0 0 0 0
82000001 0.07033815435147481 -0.053274351405859864 -1.0353953990720677 1.0845708614472738 0 0 0 0
83000001 0.07050104009764784 -0.05859019845786991 -0.902169287346303 1.1325794483409208 0 0 0 0
84000001 0.07085957578663774 -0.06212477557766269 -0.7652556468659675 1.1770154927481369 0 0 0 0
85000001 0.07064210750146305 -0.06467901599512088 -0.6227827327379324 1.2146725541316212 0 0 0 0
86000001 0.07075814606609997 -0.06865315539180052 -0.4781278195658059 1.2345596392958713 0 0 0 0
87000001 0.07078500952775654 -0.07221418432276681 -0.33773407257938404 1.2390605452753707 0 0 0 0
88000001 0.07115176157084643 -0.07582633190662487 -0.19278751646182288 1.2365077505391884 0 0 0 0
89000001 0.07126080538610782 -0.07983986037276608 -0.04422826658315131 1.2108242017237847 0 0 0 0
90000001 0.07077754078533813 -0.08383956921175485 0.09788087005990637 1.161334044088993 0 0 0 0
91000001 0.07052641811189163 -0.08836978192486757 0.22643885320960885 1.0864979625448814 0 0 0 0
92000001 0.070766606311275 -0.09169215646310498 0.333496679556828 0.9994933619752484 0 0 0 0
93000001 0.07061319086721307 -0.09588776578458996 0.42428300016047493 0.896659060951857 0 0 0 0
94000001 0.07028713630493647 -0.10045094928633022 0.48679879955513106 0.7790455018949372 0 0 0 0
95000001 0.06976193488346179 -0.10519821660714733 0.5099262696197843 0.6608783155155952 0 0 0 0
96000001 0.06867099645436121 -0.11007849141553121 0.4930541819971302 0.5662369847320144 0 0 0 0
97000001 0.06764663118894593 -0.1151582357029029 0.4654545971650181 0.5116891488898248 0 0 0 0
98000001 0.06596811932071682 -0.12014559282556408 0.4456042995996933 0.49996989267077746 0 0 0 0
99000001 0.06429330473230394 -0.12479519406554515 0.46444876622629755 0.5100660788751341 0 0 0 0
100000001 0.062128980611969545 -0.12999094318343243 0.5247173997503743 0.5138145818379567 0 0 0 0
