# HZ S RI R 50
1 0.8731848932560407 0.2815078734870376 -0.0012493687046420936 -0.0009168042891294065 0 0 0 0
1000001 -0.007683605234693923 -0.0002836038176169471 0.6722794205332143 -1.333991448752211 0 0 0 0
2000001 -0.008266002575186506 0.0004379666268844889 -0.9604043802333043 -2.997406020075473 0 0 0 0
3000001 -0.00841059855561285 -0.0001034410393664346 -2.9369198870402027 -2.976749027645064 0 0 0 0
4000001 -0.008301847773972849 0.000410124291395885 -4.402307645771919 -2.11093048714226 0 0 0 0
5000001 -0.008146306189013963 0.000857700747624626 -5.304768953333111 -0.8604551035728945 0 0 0 0
6000001 -0.007707135192636595 0.0009956856204075936 -5.667819175479878 0.4861555919137083 0 0 0 0
7000001 -0.008092010755934435 0.0014597094553404346 -5.6003752610050705 1.7796766755802975 0 0 0 0
8000001 -0.009794245717577135 0.0013196271653643581 -5.203706025034034 2.916249858449163 0 0 0 0
9000001 -0.007663549392298551 0.0037382025945304404 -4.587140737373681 3.8512717777209913 0 0 0 0
10000001 -0.005583545984913614 0.0013907510141270738 -3.8179310137888094 4.575324085637112 0 0 0 0
11000001 -0.006001497008117719 0.0024904184540223023 -2.9870342289846707 5.0825845873045905 0 0 0 0
12000001 -0.006633277319693045 0.0015232862011363398 -2.132349380366833 5.397065921092182 0 0 0 0
13000001 -0.012299163615114536 0.0040165419337014315 -1.2971433455427586 5.563074696673342 0 0 0 0
14000001 -0.004960884021596104 0.001155369531064805 -0.46610720234273334 5.547762442749781 0 0 0 0
15000001 -0.00539937264740987 0.0017603822760666797 0.28925492345152287 5.430512732113704 0 0 0 0
16000001 -0.004115603394460799 0.0006095595942520814 0.9745305848979267 5.1919118562692015 0 0 0 0
17000001 -0.004433036407984299 0.0008411649469768048 1.5803267142696278 4.893248019016157 0 0 0 0
18000001 -0.004380254084932908 0.0017265153986370792 2.111078351329009 4.528564707093767 0 0 0 0
19000001 -0.004133078622620218 0.0019733273664551466 2.5629003930578964 4.122006320214242 0 0 0 0
20000001 -0.0032159441038359963 0.0018830679212612298 2.9326533828900327 3.6813723451911935 0 0 0 0
21000001 -0.002922735537026491 0.002124600943127253 3.2234467872840518 3.2250161555548345 0 0 0 0
22000001 -0.006754336948010008 0.00043318805991823025 3.440309153245385 2.7693509902832463 0 0 0 0
23000001 -0.0061284459840842045 0.0035705124125640867 3.6100210005198923 2.3099434563941856 0 0 0 0
24000001 -0.007158238059680109 0.002916641919697336 3.7113150789999976 1.859998353681266 0 0 0 0
25000001 -0.00033722095268883906 0.002249227287908778 3.7504753720761235 1.4072879911733458 0 0 0 0
26000001 -0.0011519123140270042 0.0015540661085227277 3.745803057327304 0.9991982325171223 0 0 0 0
27000001 0.001052068916293613 0.0022285322254968305 3.6990706942537845 0.5936684328974825 0 0 0 0
28000001 0.002045489788004841 0.0022087776158956807 3.6189652315051792 0.21912511121871206 0 0 0 0
29000001 0.0030096851501787637 0.0023131933376823047 3.522978039933821 -0.11936099659045031 0 0 0 0
30000001 0.004257368125219407 0.002165584915257938 3.404230276553796 -0.43235282880477954 0 0 0 0
31000001 0.005300176435750729 0.0018982070722795555 3.266478199327573 -0.724910143512926 0 0 0 0
32000001 0.006353073201017272 0.0015910814749395413 3.1090138088195514 -0.9873056390391537 0 0 0 0
33000001 0.00760410637626215 0.0014628238723851726 2.9338583233542557 -1.2282994401843121 0 0 0 0
34000001 0.008531370447217312 0.0011228576574661396 2.7411831613422204 -1.442104101393109 0 0 0 0
35000001 0.010033733724908967 0.0005089330197361799 2.5383130972698713 -1.6251368693110337 0 0 0 0
36000001 0.01141652806381263 0.00014482032182700226 2.3268035514501486 -1.7887813205293752 0 0 0 0
37000001 0.012657142197194474 -0.0006270716588861144 2.10627304772262 -1.9290640210393561 0 0 0 0
38000001 0.01395022823270342 -0.0015373133955764035 1.882030387443072 -2.0383957435770266 0 0 0 0
39000001 0.01535050778519269 -0.0022969742619693657 1.6596558075364873 -2.1220534255991894 0 0 0 0
40000001 0.01691755286548473 -0.0035137368550575174 1.4407134266282722 -2.184917034475676 0 0 0 0
41000001 0.018366936924746863 -0.004533055133231316 1.2210361885041392 -2.231346086339596 0 0 0 0
42000001 0.019555197244536648 -0.005873399489027596 1.0062190087057055 -2.2535635448957 0 0 0 0
43000001 0.02064870540018227 -0.007182892699237931 0.79791500222887 -2.25651085167773 0 0 0 0
44000001 0.02250463739419811 -0.008837348962434646 0.5233534020243255 -2.0695221260765098 0 0 0 0
45000001 0.023578139180989166 -0.010433298433622212 0.30032384263843426 -1.981712909696955 0 0 0 0
46000001 0.02486200414865015 -0.012006769750396159 -0.018001745011943012 -1.6388556863183896 0 0 0 0
47000001 0.02619539601626205 -0.014105479642369679 -0.09172360901535574 -1.4785404213293345 0 0 0 0
48000001 0.026648139018587758 -0.01613979388311296 -0.14794499316665186 -1.3904780361430915 0 0 0 0
49000001 0.028024645063637887 -0.018180114793866695 -0.24933594913017276 -1.3506684791620185 0 0 0 0
50000001 0.028774500190883658 -0.020602520900099085 -0.42085275618294754 -1.2564064935080461 0 0 0 0
51000001 0.029299288154897574 -0.02307885776425583 -0.4906432148543976 -1.0765376120437773 0 0 0 0
52000001 0.029666185409360692 -0.025075759213000624 -0.5300210989514789 -0.954691124075633 0 0 0 0
53000001 0.029745890138070653 -0.027897770873905405 -0.5865689270210546 -0.7985845072126855 0 0 0 0
54000001 0.030162702777466147 -0.03012524837239985 -0.6590142457790134 -0.6711322552439353 0 0 0 0
55000001 0.029944157952277995 -0.03273819590362442 -0.674633806081657 -0.5706117565950549 0 0 0 0
56000001 0.029636365278251062 -0.03556568315571552 -0.677414438391368 -0.46330449919737526 0 0 0 0
57000001 0.029165586936527474 -0.03832599180060252 -0.7020666536175766 -0.451174821080099 0 0 0 0
58000001 0.028253723454444032 -0.041022344883692476 -0.6669241743104813 -0.29348150910378135 0 0 0 0
59000001 0.027150255085832523 -0.04387327011349343 -0.6719239354742689 -0.2249424648680074 0 0 0 0
60000001 0.02564739910506246 -0.046632712875366 -0.7637656405778275 -0.0839194849129582 0 0 0 0
61000001 0.023977752634798937 -0.04928666404324225 -0.8321376882242439 -0.007711716212206192 0 0 0 0
62000001 0.02170416296270289 -0.051464765695943306 -0.7860307092413105 -0.020066086547359037 0 0 0 0
63000001 0.01908204495744053 -0.053292469751059925 -0.9324386332474726 -0.15585468993012022 0 0 0 0
64000001 0.01604642921591081 -0.054871821855129746 -1.0778876350570292 -0.1281987686546207 0 0 0 0
65000001 0.01327682742106559 -0.055910994834502376 -1.0714399432235193 -0.044884493708804166 0 0 0 0
66000001 0.010485698620199503 -0.05609365784794681 -0.9881805178714997 -0.0029799409580029655 0 0 0 0
67000001 0.007809568997783394 -0.05660385972456636 -1.0009543707504625 0.17212139370204718 0 0 0 0
68000001 0.004803751161516708 -0.05688910878556663 -1.393674390228686 0.24756745825837173 0 0 0 0
69000001 0.002259106939606877 -0.05624172282867807 -1.5326467955609244 0.15126478966606097 0 0 0 0
70000001 -0.0003956124910341975 -0.05562470408784177 -1.549212374661878 0.2763480695144627 0 0 0 0
71000001 -0.0030259302618226964 -0.0547546932549984 -1.5320255271206975 0.3952557311407551 0 0 0 0
72000001 -0.005920383073086382 -0.05355731090690089 -1.467385003994556 0.49873494365773646 0 0 0 0
73000001 -0.008675290169698709 -0.05158953075781029 -1.4110298576724012 0.5720867220942332 0 0 0 0
74000001 -0.011044745444084805 -0.04887469022771108 -1.384125889801571 0.6340947197708939 0 0 0 0
75000001 -0.013575189400988516 -0.04607663858140169 -1.388220136082156 0.7149675381781541 0 0 0 0
76000001 -0.015141539957912818 -0.04244173676459273 -1.3962137649876967 0.8385600204262103 0 0 0 0
77000001 -0.016603317359928295 -0.03881927528578808 -1.3619561882736861 0.9952781496382617 0 0 0 0
78000001 -0.019360054483661817 -0.033281374703981875 -1.2855394522229378 1.1552178279538505 0 0 0 0
79000001 -0.017011830282469522 -0.030466766139359745 -1.1828204784125524 1.2924588967993653 0 0 0 0
80000001 -0.016359240595642997 -0.02642233285977015 -1.0681856183548615 1.4163521473850547 0 0 0 0
81000001 -0.015423971505140433 -0.02140070929530901 -0.943653186813883 1.5347618520910897 0 0 0 0
82000001 -0.01363712135380461 -0.016613665012952 -0.8102064628443503 1.6447022077446578 0 0 0 0
83000001 -0.012281451566865477 -0.014648401269506764 -0.6703101596589065 1.7524148269901225 0 0 0 0
84000001 -0.009365578564395235 -0.009046930121379086 -0.5030547186673803 1.8585519775115424 0 0 0 0
85000001 -0.003932067131182416 -0.0019123267696208473 -0.3254077455700795 1.983827236754629 0 0 0 0
86000001 0.0015330841134295005 0.002955053930313033 -0.04929727266044736 2.1108635446915507 0 0 0 0
87000001 0.007809353456542624 0.006528557316374244 0.2836945549523467 2.1214057575833665 0 0 0 0
88000001 0.014894697767893551 0.009603377267876499 0.5786698109754197 2.0935150673854634 0 0 0 0
89000001 0.022548419061314485 0.012285003539607209 0.9296265867930854 1.9983012363953219 0 0 0 0
90000001 0.030874235696562356 0.01374863845197039 1.2448769942124598 1.7846783812422673 0 0 0 0
91000001 0.03982213099773283 0.01397950705941826 1.4777783489941627 1.501721746239019 0 0 0 0
92000001 0.04856873233062284 0.013032203793432468 1.6266226001408857 1.1934631660871817 0 0 0 0
93000001 0.057331170585106186 0.011650517049892966 1.6974127944328063 0.8743753255728144 0 0 0 0
94000001 0.0666431606812317 0.008933063640617156 1.6924565755574115 0.5710016529573043 0 0 0 0
95000001 0.07527429709815983 0.005002278674798963 1.6163111153844527 0.31530589746514615 0 0 0 0
96000001 0.08415143341283149 0.0007970181106954173 1.5229944633091663 0.13279124361469696 0 0 0 0
97000001 0.09239875125308691 -0.003980861361686216 1.4460456079042183 -0.018995588471590684 0 0 0 0
98000001 0.10114761785034851 -0.010093130678247571 1.3556956108345504 -0.1703334766888029 0 0 0 0
99000001 0.10927190978000718 -0.017466907069571637 1.2309537936048565 -0.3081891247971913 0 0 0 0
100000001 0.1172885684075889 -0.026259426603188304 1.066379465668737 -0.37537336889696105 0 0 0 0
