# HZ S RI R 50
1 -0.9539979026045953 0.08601245019357368 -0.0008528816243016943 -0.0019166142358774366 0 0 0 0
1000001 -0.0077766433364414534 -0.00023143287422005608 -0.01930514590796935 0.2945846888536833 0 0 0 0
2000001 -0.0078869120877807 -0.00036542250842530605 0.26666735633673916 0.5261057165347287 0 0 0 0
3000001 -0.0077534446954495686 0.000302757368316882 0.5726724456808113 0.5343941876786883 0 0 0 0
4000001 -0.007456391348395191 0.00017502273667761736 0.8109041235894803 0.4239234258881058 0 0 0 0
5000001 0.000987526415030498 -0.0034794888237144146 0.9737366063666879 0.2553098794124294 0 0 0 0
6000001 -0.0029330143656890943 0.0015322884032054412 1.0637130221463138 0.05760873793808685 0 0 0 0
7000001 -0.006805688891242066 -2.1414683312526982e-05 1.0896399854503112 -0.1403096595245159 0 0 0 0
8000001 -0.004843788263245319 0.003054542047290722 1.0651070901548394 -0.3260057846937875 0 0 0 0
9000001 -0.005652782031311821 -0.0037781179854294764 1.0006740353529489 -0.4824216019985976 0 0 0 0
10000001 -0.0067424900130533295 -0.0008919144106467404 0.9101846371788075 -0.6119125994184731 0 0 0 0
11000001 -0.0032896081202930835 -0.0008405802817046567 0.8057861148562563 -0.7162197942919968 0 0 0 0
12000001 -0.0026238856926505062 -0.0018329809474426095 0.6957699821673681 -0.7909390846296405 0 0 0 0
13000001 -0.005473765142038386 -0.0005723108853579645 0.5847566274392577 -0.8431538907018278 0 0 0 0
14000001 -0.005157291377522218 -0.0005376137339327778 0.4740609191496249 -0.8766645740140929 0 0 0 0
15000001 -0.004942764951586008 -0.0006392231323699653 0.3693597365160634 -0.8927752023290348 0 0 0 0
16000001 -0.004349607708868645 -0.00015892215359941694 0.27049701706587276 -0.8949969979597883 0 0 0 0
17000001 -0.004288570500033226 -0.0009422893722628673 0.17900031593321766 -0.8860816179637182 0 0 0 0
18000001 -0.00257063779033012 -0.00033576315072074756 0.09444679917990094 -0.8676901951034605 0 0 0 0
19000001 -0.002291407455678492 -0.0011954831902539745 0.01963870402943418 -0.8421491719218903 0 0 0 0
20000001 -0.0027542790946691125 -0.0013079728378443916 -0.04846752417825843 -0.8122777381848996 0 0 0 0
21000001 -0.0025091042086575607 -0.001406584936809545 -0.10863022043835482 -0.7782092916657415 0 0 0 0
22000001 0.0008796336949445564 -0.0018480539434212653 -0.16216074287249546 -0.740305422043854 0 0 0 0
23000001 -0.0012165046266156187 -0.0013008099469912025 -0.20917576443360938 -0.7025224262873854 0 0 0 0
24000001 -0.00016604080477691097 -0.0013842284321048202 -0.25176843818383965 -0.663108165639451 0 0 0 0
25000001 -0.00034298694958667675 -0.0020109526856502283 -0.2862841707666729 -0.6228009156750911 0 0 0 0
26000001 0.00048284479277863805 -0.002317035016429601 -0.3163686325177447 -0.5822434275523408 0 0 0 0
27000001 0.0006832404928573171 -0.0024667258865564566 -0.34389451208972077 -0.5429641884741598 0 0 0 0
28000001 0.0014311206002830539 -0.0026830336324918484 -0.3662824821999901 -0.5026144026356947 0 0 0 0
29000001 0.0017588091081559734 -0.002672450598400451 -0.3856579053142789 -0.4633527252180143 0 0 0 0
30000001 0.002507011031031025 -0.003075714695210343 -0.400661315287497 -0.4260018742038916 0 0 0 0
31000001 0.0032421554530944795 -0.0034121886609650176 -0.4123849843352222 -0.3880429268931453 0 0 0 0
32000001 0.004217306872222256 -0.0035980798009764684 -0.42190614727516224 -0.35310906639437745 0 0 0 0
33000001 0.004767727079473386 -0.0033506574782736632 -0.42906201497658447 -0.3180712131629079 0 0 0 0
34000001 0.005634527842299103 -0.0037296511635541486 -0.43321325079713335 -0.28514286906016195 0 0 0 0
35000001 0.006325933506623667 -0.004224948578529627 -0.43646818879059207 -0.2520133232072606 0 0 0 0
36000001 0.0074167141776061455 -0.004492348190031069 -0.4375668538299796 -0.22213825568512352 0 0 0 0
37000001 0.008219060895337313 -0.005023827093463041 -0.4362270792383384 -0.19276248958019498 0 0 0 0
38000001 0.009078265831667725 -0.005123052457538261 -0.43382303545271567 -0.16519635017282377 0 0 0 0
39000001 0.010083465448905884 -0.0057060537276922285 -0.431443160949284 -0.13915520907871726 0 0 0 0
40000001 0.011043856472023416 -0.005950191376096772 -0.4276590046022949 -0.11407411995945271 0 0 0 0
41000001 0.012139117955820022 -0.006335447824886303 -0.42232546302919444 -0.09001670646119614 0 0 0 0
42000001 0.013286370116308486 -0.006828855678452181 -0.4177293215216509 -0.06740365683534486 0 0 0 0
43000001 0.014587212020357142 -0.007184314017707684 -0.4112059962206651 -0.04468704510005206 0 0 0 0
44000001 0.01557100184218911 -0.007840080375911045 -0.4033241473761891 -0.023838857734703168 0 0 0 0
45000001 0.017036250302235493 -0.008215104385036543 -0.39507740750382175 -0.0047203073440229455 0 0 0 0
46000001 0.018291418823233728 -0.008985706619485329 -0.3875942545937279 0.014660076960663723 0 0 0 0
47000001 0.019263652247645265 -0.009507365838153422 -0.37950134239599187 0.0317077186606754 0 0 0 0
48000001 0.02071070917245859 -0.010016995358677129 -0.370183055869829 0.049290482638384536 0 0 0 0
49000001 0.022293764371337257 -0.011021107750306179 -0.36176536157493255 0.06557701971948937 0 0 0 0
50000001 0.02350382788793882 -0.01195328081247294 -0.35152551535775717 0.08108327953588046 0 0 0 0
51000001 0.025095439920399608 -0.012922439639861217 -0.34209924770870737 0.09720778893161057 0 0 0 0
52000001 0.026421615881702287 -0.013818091556789768 -0.3311929660258076 0.11230407596584369 0 0 0 0
53000001 0.028016394304864276 -0.014755354870619531 -0.3214115691306133 0.12761608003769648 0 0 0 0
54000001 0.02936991718565684 -0.015835859481751785 -0.3094490504847674 0.1415015308330452 0 0 0 0
55000001 0.031123723579309388 -0.016951535358845447 -0.2959954591986636 0.15602099677415285 0 0 0 0
56000001 0.03265060733901981 -0.018200122834485254 -0.281335987191964 0.16970366756002908 0 0 0 0
57000001 0.03411185174293101 -0.019512205847877558 -0.26206911154604 0.18002623769700482 0 0 0 0
58000001 0.03574790589952909 -0.0209133663635899 -0.24181679441609358 0.17958238570202711 0 0 0 0
59000001 0.03742553001416745 -0.022637709521305005 -0.23536278843586303 0.17746139900856586 0 0 0 0
60000001 0.0386228107620531 -0.023997043853306654 -0.2321334706203265 0.18384551065063115 0 0 0 0
61000001 0.040608759229769725 -0.025847687788576178 -0.22583535239585092 0.1932813578038003 0 0 0 0
62000001 0.042049344038856004 -0.027624617267194757 -0.21618669986112488 0.2036316721188434 0 0 0 0
63000001 0.04372150144246158 -0.02954098203891134 -0.20572684903732227 0.21321083158449666 0 0 0 0
64000001 0.04445048401828392 -0.03137178675161476 -0.19419444638487662 0.22194637447997706 0 0 0 0
65000001 0.046630916035420175 -0.033995670995086213 -0.18111427950064152 0.22913572143268662 0 0 0 0
66000001 0.04829809160568687 -0.03594526931833603 -0.1671643013024299 0.23762492031829968 0 0 0 0
67000001 0.04955945608666532 -0.03802213037541696 -0.15295445122576706 0.2430335743655438 0 0 0 0
68000001 0.05096560275883477 -0.040580543497555535 -0.13775946250726598 0.24554625356510085 0 0 0 0
69000001 0.05262481721237658 -0.043179296044604104 -0.12254458830783602 0.24600717568253969 0 0 0 0
70000001 0.053748372097796863 -0.0455833642340597 -0.10906775460583809 0.24205041279138284 0 0 0 0
71000001 0.055099225790684665 -0.048223727796754004 -0.09965447584920349 0.2354993583983915 0 0 0 0
72000001 0.05646400547795108 -0.05104955947783393 -0.0963487264493784 0.22711756226810087 0 0 0 0
73000001 0.05743095256096607 -0.053886452657434365 -0.10113155317926707 0.21966127787647652 0 0 0 0
74000001 0.05868057582601822 -0.05696671430663313 -0.1170052565828879 0.21574455732756015 0 0 0 0
75000001 0.0599318364672729 -0.06002545162736023 -0.14493923760183847 0.22283119030073206 0 0 0 0
76000001 0.06090002644911664 -0.06335149699959712 -0.18742298191687415 0.2600986678755424 0 0 0 0
77000001 0.06185533586610959 -0.06678617546223174 -0.21728479083559737 0.35210742740581574 0 0 0 0
78000001 0.062774502058592 -0.07015680596716176 -0.16066208592422518 0.4875348440017306 0 0 0 0
79000001 0.06345865645180641 -0.07392549410388816 -0.0005517167639490714 0.5491044539518681 0 0 0 0
80000001 0.06401648657753538 -0.0776929416650679 0.13493867838707674 0.49611049689483855 0 0 0 0
81000001 0.06458380494522059 -0.08142672554838865 0.19956561509961415 0.41338854213903603 0 0 0 0
82000001 0.06513418755776093 -0.08531648986201425 0.2227336427833372 0.3440327403253457 0 0 0 0
83000001 0.06522550845342555 -0.0895933495474236 0.22833556461954035 0.2921377430715664 0 0 0 0
84000001 0.06538813887506315 -0.09368935013026437 0.22787636082329854 0.2532292792600047 0 0 0 0
85000001 0.06488932827123918 -0.09770703933000947 0.2263110812415103 0.2216695705929235 0 0 0 0
86000001 0.06477158896297208 -0.10234262488409482 0.22256039983449064 0.19624677896929524 0 0 0 0
87000001 0.06425468238145404 -0.10652506348362865 0.218262859475761 0.17658576255578662 0 0 0 0
88000001 0.06376262863076508 -0.11115685647834685 0.21601333257986402 0.15918949052822334 0 0 0 0
89000001 0.06323051736356655 -0.11588597086506662 0.2136292908718917 0.1415847321324832 0 0 0 0
90000001 0.0615398662170387 -0.12031137130928368 0.20962246955329011 0.12703310943688012 0 0 0 0
91000001 0.05949555402369693 -0.12576773101965055 0.20696095525301447 0.11304685755246215 0 0 0 0
92000001 0.05885013763549556 -0.12963417309146627 0.20169729411671394 0.10153934218337662 0 0 0 0
93000001 0.05652063294260832 -0.13426432590352866 0.19688805833899356 0.09122000067913157 0 0 0 0
94000001 0.05435438380992459 -0.13899149637766559 0.1909804865799273 0.08040336062188025 0 0 0 0
95000001 0.05193904355366101 -0.14377395479588762 0.1826670994745028 0.07337141359316929 0 0 0 0
96000001 0.0487410245245467 -0.14840122381427986 0.17322201076172078 0.06945993324165255 0 0 0 0
97000001 0.045993367676485236 -0.15280678112132365 0.1625097369230752 0.0750249708187707 0 0 0 0
98000001 0.042545007589515904 -0.15697976761189997 0.1575497000994505 0.09651409205758044 0 0 0 0
99000001 0.03901686202584594 -0.1615770849705411 0.18858792200725566 0.12864719316032314 0 0 0 0
100000001 0.03469401692341312 -0.16573004760108856 0.2531246903626345 0.11056907444541159 0 0 0 0
