# HZ S RI R 50
1 -0.2091944588795544 -0.20884359137146863 -0.002281118112245701 0.0014703042622015545 0 0 0 0
1000001 -0.008300009698667492 0.00023710486862381738 0.7162285544060114 -1.2107749384337918 0 0 0 0
2000001 -0.00842457418975877 0.0005949814900913625 -0.7159962818264916 -2.933385106786637 0 0 0 0
3000001 -0.008396552601460019 -0.00024556614644426244 -2.6379093184196116 -3.1173369580312 0 0 0 0
4000001 -0.008026920471814018 0.00033792170868860073 -4.186619575435281 -2.4246569295759555 0 0 0 0
5000001 -0.008022558947568875 0.0009528988859855017 -5.243279490131493 -1.2813153639365438 0 0 0 0
6000001 -0.007768559432604399 0.0009928174346402246 -5.77921779057685 0.03931469786541185 0 0 0 0
7000001 -0.007917170972769826 0.0014660790097611395 -5.874886349097492 1.3907323157965494 0 0 0 0
8000001 -0.010250020910092666 0.0012533745054883073 -5.605105944300749 2.6204824688131394 0 0 0 0
9000001 -0.007616482850752142 0.0035134861613916 -5.073636221113768 3.664367018418948 0 0 0 0
10000001 -0.005588289569108964 0.00157384395933229 -4.358510007746132 4.510644202912848 0 0 0 0
11000001 -0.006348041551540656 0.002547743391680397 -3.547234710354346 5.1419799522620036 0 0 0 0
12000001 -0.006599398985033824 0.0015574363733595893 -2.6751741294576177 5.577187928372844 0 0 0 0
13000001 -0.009010532862451775 0.003930401473915327 -1.7938973898009136 5.850803473571596 0 0 0 0
14000001 -0.013253542738226352 0.0035132339308419146 -0.9353951542354223 5.95316667224747 0 0 0 0
15000001 -0.0055742625731345355 0.0019186411311261195 -0.08122529802827322 5.892726238104386 0 0 0 0
16000001 -0.004859134095753416 0.0021217551668060437 0.6928886766108213 5.718044752140569 0 0 0 0
17000001 -0.004898411037360017 0.0015207818379394998 1.3890986262315168 5.455135262293589 0 0 0 0
18000001 -0.004298263641225611 0.0018621801395629493 2.014531814869309 5.108972253006493 0 0 0 0
19000001 -0.0038387440776177194 0.0018391400152585242 2.557645073063879 4.704691411067166 0 0 0 0
20000001 -0.0010080529355526436 0.0019702536532074065 3.0165157209566624 4.248323249259015 0 0 0 0
21000001 -0.0220227460004121 0.014662358202922821 3.411094815181853 3.833627471982111 0 0 0 0
22000001 -0.013157488387974158 0.004798080912415825 3.684054498386241 3.3011093195556205 0 0 0 0
23000001 -0.0060967075083654745 0.0018172678872265266 3.9000527217704577 2.781193333992448 0 0 0 0
24000001 -0.0010598369412461758 0.0022307514185830137 4.055129267130516 2.267739085849273 0 0 0 0
25000001 -0.0003156670608606912 0.0023078435667849904 4.142190019630956 1.7723770800899674 0 0 0 0
26000001 0.0006081752397993379 0.0023812744214768543 4.170571555986756 1.303854936244979 0 0 0 0
27000001 0.0012382862751841711 0.0024151995058081907 4.1483091398054786 0.843792112094177 0 0 0 0
28000001 0.0021261967730667117 0.0019874424729483973 4.0828115734575885 0.41369699628948775 0 0 0 0
29000001 0.003018553341928104 0.0022518247741355724 3.9980950075214317 0.01929500389472083 0 0 0 0
30000001 0.004413484985041064 0.0021726941302534736 3.884234418648117 -0.34943160913194515 0 0 0 0
31000001 0.005240847057412567 0.0017571386977893817 3.745779410899121 -0.6934812550560375 0 0 0 0
32000001 0.006386973607475568 0.0016644325888389361 3.5812024511687106 -1.0065638643166361 0 0 0 0
33000001 0.007736279270371561 0.0013756902406149546 3.394396052247507 -1.2962651988269143 0 0 0 0
34000001 0.008521854510262264 0.0009431369423850979 3.181521955824579 -1.553803574069563 0 0 0 0
35000001 0.00999506581669935 0.0005267239111666666 2.959313031239008 -1.7775023715837956 0 0 0 0
36000001 0.011188265583807944 -5.876979489206744e-05 2.723298950214688 -1.9786272675999363 0 0 0 0
37000001 0.012699780899749526 -0.0008282633573014372 2.4723008472138925 -2.1526268242847806 0 0 0 0
38000001 0.013911055328937227 -0.0014543937384716293 2.217175120857438 -2.292919101624547 0 0 0 0
39000001 0.015246447281425572 -0.002311593757162515 1.9632323148981927 -2.4016586986778465 0 0 0 0
40000001 0.01694609768635187 -0.0035157281767065015 1.7105790169550033 -2.485292354571421 0 0 0 0
41000001 0.018385723088484376 -0.00455746462389984 1.456214912498668 -2.5504359952566342 0 0 0 0
42000001 0.01961092041794299 -0.005831828433990696 1.2032646569031415 -2.584786668252291 0 0 0 0
43000001 0.020740005886369706 -0.007141216948286402 0.9587370797254626 -2.595125929033797 0 0 0 0
44000001 0.022229036646745404 -0.008706988241544105 0.6056989512115446 -2.4163598528926116 0 0 0 0
45000001 0.02344192386233015 -0.010332883400490663 0.3272125805420537 -2.2610054111405615 0 0 0 0
46000001 0.024900921309505233 -0.01216697735318741 -0.1065858152961929 -1.9272769109348977 0 0 0 0
47000001 0.02603491989008188 -0.01422104609969606 -0.16150068717382748 -1.6755749322957736 0 0 0 0
48000001 0.026728420125745278 -0.016291556928776856 -0.21148061921635236 -1.5541090416059802 0 0 0 0
49000001 0.02799421979051825 -0.01831076383532503 -0.27181077065002435 -1.5296429815538326 0 0 0 0
50000001 0.029076652904620928 -0.020586849895936232 -0.4507664491596916 -1.4405680105737837 0 0 0 0
51000001 0.029295669970291816 -0.023028859946557605 -0.5827459112080644 -1.277474859565125 0 0 0 0
52000001 0.029499741874535936 -0.025135233309412565 -0.6636272426897397 -1.1156206825889419 0 0 0 0
53000001 0.029659969788388953 -0.027728561325186817 -0.7556350024668016 -0.9360358961321743 0 0 0 0
54000001 0.030082725675941325 -0.030245813608891985 -0.8244087116579853 -0.7878044264075127 0 0 0 0
55000001 0.029898969613264104 -0.03282836230568374 -0.8838589703201634 -0.7099704789647179 0 0 0 0
56000001 0.029677862369916225 -0.03565478088092968 -0.8672406034628252 -0.5250042826151138 0 0 0 0
57000001 0.02904933047896428 -0.03843790499053687 -0.8272139854120317 -0.5160836159315662 0 0 0 0
58000001 0.028315588820208855 -0.04103590162888482 -0.9059217594204222 -0.3068959667381643 0 0 0 0
59000001 0.027016823965096564 -0.043901266540351855 -0.9191377807383384 -0.27693334378238826 0 0 0 0
60000001 0.02573569317004825 -0.04652885189853418 -1.049870952770517 -0.09744321458121626 0 0 0 0
61000001 0.023866365212269928 -0.04888553535990617 -1.0998942179956008 -0.07906430824472138 0 0 0 0
62000001 0.021694578653555483 -0.051477317844031555 -1.089460663465011 -0.07942238667473336 0 0 0 0
63000001 0.018955051478443764 -0.053425051371996136 -1.1751930498356589 -0.1517048221110042 0 0 0 0
64000001 0.016017928276481408 -0.05476205725332085 -1.267212567195204 -0.08308562072960148 0 0 0 0
65000001 0.013010140461213467 -0.05580825109627087 -1.2851876872500987 -0.010258811900460914 0 0 0 0
66000001 0.010411836251104267 -0.05624739158206845 -1.2393517509520278 0.03929735932955562 0 0 0 0
67000001 0.007774570355895315 -0.05661731286549169 -1.2934822310366396 0.33273780158747973 0 0 0 0
68000001 0.005006881361733439 -0.05673016555734825 -1.6378953833454144 0.41310938135513975 0 0 0 0
69000001 0.002529607998202351 -0.056359214033952505 -1.7197705647184458 0.2098005440267092 0 0 0 0
70000001 -4.927559367757901e-05 -0.05563751676479904 -1.7346892978396404 0.35108706729631056 0 0 0 0
71000001 -0.0030019828788291217 -0.054589528863962254 -1.714883877912973 0.48781428857494263 0 0 0 0
72000001 -0.005707752785902689 -0.05336781395200041 -1.636845806894469 0.6027378231975256 0 0 0 0
73000001 -0.008594884776772007 -0.05145009330241152 -1.5665692210498332 0.6896803373483862 0 0 0 0
74000001 -0.010980838284116603 -0.048959102856477865 -1.5235184187707334 0.7605006524157227 0 0 0 0
75000001 -0.01339604760754394 -0.046359751838343115 -1.5118372948295045 0.846860223196132 0 0 0 0
76000001 -0.015151576882715392 -0.04245454970005476 -1.5061538681542899 0.973769277288947 0 0 0 0
77000001 -0.016595097448662614 -0.03887442316911158 -1.461028151206742 1.133464373497177 0 0 0 0
78000001 -0.017165713315702602 -0.03478604600903838 -1.3747898461547763 1.2937099767098728 0 0 0 0
79000001 -0.017170253594435223 -0.03060406724480609 -1.2599036139427098 1.435339462474976 0 0 0 0
80000001 -0.016809883398237822 -0.026089521503021913 -1.1339900983285462 1.5626951137897407 0 0 0 0
81000001 -0.01543865643133008 -0.02154187939945007 -0.9974386874774543 1.6813320100828955 0 0 0 0
82000001 -0.01377137009556442 -0.01650009195481263 -0.855330225421026 1.7878344945263036 0 0 0 0
83000001 -0.011727255245025377 -0.011655013009382827 -0.6992406916192099 1.8982757246435753 0 0 0 0
84000001 -0.008538658314716452 -0.006858151784818803 -0.5239036239403754 2.0022039512650114 0 0 0 0
85000001 -0.003986001255584287 -0.0018965532875749446 -0.3436820101789356 2.120788526844599 0 0 0 0
86000001 0.001489186151293291 0.0027810194154994066 -0.07431104553808081 2.2465310874443047 0 0 0 0
87000001 0.007652993199392457 0.006520653957882374 0.2933170123453606 2.30108586140514 0 0 0 0
88000001 0.014878016793899473 0.009799985065581555 0.6176807246737299 2.2162881928399636 0 0 0 0
89000001 0.02232659294210955 0.012144243433987062 0.9431935865171228 2.1293197693351527 0 0 0 0
90000001 0.030853845635113994 0.01366057187938927 1.270586351582341 1.9283279504846127 0 0 0 0
91000001 0.03955618441883648 0.014051286945591431 1.5182851142524152 1.6509889377652895 0 0 0 0
92000001 0.04852865573221613 0.013363334068695184 1.6878340933633533 1.336768293044487 0 0 0 0
93000001 0.05731125373763041 0.011526590794060562 1.7739565785023221 1.0148086160981689 0 0 0 0
94000001 0.06666896878292906 0.009023672968564517 1.782014544425475 0.7031971411539817 0 0 0 0
95000001 0.07514300041074044 0.0051523589067868246 1.7197626598672702 0.4379723982061956 0 0 0 0
96000001 0.08414698739584903 0.001034969696524379 1.6407106714788613 0.2435173518296894 0 0 0 0
97000001 0.09262957013925116 -0.00422704961727558 1.56977220773635 0.07861976135015356 0 0 0 0
98000001 0.10137312892750339 -0.010032693229651803 1.4919465316174485 -0.0891923766848845 0 0 0 0
99000001 0.10939662881901947 -0.017575778704994147 1.3752755397645435 -0.24349425075100806 0 0 0 0
100000001 0.11734153327899643 -0.026077180429549006 1.2145986540758145 -0.3260010814554482 0 0 0 0
