# HZ S RI R 50
1 0.9117983483726227 0.23018893504421487 -0.0003827240513322774 -0.0013458061944671643 0 0 0 0
1000001 -0.972504636824585 -0.0654567934827894 -0.00012355747445921462 -2.1269647371518116e-06 0 0 0 0
2000001 -0.9794409323088915 -0.01912793802148767 -0.00025376238081500663 6.123721913263742e-05 0 0 0 0
3000001 -0.9691535090022511 -0.030757521986094865 0.00014297360185938092 -8.814699165418267e-05 0 0 0 0
4000001 -0.9754831022717848 -0.012795468573808283 -0.00021246488094337979 -5.421560499974164e-05 0 0 0 0
5000001 -0.9639903431287323 0.018987675560776476 -4.0563856582124165e-05 0.00021329105968313016 0 0 0 0
6000001 -0.9719258729591419 -0.002928808841456964 -0.000146197787117488 -0.0004613766122292736 0 0 0 0
7000001 -0.9723307824318405 0.005122734011962545 -0.0004287642155177084 -6.117797850759608e-05 0 0 0 0
8000001 -0.9690665842549704 -0.0035229773294916792 -0.00032140916695799554 0.00015203288668236671 0 0 0 0
9000001 -0.9747311490455514 0.0019018002065481513 -0.00018015597907811704 -6.210253206586147e-05 0 0 0 0
10000001 -0.9757486834628647 0.0015423251167741548 -0.00014321074845113463 -0.00012485808460258583 0 0 0 0
11000001 -0.9752367418338362 0.002333564422390955 -0.0004179024839258099 -0.00018296876955362985 0 0 0 0
12000001 -0.9754300583161881 0.0055602601486944864 -3.0464041094883574e-05 1.8985043373022955e-05 0 0 0 0
13000001 -0.9734260417200074 0.004927377412764363 -0.0002143132427539595 3.628439678279737e-05 0 0 0 0
14000001 -0.9769150629678874 0.008681735293636503 -0.00041899185460374775 -0.00016742127302013377 0 0 0 0
15000001 -0.9803707460332273 0.012174275560268096 -0.00011715177490973297 0.00032102370129945886 0 0 0 0
16000001 -0.9735699186161427 0.011962600516313626 0.00017164061525278576 -0.00036006892283571107 0 0 0 0
17000001 -0.9756311078564387 0.012837502995527727 0.00011434331817435417 -0.0001271072586217922 0 0 0 0
18000001 -0.9748656384083855 0.014012348381713982 -0.00010942415817314392 6.3469938215922e-05 0 0 0 0
19000001 -0.9746212413214326 0.01545940595922808 -0.00014353460724634147 0.0001005103621072515 0 0 0 0
20000001 -0.9751230344061513 0.016502339735390073 -8.25369828247147e-05 0.0003139503725244722 0 0 0 0
21000001 -0.9747730277582097 0.01731224053322719 -0.00015894814632248306 9.836840327385301e-05 0 0 0 0
22000001 -0.974730812391675 0.018410569130354 -9.441167992771165e-05 -4.9454156018949934e-05 0 0 0 0
23000001 -0.9780670908053052 0.021776534252250894 -5.658537493523393e-05 0.0004481421104248731 0 0 0 0
24000001 -0.9744138725843288 0.023275184707306388 -0.0002618133631709924 2.2068291141527532e-05 0 0 0 0
25000001 -0.9746584637770406 0.021865150257170358 -0.0003081026974477624 8.982935755986958e-05 0 0 0 0
26000001 -0.9745442794076634 0.027917976282170257 -0.0004181885482142732 7.308154372419987e-05 0 0 0 0
27000001 -0.9745981832541338 0.023903372587590996 -0.0001800957221180076 -0.0002844945320927821 0 0 0 0
28000001 -0.9746949466683648 0.024876595525071914 -0.00013945007243095094 7.058408434812149e-05 0 0 0 0
29000001 -0.9744271859038497 0.02619102773559926 -0.0003471213791593956 0.0002860426490993499 0 0 0 0
30000001 -0.9744430768330393 0.02744048614511659 -0.0003749676593573096 0.00017628592992405406 0 0 0 0
31000001 -0.9742017928306842 0.02838634415991797 -0.0003405592979498772 -0.0001257891179969794 0 0 0 0
32000001 -0.9732064942206101 0.032911294230582054 -0.0002824513733371888 -0.00010553471491085906 0 0 0 0
33000001 -0.9743464617374713 0.03031550171352531 -3.539424716657967e-05 -0.00019616711893230811 0 0 0 0
34000001 -0.9741105438471636 0.031608244641143715 -0.00011514955617160762 0.0003551292588678262 0 0 0 0
35000001 -0.9740097931051283 0.03260733226642222 -0.0003762615437628718 -0.0002203911400966994 0 0 0 0
36000001 -0.9737650748890102 0.033607414523768565 -0.0004139431746858317 0.00045212906596228143 0 0 0 0
37000001 -0.9738604455643706 0.03427323863787383 -0.0002630027431837504 0.000205121222518587 0 0 0 0
38000001 -0.9737430988062964 0.03544476952685588 2.4652157188434934e-05 4.111400764071632e-05 0 0 0 0
39000001 -0.973848132034365 0.036592012063710745 -0.00013367282417431518 0.0002260762021869552 0 0 0 0
40000001 -0.9739840445696156 0.03739710097189252 -0.0001282617698372586 0.0001426904518976869 0 0 0 0
41000001 -0.9738542852833358 0.038498145564129074 -7.12996712171402e-05 0.0002046662754642438 0 0 0 0
42000001 -0.9734228626030432 0.03943466615826113 -1.8939524199148067e-05 0.0002702615367853825 0 0 0 0
43000001 -0.9733166051282495 0.04031999389358526 -0.0003183883266229405 0.0002985550519767996 0 0 0 0
44000001 -0.9732602907546236 0.041170166201432844 -0.00021882370328734743 0.0001222824070490882 0 0 0 0
45000001 -0.9734616021733891 0.042340064905541645 -0.00047788585443062423 -2.6259923981328515e-05 0 0 0 0
46000001 -0.9737356154215258 0.04366048183757177 -5.693707337493861e-05 -9.649517512286437e-05 0 0 0 0
47000001 -0.9732633457220522 0.044525062023380996 -0.00030178778745624705 -2.683709316812766e-07 0 0 0 0
48000001 -0.9732745783710062 0.046062671489511244 -0.00014850809410430215 0.00020030738935540528 0 0 0 0
49000001 -0.97299576765584 0.04660041310013508 -8.442266311302464e-05 0.0001039203675952398 0 0 0 0
50000001 -0.9729503703891462 0.047495387535864374 -0.00015952469049134466 3.7147677964365205e-05 0 0 0 0
51000001 -0.9727554476459259 0.04850508678696399 -0.0002604870091508624 0.000253975161511837 0 0 0 0
52000001 -0.9725907241008243 0.04945909657987756 3.0409890748899584e-05 -1.0526293796334832e-05 0 0 0 0
53000001 -0.9727867101918579 0.05058056145530083 -0.00018287803000938333 0.00020197130514021603 0 0 0 0
54000001 -0.9724307130411264 0.05132691320536762 0.0001301612363127305 -1.202553289714753e-05 0 0 0 0
55000001 -0.9725745251716803 0.05234508823718045 -0.00028919596285355726 -0.00011754885547360898 0 0 0 0
56000001 -0.9727799063631067 0.0533727622412864 -2.9537642908566447e-05 -0.0002216241097368997 0 0 0 0
57000001 -0.9724265219940712 0.054031558655278075 -0.00020259929840700026 0.0002819406073636309 0 0 0 0
58000001 -0.9721148507339189 0.054985840740271553 -0.000136620351899926 2.9716640134034482e-05 0 0 0 0
59000001 -0.9723115394339255 0.05617654847322121 -0.0003933247630319842 0.00014667241093837307 0 0 0 0
60000001 -0.9722797908829824 0.057147502314179664 -0.00011371279262360802 -6.226021385505269e-05 0 0 0 0
61000001 -0.9719464794883061 0.05835677493845853 -6.731448722398231e-05 0.0001798442321607369 0 0 0 0
62000001 -0.9717298278569814 0.059084433155634275 -9.443956472344056e-05 -6.337851167875531e-06 0 0 0 0
63000001 -0.9718377754526099 0.06022401494953896 -8.834211339050548e-05 7.241195234921758e-05 0 0 0 0
64000001 -0.9719999095121011 0.06120982132839133 -4.378468613442491e-05 0.000257101250847508 0 0 0 0
65000001 -0.971504196366129 0.06218770706730751 5.088512356488592e-05 0.0002981371920955861 0 0 0 0
66000001 -0.9713470260609158 0.06284543847964141 0.00020269597605427703 -7.79938433522355e-05 0 0 0 0
67000001 -0.971328359119936 0.06414831565453064 -5.4900474038028774e-05 0.0002591269593019964 0 0 0 0
68000001 -0.9713468136478773 0.06507622539153098 -1.3558350599161961e-05 -4.6684760173272815e-05 0 0 0 0
69000001 -0.9713423480611659 0.06596814720132688 0.00013320141504962588 0.00015240249944830728 0 0 0 0
70000001 -0.97133041786645 0.0670617769542771 -0.0004603099425811662 -7.388946634490865e-05 0 0 0 0
71000001 -0.9710796875794251 0.06780234453385231 -3.892925428372189e-05 5.243517673819317e-06 0 0 0 0
72000001 -0.9711400832998555 0.06904077070182955 -7.836516298623945e-05 0.00018200733048199632 0 0 0 0
73000001 -0.9709402511161189 0.06992725724141327 -0.00019188903283882448 -6.683642630811882e-06 0 0 0 0
74000001 -0.9709403951836522 0.07098664433227468 -6.108697213793302e-05 0.00022322544501232985 0 0 0 0
75000001 -0.9710144260035277 0.07170508798250205 -0.0003302840384107426 0.00018938724824236022 0 0 0 0
76000001 -0.9708312877352544 0.07269034216660625 -4.437736095777154e-05 3.859397726390992e-05 0 0 0 0
77000001 -0.9704249981140339 0.07371108046639913 0.0001938619962656581 0.00014365645008007573 0 0 0 0
78000001 -0.9715596119080505 0.07425597864364177 -0.00029805440962843335 0.00030347953542484904 0 0 0 0
79000001 -0.9700127813885433 0.07551581262003947 -5.018068684586996e-05 4.6530302422477946e-05 0 0 0 0
80000001 -0.9688756622965173 0.0789486083635034 -0.0003327260568006955 1.8106488843347948e-05 0 0 0 0
81000001 -0.9664534739598549 0.0826418140741418 -0.0001471019188400636 0.00019428940229412707 0 0 0 0
82000001 -0.9674073660555754 0.08332850988045311 0.00017701125018480224 0.0003256694015427224 0 0 0 0
83000001 -0.974080759192781 0.08840342793408032 0.0001921272831712497 0.000277990820330869 0 0 0 0
84000001 -0.9754124374216994 0.0849875733598704 -0.0001739578077951579 -8.23026387455826e-05 0 0 0 0
85000001 -0.9694520545053497 0.0814458096512047 4.540377256862897e-05 -0.00010129942577588263 0 0 0 0
86000001 -0.9726963508570755 0.08271623704597875 -4.7248281512828015e-05 4.118320306155127e-05 0 0 0 0
87000001 -0.9695564159147787 0.08337699328725565 -0.00019325452065561323 0.00014462660913787097 0 0 0 0
88000001 -0.9690967534967797 0.08428308015359565 -0.00011741966501042805 0.00012983288698743768 0 0 0 0
89000001 -0.9688544468313262 0.08557294833970991 -0.000213679321958633 7.29374471741896e-05 0 0 0 0
90000001 -0.9685309278800781 0.0863100808953839 0.0003205537990705174 7.062298432252489e-05 0 0 0 0
91000001 -0.9704179248530894 0.09192281888081133 -0.00040298685137907963 0.00030587927762650263 0 0 0 0
92000001 -0.9687656426744211 0.08825860397942342 -0.00023461053262158776 0.00011706451228936469 0 0 0 0
93000001 -0.9685915574619818 0.0891737126368587 -0.00017672614806103364 0.00013103464966413895 0 0 0 0
94000001 -0.9683630637334538 0.08995842420550722 7.325832045715786e-05 0.00021153273660529903 0 0 0 0
95000001 -0.968148914814924 0.09094260070127355 -0.00015122266085090867 0.00030920560741556474 0 0 0 0
96000001 -0.9679163455822986 0.09134536075797169 -0.00018763984125184493 6.758183355889124e-05 0 0 0 0
97000001 -0.9677666934826171 0.09295243487742556 -0.0001144969886599512 -4.0295335958468205e-05 0 0 0 0
98000001 -0.9672334916592317 0.09342257161210166 -5.7161798598159746e-05 0.0001826977870890388 0 0 0 0
99000001 -0.967388356614645 0.09455961687192552 -7.635987169696453e-05 0.00011061214702195325 0 0 0 0
100000001 -0.967861131509107 0.095702716911074 -0.00022234751409044013 -0.00013318050141464542 0 0 0 0
