# HZ S RI R 50
1 0.5130203739922224 -0.15253768132240206 -0.001456237400139468 -0.0009186772961766179 0 0 0 0
1000001 0.9670884690855115 -0.017331236399608915 4.9682980039593726e-05 -0.00017887092060550914 0 0 0 0
2000001 0.9710946613171808 -0.01180895452025276 -6.762366107336421e-05 0.0001621498475491191 0 0 0 0
3000001 0.9628549788484967 -0.015695044445612594 -1.2229614968170308e-05 -8.661215942532626e-05 0 0 0 0
4000001 0.9619883226186553 -0.016204637223740867 -9.44240824414033e-05 8.225970538538822e-05 0 0 0 0
5000001 0.9587514072575423 -0.018533558295919645 7.825781114099437e-05 0.0001239703451051365 0 0 0 0
6000001 0.9656312934496256 -0.024643932508499392 -3.789795840419039e-05 -2.7951534171332036e-05 0 0 0 0
7000001 0.9668353399585067 -0.02107601909140994 -0.00011369347144995859 7.779593847074389e-05 0 0 0 0
8000001 0.9586057726959648 -0.01507627090898605 7.029652373810476e-05 9.783694981906094e-05 0 0 0 0
9000001 0.9586850822333198 -0.019780554856413373 1.6666530125188738e-05 3.366762429418688e-05 0 0 0 0
10000001 0.9575484842671841 -0.02112431510449396 1.3012149229838586e-05 7.888728196736636e-05 0 0 0 0
11000001 0.9592267981265739 -0.02193891291116136 -5.9220016938861506e-05 -5.2077317030511045e-05 0 0 0 0
12000001 0.9616215568875198 -0.027767504808344293 9.361521171483246e-05 -9.29165853469819e-06 0 0 0 0
13000001 0.9589154351772522 -0.025709673894175073 7.741589545832777e-05 -5.526458738785647e-06 0 0 0 0
14000001 0.9542648788270005 -0.021710352460667586 -0.00029315598214243316 -6.01644233123995e-05 0 0 0 0
15000001 0.9571161827634094 -0.02793920329817957 -7.545237213019625e-05 0.0001065624932726633 0 0 0 0
16000001 0.9547967608195369 -0.027628078018686122 -0.00010619582890556049 -0.00020639054390117785 0 0 0 0
17000001 0.9604882786018049 -0.03297197913750712 1.6650717483158712e-05 -0.0001620480217577347 0 0 0 0
18000001 0.959320467412621 -0.03788759164584178 -4.502526422819011e-05 2.5147926098042944e-05 0 0 0 0
19000001 0.9545338848356593 -0.03571913856131117 -7.590454921994624e-05 -7.33827728970791e-05 0 0 0 0
20000001 0.9555842661931843 -0.03521184135331805 8.76584921890537e-05 -1.0769017199211217e-05 0 0 0 0
21000001 0.9553170368648229 -0.03677629064997301 3.2391670025549924e-05 0.00010530306706524454 0 0 0 0
22000001 0.9549430259180758 -0.038207265866195196 -7.874237740185122e-05 -1.0821968769601435e-05 0 0 0 0
23000001 0.9522536662726945 -0.03499525631341971 0.00014714418700853484 8.05103703579376e-05 0 0 0 0
24000001 0.9568539766063086 -0.045974904323562604 -0.00011397426080679236 -4.7878013455009986e-05 0 0 0 0
25000001 0.9543755918193984 -0.042686211544257426 -1.671283695623762e-05 -1.0349027681627385e-05 0 0 0 0
26000001 0.9540515350193007 -0.04444146998660967 -0.00014931808010168116 8.412418026832614e-05 0 0 0 0
27000001 0.9539869653356355 -0.045416063434667565 -0.00017640937074047926 1.3260974187823921e-05 0 0 0 0
28000001 0.9535278755852908 -0.04714285799838554 1.9819363645899134e-05 -5.9232122616349804e-05 0 0 0 0
29000001 0.9533980956758898 -0.04848017316664464 5.1799838975094174e-05 0.00011811586957773918 0 0 0 0
30000001 0.9528909015530203 -0.05002235855479908 4.061944641861694e-05 -3.5924017064023294e-06 0 0 0 0
31000001 0.9529628246305649 -0.0513562820171197 -8.084365899078989e-05 3.618596075153637e-05 0 0 0 0
32000001 0.9527065918811299 -0.053483500382908694 3.240406639601078e-05 -7.08101886340386e-05 0 0 0 0
33000001 0.9524896505855789 -0.0545643405782821 -2.435644161220753e-05 -0.00011941889757676777 0 0 0 0
34000001 0.9523684061468949 -0.056041227110989716 -2.9951492717504866e-05 -1.9675578234525515e-06 0 0 0 0
35000001 0.9520153819546516 -0.05786054033417459 -0.00010679590523659247 3.4940922249541805e-05 0 0 0 0
36000001 0.9518841884836334 -0.059159245292885854 8.514819291132688e-05 -3.3661655472658595e-05 0 0 0 0
37000001 0.951894135560798 -0.06068224848142449 -9.03686719653996e-06 0.0001452725429607952 0 0 0 0
38000001 0.9512769314251879 -0.06234309376928066 2.9389970812771104e-05 -2.9972668720889546e-05 0 0 0 0
39000001 0.951237577135723 -0.06357667223061794 -5.9948919536754584e-05 -8.784696486406996e-06 0 0 0 0
40000001 0.9578660743871662 -0.0691590877852819 2.355127112654824e-05 5.5045390797178295e-06 0 0 0 0
41000001 0.9569948999354374 -0.06993658903459761 5.598013649966038e-05 0.00012467355505290056 0 0 0 0
42000001 0.9505447518746333 -0.06830873008141326 -3.182814355049166e-05 6.961707505197028e-05 0 0 0 0
43000001 0.9504513462634423 -0.06999290356852533 -6.714103155056143e-05 8.759673729552453e-05 0 0 0 0
44000001 0.9501225956371143 -0.07133117573099494 -6.613160697149681e-05 1.7691294380706434e-05 0 0 0 0
45000001 0.9498873729550045 -0.07279063384086067 -8.794567548029919e-06 2.6239788305769756e-05 0 0 0 0
46000001 0.9545996436944266 -0.07891599516209846 5.067139148036113e-05 -3.5513461638374056e-06 0 0 0 0
47000001 0.9497756400654389 -0.07624817550092816 -1.2997705971307483e-05 7.632442995136646e-05 0 0 0 0
48000001 0.9404420565630524 -0.0876426367543263 3.3333589157466995e-05 1.9759995632027627e-05 0 0 0 0
49000001 0.9492278803106317 -0.07883864571895265 8.631042093199836e-05 2.6650987061287507e-05 0 0 0 0
50000001 0.9490253289260326 -0.08031992496554942 -3.805234790826907e-05 2.0291623366919857e-05 0 0 0 0
51000001 0.9485005128663941 -0.08214593608940654 6.325923547403038e-05 9.146194322368767e-06 0 0 0 0
52000001 0.947896392364368 -0.0841289900085175 2.3430428061032758e-05 2.7444145287705285e-05 0 0 0 0
53000001 0.9481622640222822 -0.08490413602692091 -9.789059552955477e-06 0.00010673137946230606 0 0 0 0
54000001 0.948359812102732 -0.08635949130181374 5.2569579611708073e-05 -2.425245941668816e-05 0 0 0 0
55000001 0.948132411889317 -0.08816075001676238 2.8037227627554402e-05 -8.038539907770952e-06 0 0 0 0
56000001 0.9475793889988009 -0.08989035335683736 2.3394668970721422e-05 -0.000165416530645431 0 0 0 0
57000001 0.9476249437721922 -0.09093634181332041 -1.818879927032325e-05 7.880933037266249e-05 0 0 0 0
58000001 0.9470364619101056 -0.09258453421202406 -6.343114673640636e-05 -1.6330954683344255e-05 0 0 0 0
59000001 0.9495158377401086 -0.10008532838205288 4.4121976943195706e-05 -6.146878830516763e-05 0 0 0 0
60000001 0.9471041417188505 -0.09568462269956615 -9.913515236473457e-06 -5.1953252086463536e-05 0 0 0 0
61000001 0.9464643278804729 -0.0971747334240316 -4.3732901247994605e-07 1.4035733247605668e-05 0 0 0 0
62000001 0.9464752712427046 -0.09893927577503142 -3.680131717445738e-06 -2.294991722252649e-05 0 0 0 0
63000001 0.9460875607668571 -0.10030910992374796 -4.6900640676350176e-05 -1.8417871211668986e-05 0 0 0 0
64000001 0.94584167066951 -0.10219174917551395 -2.0456883036113454e-05 -9.72117062143052e-06 0 0 0 0
65000001 0.9457152088358651 -0.10322678235585224 9.228819506940682e-06 3.550975756006248e-05 0 0 0 0
66000001 0.9452359882994522 -0.10445075153951362 5.197881494429749e-06 1.6754087061163027e-05 0 0 0 0
67000001 0.9453445185118503 -0.10654565646217308 5.865128996210834e-05 9.417877490368777e-05 0 0 0 0
68000001 0.9449080940191275 -0.10803551488373983 5.9364642876386887e-05 -1.4992274142425696e-06 0 0 0 0
69000001 0.9446082688330838 -0.10982525590924415 0.0001227111222319207 -1.0729470726638548e-05 0 0 0 0
70000001 0.9443847281658319 -0.11093269284472046 -1.735374056087506e-05 -3.58454777292262e-05 0 0 0 0
71000001 0.9445345567877353 -0.11226860808528309 -1.4955292167293873e-05 -8.119414271834892e-05 0 0 0 0
72000001 0.9442754321624672 -0.11412547700531891 -1.5575180698886527e-05 6.769730525311446e-05 0 0 0 0
73000001 0.9438294395553848 -0.10838392057379356 3.659375340827665e-05 2.985132488921326e-05 0 0 0 0
74000001 0.9436912203905428 -0.11687902728417406 6.525903005254711e-05 5.064796200865051e-05 0 0 0 0
75000001 0.9432754989471205 -0.11873808311581607 2.0107719253842357e-05 -2.4238742449219533e-05 0 0 0 0
76000001 0.9431952048905574 -0.11997569916778343 3.540339154146732e-05 2.511440725580772e-05 0 0 0 0
77000001 0.9428427902606821 -0.12175894699116671 -6.092073284198976e-05 -7.405376182143329e-05 0 0 0 0
78000001 0.9418350932106168 -0.11309908807541932 -1.3041981155659405e-05 -3.847457537050804e-05 0 0 0 0
79000001 0.942469115499041 -0.12470957640072587 1.997966311607332e-05 -7.048519786680236e-05 0 0 0 0
80000001 0.9419278695471717 -0.12700468895551803 -4.3640934564568836e-05 -7.297545706230882e-05 0 0 0 0
81000001 0.9418449626346297 -0.12810714652898597 -1.5214678032183786e-05 3.600712753855817e-05 0 0 0 0
82000001 0.9417744197723449 -0.12983709098687307 -5.244938935326981e-05 9.564072943457923e-05 0 0 0 0
83000001 0.9406388350755289 -0.13141467814937502 -7.309381512278316e-06 4.509003463427009e-05 0 0 0 0
84000001 0.9412561406664915 -0.13254573141906856 -6.401837300068502e-05 -6.751819580834127e-05 0 0 0 0
85000001 0.9406746848126327 -0.13429018081719965 -1.4665846546468068e-05 9.590469763466448e-06 0 0 0 0
86000001 0.9328848319458649 -0.14563829857735758 -6.607893046101883e-05 2.5550280904278846e-05 0 0 0 0
87000001 0.9400038185908789 -0.13748256954382038 -5.0991006684478844e-05 5.675318947271015e-05 0 0 0 0
88000001 0.9420918324303689 -0.14648986767671876 2.89819228037407e-05 -3.657074951081598e-05 0 0 0 0
89000001 0.9394870850132788 -0.14033601121693334 1.4491219347614537e-05 1.6886884690585215e-05 0 0 0 0
90000001 0.9401933053300006 -0.14209604711421595 0.00013064606128579203 0.00011953642523324367 0 0 0 0
91000001 0.9390385383037696 -0.14328481950848695 -6.714698259726897e-05 7.456126070627592e-05 0 0 0 0
92000001 0.9386987642843027 -0.14478262978355116 -3.0020763250900037e-05 -1.131792480358813e-05 0 0 0 0
93000001 0.9384509044660627 -0.14650264037556832 -3.61859134400359e-05 -7.110687947499197e-05 0 0 0 0
94000001 0.9393362909168479 -0.14806838367068528 1.820730791411156e-05 -8.5298872184721e-05 0 0 0 0
95000001 0.9379163907766903 -0.14967041278417256 -1.1210435406697018e-05 8.56334749934803e-05 0 0 0 0
96000001 0.942948015071896 -0.15429279452344663 -7.328516281494504e-05 1.4091258606209253e-05 0 0 0 0
97000001 0.9370898395557752 -0.15221294958641635 0.00011294860064605181 -7.361667252787702e-05 0 0 0 0
98000001 0.9368727078471633 -0.1539700879496204 7.919061199191833e-05 0.00016330804291712212 0 0 0 0
99000001 0.9364817350434133 -0.1552206280192802 -2.6735201138025978e-05 4.001488566893781e-05 0 0 0 0
100000001 0.9358275625137537 -0.15701790673700847 1.6064751228602105e-05 -4.6055394113373886e-05 0 0 0 0
