# HZ S RI R 50
1 0.8010600935694473 0.19747104578783883 -0.00061357970354264 -0.001196991872822616 0 0 0 0
1000001 0.9693944436511969 -0.017339840279100432 8.952912151216184e-06 -1.3339749371450034e-05 0 0 0 0
2000001 0.9730678075630045 -0.012342056203026936 4.567327154127354e-05 0.00010699206958882947 0 0 0 0
3000001 0.9640165346308458 -0.016575626751137138 -4.3910300330071184e-06 -2.285155465137219e-05 0 0 0 0
4000001 0.9631234972620616 -0.016872091892997973 -0.00020000788896341897 -4.390121440869247e-05 0 0 0 0
5000001 0.9583602202880763 -0.013974302111076529 8.913670222963221e-05 0.00011108526223116423 0 0 0 0
6000001 0.9633015615323969 -0.024722241080258466 -4.144224676121346e-05 -3.878085586643021e-05 0 0 0 0
7000001 0.9652084005072664 -0.021778924976347293 2.656255009877213e-05 -9.526850265156253e-07 0 0 0 0
8000001 0.9642308913424869 -0.02321267017780959 4.495578553851084e-05 -2.8058161506704205e-07 0 0 0 0
9000001 0.9594712604166928 -0.020152022737825303 0.0001685743752874017 -2.4214604861917886e-05 0 0 0 0
10000001 0.9622546546785072 -0.023801140412263475 -5.122824127717614e-05 1.1116228548515728e-05 0 0 0 0
11000001 0.956080933185103 -0.021119622674063608 -9.19727891731182e-05 2.1703857141603542e-05 0 0 0 0
12000001 0.958008937142005 -0.023703716290852248 1.9601639736884023e-05 -0.00017648050485413253 0 0 0 0
13000001 0.9584868204555357 -0.024913900173316735 -2.1846739721328483e-06 -6.885928752378275e-05 0 0 0 0
14000001 0.9577901604613882 -0.02695149741984557 -0.00014899493925477517 1.3043830341224405e-05 0 0 0 0
15000001 0.9570955580641073 -0.028171365447215716 -4.7740272200796984e-05 3.832303541387209e-07 0 0 0 0
16000001 0.9579281171668372 -0.030427883037177247 -0.00011570473052728789 -0.0001631538530112304 0 0 0 0
17000001 0.9620734031626788 -0.03010728799227315 0.00014864054402931613 -5.515812347264582e-05 0 0 0 0
18000001 0.9583359258693619 -0.03822199037850382 0.00011221233413430565 -5.0802303221385195e-05 0 0 0 0
19000001 0.9495754146439268 -0.03433198441437591 5.712611176373193e-05 3.070154820243454e-05 0 0 0 0
20000001 0.9558123482070218 -0.03515081713265999 -7.305380725219762e-06 9.159395793219487e-05 0 0 0 0
21000001 0.9554547533876703 -0.03680558384706419 3.38464248650701e-07 2.9690591785219788e-05 0 0 0 0
22000001 0.9513989804579177 -0.03786238755096626 -9.129140979517752e-05 -4.1352382682757085e-05 0 0 0 0
23000001 0.9579713484599036 -0.04115117617814969 0.0001612416438174308 -7.37244493442157e-05 0 0 0 0
24000001 0.9556696063261374 -0.046595295033331235 -0.00013885440238433424 -5.327072662342016e-05 0 0 0 0
25000001 0.9543912993109093 -0.04253908571288766 -5.3448739875261833e-05 3.112705778374393e-05 0 0 0 0
26000001 0.9540438200106194 -0.04437951662906466 1.9225117598349918e-05 1.623391838785138e-05 0 0 0 0
27000001 0.9538111132497303 -0.045508101415255194 -9.082530560191567e-05 6.814508400833831e-05 0 0 0 0
28000001 0.9538621086481106 -0.047149018276946585 -2.5194691067154422e-05 -5.253615701955742e-06 0 0 0 0
29000001 0.9534662892674186 -0.0485841687417283 -4.916703392979208e-05 9.051335897451986e-05 0 0 0 0
30000001 0.9530106887341498 -0.04989770683596114 -7.355396856116358e-05 -4.660228376923143e-05 0 0 0 0
31000001 0.9528200436085091 -0.05173860973191226 -6.103903774348779e-05 -4.7723568741662676e-05 0 0 0 0
32000001 0.9528131626919459 -0.053261895288617835 -4.4016558748619835e-06 -6.818459435916965e-05 0 0 0 0
33000001 0.9527183996961663 -0.054703869526391294 -0.00012548193670647992 -0.00014547418869609763 0 0 0 0
34000001 0.9522004588447819 -0.05601578566109365 5.619435320828233e-05 -4.735771917968407e-05 0 0 0 0
35000001 0.9519672057546018 -0.05746978004789447 -6.716374638337196e-05 1.7704864085523912e-05 0 0 0 0
36000001 0.9517048627116814 -0.05918407102506227 7.353388073005798e-05 -3.287905494491411e-05 0 0 0 0
37000001 0.9518595877776496 -0.060709321772750895 1.1111844578218501e-05 1.07963603710395e-05 0 0 0 0
38000001 0.9512710069544211 -0.06232943010524763 6.309576159119493e-05 -8.779221517886687e-05 0 0 0 0
39000001 0.9510658969406405 -0.0638940239583713 -4.8916817531255594e-05 -7.470214029247759e-05 0 0 0 0
40000001 0.9577133143809448 -0.06908508020274032 4.1070332851289396e-05 1.5544744638385308e-07 0 0 0 0
41000001 0.957446992803593 -0.06993401818246146 -2.87776797595817e-07 0.00010390312464527632 0 0 0 0
42000001 0.9505300408110068 -0.06846401804669776 -3.306082012076206e-05 -2.3369114268718537e-05 0 0 0 0
43000001 0.9504088424979739 -0.06985900602556995 1.895822793439675e-05 8.797375627790985e-05 0 0 0 0
44000001 0.950290296891998 -0.07132566766811894 -2.029827711414039e-06 -4.397073834971189e-05 0 0 0 0
45000001 0.9497979934873574 -0.07280855592792661 -0.00011785826708672139 4.6714742113150026e-05 0 0 0 0
46000001 0.9545647032400365 -0.0724251855256502 -3.133755096974968e-05 1.0203648459450963e-05 0 0 0 0
47000001 0.9497347256896549 -0.07608165143564707 -8.771064349467176e-07 -5.052874006238088e-05 0 0 0 0
48000001 0.9402364263362084 -0.08747676098776909 8.615691598246763e-05 -9.77043704043604e-06 0 0 0 0
49000001 0.9497751024514202 -0.07855286490002684 -4.2245161230636257e-05 2.5821232012311824e-05 0 0 0 0
50000001 0.9495238850122006 -0.08065190758380203 -0.00010858097671237657 1.4995797408816239e-06 0 0 0 0
51000001 0.9489200071883693 -0.08233300957502807 3.6373248773012e-05 -2.7120703947480017e-05 0 0 0 0
52000001 0.9483427559513947 -0.08406999022804224 -8.661803075217106e-07 -4.695158463129757e-05 0 0 0 0
53000001 0.948448054784632 -0.08497837101707613 -1.3091344728546406e-05 2.1123028464574516e-05 0 0 0 0
54000001 0.9483874414773317 -0.08643644315104027 -1.435719062399372e-05 9.563823563357122e-06 0 0 0 0
55000001 0.948259712143102 -0.08774175715747165 -3.0594217878470256e-05 -2.314617168810749e-06 0 0 0 0
56000001 0.9479373187577638 -0.08985520258520444 -4.8053450008794967e-05 -5.914946224186028e-05 0 0 0 0
57000001 0.9479282999219201 -0.09112506594912453 2.217560690875921e-05 4.637576877218311e-05 0 0 0 0
58000001 0.9474657216654434 -0.09270111363808238 -0.00012520485262048313 2.4435847803584015e-05 0 0 0 0
59000001 0.9496299111743349 -0.10035112215111051 -1.6563535677865032e-05 4.658506920453e-05 0 0 0 0
60000001 0.947293749558732 -0.09563220953628915 -4.2193639722689075e-05 -7.1573019508622835e-06 0 0 0 0
61000001 0.9469382403930761 -0.0972153771317558 5.378334301412296e-05 -9.127890180858421e-06 0 0 0 0
62000001 0.9468397106468511 -0.09884255295571864 -0.00013181581512034725 1.0752774641439122e-05 0 0 0 0
63000001 0.946253707362408 -0.10033825735698976 9.934377646934115e-06 -2.21038435904241e-05 0 0 0 0
64000001 0.9458340823167972 -0.10191346108737849 -1.5866883768775345e-05 -5.709520878327413e-05 0 0 0 0
65000001 0.9456110048980574 -0.10343469843886326 -3.543226768065155e-05 6.212053822001213e-05 0 0 0 0
66000001 0.9460554824751959 -0.10459289254960843 -4.545188984559282e-05 -2.4631659474183905e-05 0 0 0 0
67000001 0.9456917394054918 -0.10661751575417937 -1.1652745008138666e-05 4.283628561119916e-05 0 0 0 0
68000001 0.9452954409628813 -0.10807043104025238 4.096707304157602e-05 -6.52937038961262e-05 0 0 0 0
69000001 0.9450384914393759 -0.10978649474487776 3.738049159480741e-05 7.959558187466741e-05 0 0 0 0
70000001 0.9446391363014492 -0.11151389236625371 3.3562274365806184e-06 2.3276235679874768e-05 0 0 0 0
71000001 0.9445854923454371 -0.1126077215856408 1.9717919095331588e-05 -8.264857810830073e-05 0 0 0 0
72000001 0.9447028022062285 -0.11391299504165787 2.6854233013359215e-05 2.3862684444890473e-05 0 0 0 0
73000001 0.9440398904719248 -0.11565706306331311 -3.84302591557615e-05 1.1237286352596597e-05 0 0 0 0
74000001 0.9437566517099198 -0.11720795496449865 2.8041915327669553e-05 2.9986485391187686e-05 0 0 0 0
75000001 0.9436345879619447 -0.11884489097453756 -3.542772916641998e-05 -7.856368214773576e-05 0 0 0 0
76000001 0.943216256510798 -0.12019168556627088 -4.321064541986843e-05 -6.164827586878563e-06 0 0 0 0
77000001 0.9432644478027861 -0.12191891273163744 0.00010189061741767332 1.713885369425769e-05 0 0 0 0
78000001 0.9367707517670351 -0.11714473136138054 -9.419495311429753e-05 -1.7177613223071272e-05 0 0 0 0
79000001 0.942403143572034 -0.12458411361094845 5.703030041678291e-05 -0.00012717633151700016 0 0 0 0
80000001 0.941947522970751 -0.12711161998800422 -5.0100030910445154e-05 2.1680380475164496e-05 0 0 0 0
81000001 0.9419626682770854 -0.12801156714000084 -5.014873238330056e-06 -1.3340090579652002e-05 0 0 0 0
82000001 0.9421847607392436 -0.12990682169951429 -2.2727687399513878e-05 6.502024701070762e-05 0 0 0 0
83000001 0.9405870694435734 -0.1312387530578999 4.533428299805767e-05 -1.7912190897872075e-05 0 0 0 0
84000001 0.9414701363079131 -0.1325895012369702 -2.004841769900642e-06 1.1111898173978581e-05 0 0 0 0
85000001 0.9408184183678885 -0.13441222564534144 6.719561869585004e-05 -6.957596712490357e-05 0 0 0 0
86000001 0.9328065804827458 -0.1457678829227907 -2.335141028036397e-05 6.131372334642165e-05 0 0 0 0
87000001 0.9402707968700325 -0.13752692015289258 5.326222700321659e-05 -1.9420064316093342e-05 0 0 0 0
88000001 0.9424259443654789 -0.14660204376136973 -8.469153217180583e-05 -0.00015874147051121533 0 0 0 0
89000001 0.9398883317960486 -0.1404831499038184 -6.171332418437612e-05 3.0551167141268185e-05 0 0 0 0
90000001 0.9407333526064648 -0.1422535014059304 0.00012829493850466953 9.917726436169119e-05 0 0 0 0
91000001 0.9403857893901983 -0.14270506701336577 -1.985421266014608e-05 5.4197730832374595e-05 0 0 0 0
92000001 0.9391448955452499 -0.14459465330096496 -2.8977826470169466e-05 4.239391827317443e-05 0 0 0 0
93000001 0.9382903189632917 -0.14644959573587843 -1.471835613187811e-05 -3.956044045383717e-05 0 0 0 0
94000001 0.9396162742962532 -0.1481229887581777 -1.0778628848535093e-05 2.3695791674879057e-05 0 0 0 0
95000001 0.9381080655924408 -0.1496959335350435 4.0642172205585025e-05 4.596931107298751e-05 0 0 0 0
96000001 0.9428321949678264 -0.15405313130784373 -5.7472874740027924e-05 -2.2906569333352754e-05 0 0 0 0
97000001 0.9371727959810274 -0.15243708236961886 5.2242381214584875e-05 -4.02292056581767e-05 0 0 0 0
98000001 0.9369374941507171 -0.15422535763504785 5.483496749972131e-06 0.0001788671391346473 0 0 0 0
99000001 0.9367466764344383 -0.1554609361122482 -4.20077402373996e-05 -1.1689496519705824e-05 0 0 0 0
100000001 0.9360993924471757 -0.15717654069360878 2.9622046205087098e-05 -5.270137333353617e-05 0 0 0 0
