# HZ S RI R 50
1 0.8787784869780847 0.29233750926667457 -0.00036531812001492313 -4.810374941826563e-05 0 0 0 0
1000001 1.0002958991086728 -0.006175082564091236 0.00015735091677697725 4.067941160197261e-05 0 0 0 0
2000001 1.00617877461191 -0.006088558058886001 6.978259974749948e-05 0.00013785784221047274 0 0 0 0
3000001 0.9980002836649673 -0.016487454750254458 -0.00010177863073961841 -9.117475395123808e-05 0 0 0 0
4000001 0.9970484054419126 -0.022004728022738743 -0.00017319899383105129 5.6085285831347024e-05 0 0 0 0
5000001 0.9933414147700692 -0.02843422247744041 9.762999030947865e-05 5.415011763100518e-05 0 0 0 0
6000001 0.9989354884584173 -0.039703403064020995 -9.809169135136921e-05 -7.343833961758817e-05 0 0 0 0
7000001 0.9990402662188114 -0.03932559538755619 -9.649490629551486e-05 5.413697152969328e-05 0 0 0 0
8000001 0.9869759459657335 -0.04122376878530582 8.003495021167558e-05 4.8256023444478164e-05 0 0 0 0
9000001 0.9863451078074534 -0.044078026864594756 -1.0389330753633265e-05 6.081542907304183e-05 0 0 0 0
10000001 0.9865715585085869 -0.05066328777360581 3.090142478789789e-06 -4.155155835719094e-05 0 0 0 0
11000001 0.9796359048942553 -0.04606164028130017 2.229808966137326e-05 1.4921452021036346e-05 0 0 0 0
12000001 0.9795953891807475 -0.0534626139943879 2.4858594100796338e-05 -6.55472022134753e-05 0 0 0 0
13000001 0.9747270606617684 -0.05679487485589471 -3.873190566749415e-05 -7.866171295612393e-05 0 0 0 0
14000001 0.9738969437940178 -0.0605149747127071 -0.00019912724245444254 -2.8628078079747215e-05 0 0 0 0
15000001 0.9720859061200353 -0.06286176174361213 -1.1459480698991534e-05 -5.8016317253476455e-05 0 0 0 0
16000001 0.9720877817379658 -0.0639075267186933 -5.886040574859053e-05 -0.00011495190425726124 0 0 0 0
17000001 0.9703795140743711 -0.06439194002568191 5.3265268413407385e-05 -8.49272309549599e-05 0 0 0 0
18000001 0.9690625821279581 -0.0729518922356168 -3.0263600732521295e-05 -4.169726689445067e-05 0 0 0 0
19000001 0.9613249319819457 -0.07342503406577361 0.00011317137593027641 -0.00014251333257319233 0 0 0 0
20000001 0.9603607483042883 -0.0733102959414847 7.656042789576531e-06 8.451243151682189e-05 0 0 0 0
21000001 0.9586351767464906 -0.07519383768752033 5.4169095365690235e-05 -1.4661701797187757e-05 0 0 0 0
22000001 0.9496150148812078 -0.07018183966541931 1.3796770444979642e-05 9.571604570364781e-06 0 0 0 0
23000001 0.9525186511227068 -0.07999638505500664 7.867093644713272e-05 4.979844173791636e-05 0 0 0 0
24000001 0.9526295985393395 -0.08029346767622088 -0.0001089151716383265 1.4808585100724392e-06 0 0 0 0
25000001 0.9514371795414917 -0.0815103123501549 4.4689913159312406e-05 -2.6557891073540113e-05 0 0 0 0
26000001 0.9505654352404728 -0.0765267672413001 -2.9742119486355927e-05 7.36223558589031e-05 0 0 0 0
27000001 0.9488505274251549 -0.0843215408547728 -0.00016578420298473876 -2.9391863038958743e-06 0 0 0 0
28000001 0.946927430064087 -0.08578032826382662 -2.5019429405117945e-05 -4.716008930143559e-05 0 0 0 0
29000001 0.9458682282217957 -0.08688540867292142 1.8772757883075114e-05 0.00013099563672726365 0 0 0 0
30000001 0.9442502126803032 -0.08821272303326816 -4.8638239716811374e-05 -1.940526570106859e-05 0 0 0 0
31000001 0.9429301016410095 -0.0895659852707392 1.954929607859724e-05 -7.37564987795224e-06 0 0 0 0
32000001 0.9419419817535701 -0.09092823121304988 7.211827341769043e-05 -7.98225409726183e-05 0 0 0 0
33000001 0.9407416059917094 -0.09193124690875819 -6.031992181042556e-05 -0.00017502652262824418 0 0 0 0
34000001 0.9396903590453544 -0.09307910837901623 8.344229556320457e-05 1.2101133193193066e-05 0 0 0 0
35000001 0.9385930170970584 -0.09449911220569297 -0.00015390892981640182 5.245015053026734e-05 0 0 0 0
36000001 0.937472303719085 -0.09579990734786378 2.8284745854138805e-05 -2.4123503781172126e-07 0 0 0 0
37000001 0.9369525033916816 -0.09719544647746395 4.721233439120248e-05 4.0943417866796115e-05 0 0 0 0
38000001 0.9356163010827748 -0.0985553646291554 5.789463353322089e-06 -0.00010058792663569792 0 0 0 0
39000001 0.9348100437437354 -0.09968861616433546 -6.626929025760239e-05 8.934784111438234e-06 0 0 0 0
40000001 0.9405604665778741 -0.105103464457807 0.00013992568854295862 -3.642546394211567e-05 0 0 0 0
41000001 0.9389853949465997 -0.10550296854041127 7.841632148703677e-05 6.787171145378497e-05 0 0 0 0
42000001 0.9321603144971395 -0.10340094243461795 5.157914446280102e-05 8.822702712854785e-06 0 0 0 0
43000001 0.9312458270814006 -0.10481473152353023 -0.00011353140844491623 3.72700625155474e-05 0 0 0 0
44000001 0.9304533375103798 -0.10608058330111524 -4.614816740186256e-05 2.0457981254989753e-05 0 0 0 0
45000001 0.9297002242667861 -0.10705234798966644 -4.1122464359189654e-05 5.0856660126590166e-05 0 0 0 0
46000001 0.9335609792119051 -0.11302259925305884 4.003030720044791e-05 -7.133414952190405e-06 0 0 0 0
47000001 0.9285225585205701 -0.11003193520073111 -4.666046299674057e-06 1.917156865795606e-05 0 0 0 0
48000001 0.927995542424926 -0.11372845588744644 9.615462154962307e-06 7.5088593424677345e-06 0 0 0 0
49000001 0.9273508615134324 -0.11207515284152245 1.119161210468293e-06 3.614240140103569e-05 0 0 0 0
50000001 0.9269321210584397 -0.11372173520250133 -3.9406572766237835e-05 5.2742891285225085e-05 0 0 0 0
51000001 0.9257651639943631 -0.11510762495263416 6.018277604164857e-05 4.119134876114219e-05 0 0 0 0
52000001 0.9294621276534326 -0.11180016355795766 -3.881386997220091e-05 -7.165870456941137e-05 0 0 0 0
53000001 0.924649734575828 -0.11758307309408488 -1.1646783754555466e-05 4.993491326579477e-05 0 0 0 0
54000001 0.9236364586798402 -0.11896647247418606 -1.1257308904794375e-05 -2.051150617396009e-05 0 0 0 0
55000001 0.9235208819043338 -0.10700036436514201 -2.8608338290211793e-05 2.802863808114275e-05 0 0 0 0
56000001 0.9174890925752138 -0.11484086357342398 -2.084401799987368e-05 -5.0547389135742424e-05 0 0 0 0
57000001 0.9223648608310474 -0.12262009617232848 -2.6043508280850234e-05 -3.280018514651689e-05 0 0 0 0
58000001 0.9214646587966285 -0.12405516249687082 -3.8620792854210257e-05 -5.2837155843126926e-05 0 0 0 0
59000001 0.9230694579201092 -0.1314557263948118 -3.818446068481856e-05 1.696651353068764e-05 0 0 0 0
60000001 0.9208156065727754 -0.12658312647678985 -1.9196546079572068e-05 -0.0001478037851274793 0 0 0 0
61000001 0.9198568227909731 -0.12816245704694296 2.9172919903269787e-05 1.1820763175252598e-05 0 0 0 0
62000001 0.9195706351060309 -0.12966462514172222 1.4644865923448072e-05 -7.454550743828848e-06 0 0 0 0
63000001 0.9187961036056054 -0.13090290629725246 2.7359043013232292e-05 -6.130913007614094e-05 0 0 0 0
64000001 0.9125739118780868 -0.12706300581063626 -2.3034462339846004e-05 -5.363772043096934e-06 0 0 0 0
65000001 0.9174586243016004 -0.1338343964280813 -7.527322840961331e-06 3.564063078383764e-05 0 0 0 0
66000001 0.9175429604318542 -0.13479768174421813 1.2005195506398905e-05 -5.504820541306868e-05 0 0 0 0
67000001 0.9169656911781412 -0.13656523077814195 -4.962779284376782e-06 4.393737515454042e-05 0 0 0 0
68000001 0.9163578767111297 -0.13775028119379287 2.015744934312652e-05 -1.0602016138641418e-05 0 0 0 0
69000001 0.9156059478745961 -0.13918421218702545 9.414859577566687e-05 8.688145195632157e-05 0 0 0 0
70000001 0.915194424801108 -0.14066310442125957 -4.827885965633048e-05 -6.458222621114784e-06 0 0 0 0
71000001 0.9150016346232364 -0.1417478003056126 -3.852535309856667e-05 -5.082046725431193e-05 0 0 0 0
72000001 0.9141947882147224 -0.14334912176461256 -1.649402483646522e-05 8.688025206799356e-05 0 0 0 0
73000001 0.9141721896281995 -0.1448336990470063 1.6329905292591568e-05 5.63697904017526e-05 0 0 0 0
74000001 0.9135607017044186 -0.14563617948035018 -1.1078197722974207e-06 -4.361919740544916e-06 0 0 0 0
75000001 0.9129130991031983 -0.14749452591716117 -0.00010425515534957767 1.4331669697656958e-06 0 0 0 0
76000001 0.9126864420933638 -0.14858240112264165 3.181148548663935e-06 5.4386349847087915e-05 0 0 0 0
77000001 0.9121551157721681 -0.1504655169452039 -1.3271940995463342e-05 -7.776348299020144e-05 0 0 0 0
78000001 0.911082927766552 -0.15168979444699648 -5.497911737502936e-05 8.687171408479548e-06 0 0 0 0
79000001 0.9109253284953133 -0.15293182476737333 2.0786825102074176e-06 -6.183619837241163e-05 0 0 0 0
80000001 0.9106699234944464 -0.15495460177779613 -9.18698041205949e-05 -8.282642016771809e-05 0 0 0 0
81000001 0.9102569389316748 -0.15617014364860654 4.345743709857578e-05 -2.6481712874372566e-05 0 0 0 0
82000001 0.9104138058418632 -0.1581619254120073 -2.2532533051506283e-06 5.747273541096513e-05 0 0 0 0
83000001 0.9104278358671125 -0.15921586929892986 7.49383898296235e-06 2.5164448748993885e-05 0 0 0 0
84000001 0.9090390707386135 -0.16026418624757985 -6.806581899404257e-05 -2.868286160623612e-05 0 0 0 0
85000001 0.908449404036607 -0.16212512918541122 5.782355112748539e-05 2.6821874602007936e-05 0 0 0 0
86000001 0.9001704526239301 -0.17265449503900404 -2.215010738291805e-06 0.00011375796782069083 0 0 0 0
87000001 0.9072855189477764 -0.16503389921099795 3.44755714513974e-05 4.41343486046346e-05 0 0 0 0
88000001 0.9089098325513187 -0.17386648158694779 2.461024904762844e-05 -9.436683370367475e-05 0 0 0 0
89000001 0.9064965554436438 -0.16759608619150898 1.5201312567798418e-05 -9.533302599783528e-05 0 0 0 0
90000001 0.9072477969757675 -0.16966347810720958 0.00017259247797534892 4.220411006131409e-05 0 0 0 0
91000001 0.9064531605332676 -0.17064149482995847 2.697021951443744e-05 7.025236654186487e-06 0 0 0 0
92000001 0.9051315648983392 -0.17187558730363006 6.50904050664617e-05 7.285290463835891e-06 0 0 0 0
93000001 0.9045613122015238 -0.17386847814477246 -1.2704695458943342e-05 -6.740092012305883e-06 0 0 0 0
94000001 0.9057381878579154 -0.1756230618813336 6.055197111696994e-05 0.00017417041244276776 0 0 0 0
95000001 0.9038068838840977 -0.17708045226216831 6.648678826892335e-05 0.00010955599516373677 0 0 0 0
96000001 0.908094671101771 -0.1814412613014778 -0.00010982019877304121 -0.00012091931483828672 0 0 0 0
97000001 0.9027544805741315 -0.17939265789066108 0.00010463048017565196 -6.26952623905501e-05 0 0 0 0
98000001 0.9023719094228343 -0.18112193233101576 0.00012892819983742034 0.0001538905719289121 0 0 0 0
99000001 0.9016174030444511 -0.18233100630200902 -9.963900409505262e-06 7.96376924902827e-06 0 0 0 0
100000001 0.9012198362932025 -0.18412699640722857 -1.6664362060596092e-06 -0.00010476931862712349 0 0 0 0
