# HZ S RI R 50
1 -0.3183632711699223 0.6470187525359684 -0.0008300662411087582 0.0019819555889491526 0 0 0 0
1000001 0.997833709547455 -0.00021939514507416616 0.00016854036383919308 -4.443820871112686e-06 0 0 0 0
2000001 0.9928927488648247 -0.020915272616249293 4.621697990979474e-05 0.00015975045596359471 0 0 0 0
3000001 0.9986906670528659 -0.007155414955603626 7.607924926831275e-06 -0.00018252173804534548 0 0 0 0
4000001 0.9992849647722628 -0.010073901074901736 -4.79829353572136e-06 -2.063145174553206e-05 0 0 0 0
5000001 0.9967993488616309 -0.013698823198000776 -2.19886638861025e-05 0.0001828544653541996 0 0 0 0
6000001 1.0029719373794532 -0.02922292413031226 4.5166084330895505e-05 -2.324681194294667e-06 0 0 0 0
7000001 1.007571707783881 -0.022170828109139402 -9.711626430355952e-05 9.72113622095113e-05 0 0 0 0
8000001 1.0037190924704005 -0.025167637513499406 0.00010139169120085934 4.259070657694877e-05 0 0 0 0
9000001 0.9978675037787406 -0.023129234260491092 4.4764900181832735e-05 7.965890597724368e-06 0 0 0 0
10000001 0.9984002155671933 -0.02848982787745054 3.297642893953389e-05 -6.637783037788237e-05 0 0 0 0
11000001 0.9987994084207062 -0.028092666648956356 1.703253443207029e-05 -8.128044915761834e-06 0 0 0 0
12000001 1.0009028200975485 -0.03518847268726104 3.290071655059596e-05 -6.563268422676149e-06 0 0 0 0
13000001 0.9951887116364053 -0.03563631118229142 -5.898327140332852e-06 1.6117049387603187e-05 0 0 0 0
14000001 0.996666791982415 -0.03506914181745421 -0.00021982471682545072 0.00011409482204766374 0 0 0 0
15000001 0.9958360772766924 -0.0386655527723447 1.8777386940944448e-05 2.8763169224667847e-06 0 0 0 0
16000001 0.9964883819503985 -0.0389762694757706 -3.0308797973020176e-06 -0.00016024071530833939 0 0 0 0
17000001 0.9960922267804788 -0.04098209129422979 2.8698828260348682e-05 -3.965711896472812e-05 0 0 0 0
18000001 0.9969710190750561 -0.051974273878384644 -2.6482422032168396e-05 -8.301117248993257e-05 0 0 0 0
19000001 0.992312326066791 -0.05022198511253217 -3.424740746612143e-05 -2.066069047946225e-05 0 0 0 0
20000001 0.9927929810295802 -0.05075472610033873 9.712912974260369e-05 -3.0031726723097628e-05 0 0 0 0
21000001 0.9918310625586154 -0.053289460745464846 -1.3563869430598736e-05 -2.740876661818918e-05 0 0 0 0
22000001 0.9911495645036164 -0.05547065398400434 -1.4966471484751234e-05 -3.1871498412265067e-05 0 0 0 0
23000001 0.9927534567113454 -0.06019571038980441 0.00010964193425725904 -8.361464533690398e-05 0 0 0 0
24000001 0.9923111243594316 -0.0650077739314607 -0.00010509205240951345 -5.105903101563508e-05 0 0 0 0
25000001 0.9894392639320071 -0.06209448871907019 -7.173641744319457e-05 -7.716626993849624e-05 0 0 0 0
26000001 0.9889459219757909 -0.06442363839040537 3.666980089363659e-06 9.376242602427795e-05 0 0 0 0
27000001 0.9878004582291097 -0.06639042156534239 -0.00016764102197120372 0.00015483991439153483 0 0 0 0
28000001 0.9871907437127826 -0.06872219753437087 -7.497657880264037e-05 -4.3666072237508e-05 0 0 0 0
29000001 0.9865897386061977 -0.07081477876824631 0.00011621381161189436 6.2855698139333e-05 0 0 0 0
30000001 0.9855115741649589 -0.07279423004570104 -4.626961386401749e-05 -2.665702895970633e-05 0 0 0 0
31000001 0.9848218290125152 -0.07529332816483636 -9.221582600572531e-05 -1.759283576610219e-05 0 0 0 0
32000001 0.9840080009654822 -0.07728802321904654 -3.9320284584462085e-05 -0.00010593250135407531 0 0 0 0
33000001 0.9833531677756117 -0.07886508806721308 -4.5538173655617606e-05 -0.00019332231592552858 0 0 0 0
34000001 0.9827616301783344 -0.08100070721783258 1.5618609729229852e-06 -5.527200865208142e-05 0 0 0 0
35000001 0.981804710673274 -0.08290316213868361 -2.9557418202721536e-05 -3.3410501876919404e-05 0 0 0 0
36000001 0.9812677221075623 -0.08476714989599143 6.281427889065646e-05 3.985536560941816e-06 0 0 0 0
37000001 0.9804566155731862 -0.08693203036109338 -7.211954330385522e-06 -4.966684119798019e-05 0 0 0 0
38000001 0.9794088002386644 -0.08873762107838604 8.572419093150016e-05 -3.377345777196892e-06 0 0 0 0
39000001 0.9789264842977949 -0.09085239894868995 -6.585128401536475e-05 4.208027544739032e-05 0 0 0 0
40000001 0.9852638929495492 -0.09693832420448355 9.342584455134178e-06 -6.352644305490608e-05 0 0 0 0
41000001 0.9840338988270455 -0.09792093201546115 -1.1082134231072384e-05 5.322431184838245e-05 0 0 0 0
42000001 0.9766918105730125 -0.09631489370130943 -5.1196760339814885e-06 2.4679490938480433e-05 0 0 0 0
43000001 0.9759564169649352 -0.0982172540712354 -7.693510804998895e-05 -1.8102849185801776e-05 0 0 0 0
44000001 0.9753686585191562 -0.09993312999228142 -1.8231888644676662e-05 7.0003551070072945e-06 0 0 0 0
45000001 0.9743101508685266 -0.10159939695460246 -6.48800175776829e-05 3.681867513148626e-05 0 0 0 0
46000001 0.9786685258780096 -0.10870618830535633 1.2071721830639837e-05 -0.00010284952253374173 0 0 0 0
47000001 0.9726767025074353 -0.10559768344395194 1.1113286527117415e-05 -1.5039792549000022e-05 0 0 0 0
48000001 0.9623401980840566 -0.11740290939862406 2.641818698358532e-05 -5.235711186254118e-05 0 0 0 0
49000001 0.9718134742228608 -0.10839491891543748 -1.7261984094342883e-06 -5.7988082730507206e-05 0 0 0 0
50000001 0.9710759198994983 -0.11047306353097824 -1.1771764563505142e-05 2.980698371578026e-05 0 0 0 0
51000001 0.9698483659464247 -0.11245481768032368 3.1157857778989216e-05 6.030624090435782e-05 0 0 0 0
52000001 0.9687670241207934 -0.11422702462902443 6.56404698829801e-05 -9.671002082442153e-05 0 0 0 0
53000001 0.9684844443912676 -0.11547848027756379 3.5182370794795065e-05 9.568806791572163e-06 0 0 0 0
54000001 0.9677334242973004 -0.11708546266303312 3.7036483650507247e-05 -7.21905374091354e-05 0 0 0 0
55000001 0.9676628221679738 -0.11902127366951688 2.7397583482661098e-05 -3.350981972033734e-05 0 0 0 0
56000001 0.96685220225899 -0.12074156994383083 2.062398055442287e-05 -5.6496742788905784e-08 0 0 0 0
57000001 0.966443931616408 -0.12193056348240863 5.897392602985676e-06 8.742714267249066e-05 0 0 0 0
58000001 0.9657358322696916 -0.12365878736370085 -4.3525156443034275e-05 1.458307523894375e-05 0 0 0 0
59000001 0.9668254246328153 -0.13190739464467266 -5.302827929546135e-06 -1.4042866528589653e-05 0 0 0 0
60000001 0.9642664232141613 -0.12693036976240263 -1.4582611562178838e-05 -5.9589884789024316e-05 0 0 0 0
61000001 0.9630652741730158 -0.12869072753555988 3.788762299452144e-05 8.289487440084858e-06 0 0 0 0
62000001 0.9627925117702282 -0.13043314170147827 1.7889709791987322e-05 -3.4335565061558897e-06 0 0 0 0
63000001 0.9619325914797738 -0.13201763737178265 -6.0269163712000955e-06 -2.0462712844095013e-05 0 0 0 0
64000001 0.9647237926713983 -0.12717637386449898 5.2086069142256376e-05 -1.3355634466191514e-05 0 0 0 0
65000001 0.9643598118663484 -0.12606707542001594 -4.63019226370333e-05 5.258540603970905e-05 0 0 0 0
66000001 0.9600512625227773 -0.1367272400480045 2.1458955976086653e-05 -3.616426398237688e-05 0 0 0 0
67000001 0.9594785839441111 -0.13858214845266764 -1.8607837744455363e-05 0.00010371918714356912 0 0 0 0
68000001 0.9588649226271476 -0.14005418172981882 2.3484127913285142e-05 3.8143829835647806e-05 0 0 0 0
69000001 0.9577639180079731 -0.1420463406376655 1.4622412339258747e-05 0.00012876208179852253 0 0 0 0
70000001 0.9573401398565088 -0.14332288114118416 -2.2466553652526248e-05 -4.426833887524475e-06 0 0 0 0
71000001 0.9569631363029857 -0.14467878985633006 4.1762861541897784e-05 -5.66375615549174e-05 0 0 0 0
72000001 0.9567388557873137 -0.14612471565681284 1.1449584254515634e-05 1.8061783776355902e-05 0 0 0 0
73000001 0.9557103871114396 -0.1481983146778696 -5.341449925416381e-05 3.715545838738105e-05 0 0 0 0
74000001 0.9552411097426762 -0.1495775672703691 -1.6787089252981498e-05 3.9233072673566026e-05 0 0 0 0
75000001 0.9544808227855188 -0.15140320495771406 3.2988140046097335e-05 -0.00011465040721273187 0 0 0 0
76000001 0.9539580756389302 -0.15234539839578537 -5.662743505869052e-05 -1.4552096775396503e-05 0 0 0 0
77000001 0.953645209610353 -0.15418445899319094 -1.8832171293028534e-05 2.050110670739924e-05 0 0 0 0
78000001 0.952659690054412 -0.15573518335845057 -7.429033548523835e-05 -1.147332615457309e-05 0 0 0 0
79000001 0.9519836133174987 -0.15716180727688595 1.686929971841916e-05 -3.022575798675645e-05 0 0 0 0
80000001 0.9514268115837726 -0.15900826496730341 -5.362243240290038e-05 -1.5699458680939733e-05 0 0 0 0
81000001 0.9511687027203334 -0.16086521263619394 -2.1086840884153047e-05 1.5442731685268105e-05 0 0 0 0
82000001 0.9509077808376338 -0.16287428175928714 -3.456222295082339e-05 -1.6029161222676677e-05 0 0 0 0
83000001 0.9505235588857888 -0.16326866400550097 3.276962570345966e-05 2.5154377962867896e-05 0 0 0 0
84000001 0.9495323071674063 -0.16493824804377333 -6.719438189119412e-05 -9.339449464949693e-05 0 0 0 0
85000001 0.9487384873251088 -0.1670580577520453 0.00011010148903737996 -1.2338150688221784e-05 0 0 0 0
86000001 0.9397691738184814 -0.17823126407885584 5.792819547754072e-05 -8.659468077273013e-06 0 0 0 0
87000001 0.9472789476186676 -0.1700871201740297 4.822813037192044e-05 3.504709564650743e-05 0 0 0 0
88000001 0.9490941465738025 -0.17979807101446604 -0.00011215440225219151 1.1320184263360565e-05 0 0 0 0
89000001 0.9462638999854704 -0.1729879294134545 -7.895441743315033e-05 -4.520773173639063e-06 0 0 0 0
90000001 0.9471231574776146 -0.1749628172181623 3.527190248216976e-06 6.60810131013119e-05 0 0 0 0
91000001 0.9458355041507813 -0.17598748846564058 -4.120834914761845e-05 -1.4177535762486211e-05 0 0 0 0
92000001 0.944828399849265 -0.17736944232683327 3.1633203741668936e-05 2.906152561052392e-05 0 0 0 0
93000001 0.9436479179255455 -0.17898423535787636 -7.926616645604844e-05 -4.2663061398185345e-05 0 0 0 0
94000001 0.9451810391081695 -0.1810646169083112 8.132010561620517e-05 0.0001220082791451687 0 0 0 0
95000001 0.9428531876057393 -0.18242431858101868 -4.693703743033031e-05 3.925748825474884e-05 0 0 0 0
96000001 0.9476358204479395 -0.1868391430408635 -0.0001282985579444115 3.7166851131944285e-05 0 0 0 0
97000001 0.9415988097965649 -0.18524593487768473 0.00012543006929459483 -5.329642406717943e-05 0 0 0 0
98000001 0.941145402174064 -0.1870004995665508 1.81354258881212e-05 0.00017081454734216463 0 0 0 0
99000001 0.9406393383791747 -0.1882331776608021 -8.973049927273895e-05 -4.457254127870751e-05 0 0 0 0
100000001 0.9399117718714526 -0.18994112771751484 -1.3362846755422085e-05 -0.00013224453437648108 0 0 0 0
