# HZ S RI R 50
1 -0.9031300271586474 -0.2596506634503662 -0.023700679651819746 0.041696328046032766 0 0 0 0
1000001 0.6077182592397397 0.18619960320186205 -1.0087193451034868 -1.2068966285785916 0 0 0 0
2000001 0.5941647205791368 0.13791722908507026 -1.230374244211452 -1.0642781251062439 0 0 0 0
3000001 0.5963160903747502 0.17862797095448024 -1.3618402910698864 -0.9927016438564225 0 0 0 0
4000001 0.5813543809183713 0.20065986572278202 -1.429826435235522 -0.9516323827371094 0 0 0 0
5000001 0.598605216383076 0.16043292318328872 -1.4325792129923203 -0.8707027524049662 0 0 0 0
6000001 0.6006523401385142 0.14958056422868854 -1.4492215143876281 -0.8216166541895616 0 0 0 0
7000001 0.6027189380964582 0.13845967828032033 -1.4614357033512357 -0.7768896849829402 0 0 0 0
8000001 0.5910466103103028 0.11661068038021638 -1.4561889696937302 -0.746419547067269 0 0 0 0
9000001 0.599895926043573 0.12618376330739253 -1.4853630548043921 -0.7038476526198334 0 0 0 0
10000001 0.6072429089021708 0.1063479718506527 -1.482517877953165 -0.6584711113703511 0 0 0 0
11000001 0.601816575198122 0.09293745300116017 -1.4823959388253145 -0.6280607464277808 0 0 0 0
12000001 0.609177963564924 0.08156546588245897 -1.4853466592880133 -0.5864110983609065 0 0 0 0
13000001 0.6067513127100704 0.07163232115626664 -1.4875944026102597 -0.5556257465682062 0 0 0 0
14000001 0.6068107950764765 0.05711255565853067 -1.4841188517651789 -0.5226592925924777 0 0 0 0
15000001 0.613088253045922 0.04698245540092767 -1.48479838204279 -0.4846223049923443 0 0 0 0
16000001 0.6100438240071178 0.03422091693468616 -1.4807440218221852 -0.4559212924438899 0 0 0 0
17000001 0.61096172848464 0.023181903790276286 -1.4785320895971867 -0.4247091103950223 0 0 0 0
18000001 0.6107553980466569 0.01145116984253368 -1.4739195054846652 -0.3945747426294745 0 0 0 0
19000001 0.610168025259872 -0.0004221750221656887 -1.4692152957367857 -0.36603735504001983 0 0 0 0
20000001 0.6096063977908033 -0.011948585104592018 -1.4643930811585373 -0.33729138177435775 0 0 0 0
21000001 0.6088151823418799 -0.023675793526692128 -1.4579642489690172 -0.3100966358449607 0 0 0 0
22000001 0.6076214276033463 -0.035323847686852684 -1.451491003561807 -0.28360490851800546 0 0 0 0
23000001 0.6071148043836893 -0.046614052529335086 -1.4450043442510785 -0.2568642242603218 0 0 0 0
24000001 0.6047375180529925 -0.058832069793508364 -1.4380187560826105 -0.23250936953325219 0 0 0 0
25000001 0.6031309472315611 -0.07028896123897038 -1.430880692227139 -0.207888433178341 0 0 0 0
26000001 0.6001754929656656 -0.08243129972167187 -1.423331891932464 -0.1849739190019894 0 0 0 0
27000001 0.5990738290525814 -0.09355026988628183 -1.4146948547867173 -0.16072920613320796 0 0 0 0
28000001 0.5965236915884304 -0.1051056180134498 -1.4067277801455966 -0.13842172236902184 0 0 0 0
29000001 0.5943301820924597 -0.11652784192330891 -1.3976907028939523 -0.11639110534386998 0 0 0 0
30000001 0.5914102869839081 -0.12804442621674378 -1.3886710750608333 -0.095666905392367 0 0 0 0
31000001 0.5884530177080399 -0.13944482284662577 -1.3790081082659016 -0.07518698313411293 0 0 0 0
32000001 0.5844022208593599 -0.15102229656287955 -1.3697426160412063 -0.056791658923103394 0 0 0 0
33000001 0.5821031502425449 -0.1622812325575311 -1.3597656128012385 -0.036552412124401135 0 0 0 0
34000001 0.5784197531630341 -0.173568688670885 -1.3499845970907822 -0.018134384450203822 0 0 0 0
35000001 0.5746325743194665 -0.18459244405546316 -1.3406732005242255 -0.0007901233784383677 0 0 0 0
36000001 0.5706683934297624 -0.19551726004904982 -1.3314907806521554 0.01633074113174232 0 0 0 0
37000001 0.5664622150574554 -0.20642608324506065 -1.3220352578563412 0.03275282733356871 0 0 0 0
38000001 0.5620079319462719 -0.21718977664033207 -1.3126129027776712 0.04849755564576713 0 0 0 0
39000001 0.5576513083164366 -0.22797464825827776 -1.3022285961220408 0.0635056544073786 0 0 0 0
40000001 0.5527153392971977 -0.23871218668981328 -1.2925361998514244 0.07785824370500591 0 0 0 0
41000001 0.5478815896301732 -0.24939898506987387 -1.2826564884519733 0.09261490768274114 0 0 0 0
42000001 0.5427364094939571 -0.25985997443976994 -1.272824816185075 0.1062572302330494 0 0 0 0
43000001 0.53762012922176 -0.27021260757352017 -1.2630566437599926 0.11939688847527224 0 0 0 0
44000001 0.5322388507951606 -0.28036554697366806 -1.2540017578135283 0.1323063030046331 0 0 0 0
45000001 0.5264605604954791 -0.2905055051325704 -1.2453568302426223 0.1446764093644327 0 0 0 0
46000001 0.5207786534568605 -0.3005120679413467 -1.236202348560163 0.15710315623952534 0 0 0 0
47000001 0.514545555601717 -0.31059849371438175 -1.2277792668807475 0.1678559120844256 0 0 0 0
48000001 0.5084847219096046 -0.3203599986725761 -1.2191291134678996 0.17966580674318394 0 0 0 0
49000001 0.5021799333914013 -0.3299650943332249 -1.2112239019237683 0.19045973224148116 0 0 0 0
50000001 0.4955805291258751 -0.3393025984944362 -1.2026599009108068 0.20107230905404178 0 0 0 0
51000001 0.48906222051834847 -0.3485666904738044 -1.1951899923196394 0.2108797779753721 0 0 0 0
52000001 0.4821665179424699 -0.3581873652460971 -1.1872561632706289 0.2205047495792189 0 0 0 0
53000001 0.47512166606911005 -0.3671790823271079 -1.1795225281604524 0.2300983011646227 0 0 0 0
54000001 0.467879700804155 -0.3761832720516372 -1.1719059043177007 0.23884268656464172 0 0 0 0
55000001 0.46060929156474856 -0.38498712938247603 -1.1655356432048631 0.24819162459217645 0 0 0 0
56000001 0.4531015020561894 -0.39387623202732613 -1.1591893030414688 0.2568654690579876 0 0 0 0
57000001 0.4454912744669227 -0.40207737594881826 -1.1528759104962658 0.26567525847825335 0 0 0 0
58000001 0.43766222055195414 -0.4107108504769168 -1.1466380912051612 0.27359883991330713 0 0 0 0
59000001 0.42980743253009024 -0.4188761071604978 -1.1405734689453157 0.28185054004966215 0 0 0 0
60000001 0.42166898856571655 -0.42688125952333794 -1.1353896731857245 0.289947264610516 0 0 0 0
61000001 0.4135719615355098 -0.4348503117946345 -1.1300536536823655 0.297559669403189 0 0 0 0
62000001 0.4050968585224838 -0.44273950678183116 -1.1251865886836108 0.30543358373391555 0 0 0 0
63000001 0.3965676422168919 -0.4501923808025316 -1.1206143409040532 0.3132011534701099 0 0 0 0
64000001 0.38792093279114903 -0.457188204727246 -1.1192930275065212 0.32255419490091747 0 0 0 0
65000001 0.37914093003203875 -0.46481876273417977 -1.1125343735041016 0.328291067314758 0 0 0 0
66000001 0.37036925300938717 -0.4718243139720676 -1.108511618422661 0.33663651535499334 0 0 0 0
67000001 0.3615400607838866 -0.47900571618930793 -1.105170241691869 0.3440008763820993 0 0 0 0
68000001 0.3522848546016934 -0.4855476555609417 -1.1022320787125497 0.35182445958214514 0 0 0 0
69000001 0.34327017511873115 -0.4920016588026545 -1.0995164642573512 0.3595161150233198 0 0 0 0
70000001 0.33392334546778 -0.49859872326676835 -1.0968083807223443 0.3667321842753046 0 0 0 0
71000001 0.32428130707288727 -0.5046707551718282 -1.094319502171217 0.3748642716144617 0 0 0 0
72000001 0.31487971690811145 -0.5106124447702027 -1.0917580841542232 0.3828714962878653 0 0 0 0
73000001 0.30530840336068643 -0.5165592219434831 -1.0899358987790169 0.39070138854104375 0 0 0 0
74000001 0.295466003498635 -0.5222443986612134 -1.0884300611702382 0.39864440481799057 0 0 0 0
75000001 0.2853444219025087 -0.5278224114933944 -1.0875437513927322 0.4067159935814237 0 0 0 0
76000001 0.27576042685785274 -0.5331681088771847 -1.0862587226834028 0.4149892522203008 0 0 0 0
77000001 0.26554347772937603 -0.5381314324260137 -1.0860469272130628 0.42381970230630883 0 0 0 0
78000001 0.25571608876088486 -0.5428620972449728 -1.085042684160447 0.4330940643629721 0 0 0 0
79000001 0.2454859467006454 -0.5477102760273774 -1.084615122544854 0.4417652416303608 0 0 0 0
80000001 0.2352966495665367 -0.5525889127139083 -1.0845611981412357 0.45114711264165364 0 0 0 0
81000001 0.22464447520505773 -0.5565728803486646 -1.0837019738241946 0.46012410419940236 0 0 0 0
82000001 0.21419064106088437 -0.5607466314545124 -1.0831720617181673 0.4699767032599325 0 0 0 0
83000001 0.20339520266617378 -0.5645968526315595 -1.0829684729504039 0.4805348220174003 0 0 0 0
84000001 0.19259842341762246 -0.5683646851800246 -1.083682553805726 0.49119746229630257 0 0 0 0
85000001 0.1820789753767073 -0.5719363417280503 -1.083786612840713 0.5018972482193529 0 0 0 0
86000001 0.17142283367003128 -0.5756298014706714 -1.0840761984766072 0.5135572972299667 0 0 0 0
87000001 0.16065998842417056 -0.5787705615247268 -1.0846756978405236 0.5258092878872929 0 0 0 0
88000001 0.1496557023090119 -0.5819156390479705 -1.0851679541784842 0.5372411286237718 0 0 0 0
89000001 0.13893644901206637 -0.5848531009671828 -1.086061266516092 0.5502297671357885 0 0 0 0
90000001 0.12806162384245967 -0.5876580493114967 -1.086375258586441 0.562691449160956 0 0 0 0
91000001 0.11697526442185455 -0.5900413175683825 -1.0862067394597639 0.5763263222096024 0 0 0 0
92000001 0.10611426747839377 -0.5925327664243756 -1.0867676661521861 0.5899382766360202 0 0 0 0
93000001 0.09493884626576095 -0.5945983756214018 -1.0877861547392855 0.6040720639817914 0 0 0 0
94000001 0.08400715482792784 -0.5964947642546511 -1.0888793624439186 0.6187356275692699 0 0 0 0
95000001 0.07295883025149684 -0.5981162969895901 -1.0891765505808744 0.6336034891725468 0 0 0 0
96000001 0.062042347796333094 -0.5997087166457549 -1.0897832116886983 0.6488643300412564 0 0 0 0
97000001 0.05075818681021659 -0.6009603225824 -1.090049111793379 0.6652155652845309 0 0 0 0
98000001 0.03962813541863185 -0.6021983496676592 -1.090921124496817 0.6814027996762899 0 0 0 0
99000001 0.028469887109919885 -0.6028979639349192 -1.0909620661246227 0.6978315861562845 0 0 0 0
100000001 0.017428641696496695 -0.6039209785013369 -1.0904551082193017 0.7147053821686562 0 0 0 0
