# HZ S RI R 50
1 -0.7745864254519177 -0.2816943359703164 -0.006998703925548886 0.04567736122477107 0 0 0 0
1000001 0.619449042765819 0.18056214893555667 -0.916415492817138 -1.2618517357838173 0 0 0 0
2000001 0.6009005934014979 0.1794518657417194 -1.2610255186886885 -1.1772985350649374 0 0 0 0
3000001 0.5981470651451032 0.174196352073284 -1.3826819382114344 -1.0809401404811712 0 0 0 0
4000001 0.5980751319553712 0.16625186473636774 -1.4426551669240304 -1.0053906873252698 0 0 0 0
5000001 0.6193908959968442 0.14412453403680972 -1.4725075181392502 -0.9176005757843575 0 0 0 0
6000001 0.6053391284011188 0.15147109350618265 -1.5082561002987092 -0.8854030142793017 0 0 0 0
7000001 0.6022827631273229 0.13569460854172435 -1.5183995318081014 -0.839352322242451 0 0 0 0
8000001 0.6045153142518294 0.13349102428202422 -1.5405311395934185 -0.79554683226432 0 0 0 0
9000001 0.6096745686342522 0.11484358203962146 -1.5429653803009264 -0.7469669329376174 0 0 0 0
10000001 0.6084144903516787 0.10172148704826142 -1.5471951611347912 -0.7078823974572406 0 0 0 0
11000001 0.6046880415086041 0.0945201983376163 -1.5553449362940854 -0.6744831940472639 0 0 0 0
12000001 0.6057384213022113 0.08616640957681801 -1.5610772117152574 -0.6364346778364789 0 0 0 0
13000001 0.6083230737511285 0.0689751680896265 -1.5573548544342521 -0.5969296693371389 0 0 0 0
14000001 0.6059138734181442 0.05985667987109898 -1.559592656389924 -0.5646680947223324 0 0 0 0
15000001 0.6099924953227586 0.045213380409191616 -1.555517448433261 -0.5255612842696473 0 0 0 0
16000001 0.6074353250031049 0.03384344415959859 -1.5539128935609523 -0.49439687786138764 0 0 0 0
17000001 0.6093128652254816 0.02216035087219033 -1.5505625301924217 -0.4599225743240214 0 0 0 0
18000001 0.6091011533943016 0.010492840391116275 -1.5471944251825798 -0.4279169860095141 0 0 0 0
19000001 0.6090038335295661 -0.001178737355553816 -1.5425166902107232 -0.39621331151450784 0 0 0 0
20000001 0.6080383486044362 -0.012476282314806115 -1.5377616807767314 -0.3667512573778262 0 0 0 0
21000001 0.6074172020672434 -0.024209350960785327 -1.5325801127546228 -0.3371182454900423 0 0 0 0
22000001 0.6060256073155176 -0.03595589815262976 -1.5261380759914402 -0.30887437830562375 0 0 0 0
23000001 0.6041351717452533 -0.0480021581158762 -1.5185931041792315 -0.28208644739498734 0 0 0 0
24000001 0.6034464695178992 -0.059020956779768353 -1.512105309030762 -0.2541040776716494 0 0 0 0
25000001 0.6015926839889714 -0.07082615383284396 -1.5031533771346755 -0.22778757401595467 0 0 0 0
26000001 0.599745914347955 -0.08218560968816738 -1.4952127471344636 -0.2022862148452118 0 0 0 0
27000001 0.5975303041175297 -0.09372017785607842 -1.4870835107711595 -0.17749898667650127 0 0 0 0
28000001 0.5951505017901993 -0.1055298887763302 -1.4777117165572422 -0.15397883082268687 0 0 0 0
29000001 0.5927631310088606 -0.11675836006291672 -1.4687957542598984 -0.13060387529112144 0 0 0 0
30000001 0.589974469954363 -0.1279153721857048 -1.4603056897625952 -0.10787685686820447 0 0 0 0
31000001 0.586855232576533 -0.13947978895623594 -1.4505933360935597 -0.08664600203272466 0 0 0 0
32000001 0.5838200263953135 -0.15075914364758383 -1.4406355103668784 -0.06566108091687134 0 0 0 0
33000001 0.580395911576458 -0.1619886694348599 -1.4308507138915219 -0.04546675408133688 0 0 0 0
34000001 0.576811765124342 -0.1734389804074797 -1.4202425773222178 -0.02618330312705841 0 0 0 0
35000001 0.5731830892020162 -0.18435116906539958 -1.4095859669018134 -0.006558512760239776 0 0 0 0
36000001 0.5694490153360652 -0.1954603416075846 -1.39923938328095 0.011194265890975441 0 0 0 0
37000001 0.565255305959325 -0.20641434580641632 -1.3885009350928792 0.028853758491886206 0 0 0 0
38000001 0.5610365371246928 -0.21718343613851632 -1.3782679935305717 0.0460658563113574 0 0 0 0
39000001 0.5563230266522153 -0.22794036307743604 -1.3678125354653445 0.06178810739830448 0 0 0 0
40000001 0.5517727507779512 -0.23865030076246602 -1.3571222863141816 0.07729824356479548 0 0 0 0
41000001 0.5466392315426138 -0.24904563200860932 -1.3476402789582886 0.09174418804504453 0 0 0 0
42000001 0.5417105380873956 -0.2595108285364181 -1.3379146532590687 0.10650560562372927 0 0 0 0
43000001 0.5364528506283076 -0.2700258229131597 -1.3283345962981548 0.12027817404062402 0 0 0 0
44000001 0.5310254400139108 -0.2799103130670112 -1.3189104607790163 0.1340041829221439 0 0 0 0
45000001 0.5254502837200187 -0.2902143919097009 -1.3083977608651571 0.14697663517859064 0 0 0 0
46000001 0.5196752259797944 -0.30021153344034535 -1.2994451167549532 0.15948847485130802 0 0 0 0
47000001 0.51356876158803 -0.3102883513334551 -1.2906313301647674 0.1717817778297125 0 0 0 0
48000001 0.5076082451480003 -0.31986069991935545 -1.2817444942271268 0.18406819435902577 0 0 0 0
49000001 0.5010838649566363 -0.3293140403453453 -1.2740640350386607 0.19555595233765333 0 0 0 0
50000001 0.4944689827314813 -0.3389056186068702 -1.2661332625130017 0.20626955181484483 0 0 0 0
51000001 0.4877282535022454 -0.3480539320226488 -1.258760238028525 0.21714785015694113 0 0 0 0
52000001 0.48112680623330484 -0.3574820642803049 -1.2509632233377643 0.22802185070447417 0 0 0 0
53000001 0.47371377719596736 -0.366793175872018 -1.24279706023049 0.23763640354856433 0 0 0 0
54000001 0.46679947832476537 -0.3754414081748784 -1.2357095549337196 0.2477464429644349 0 0 0 0
55000001 0.4596459289267029 -0.3843104562958047 -1.2286841961358665 0.2574240039976666 0 0 0 0
56000001 0.4521569505252061 -0.393055925958449 -1.2213460628813324 0.2668511005095069 0 0 0 0
57000001 0.4443724361640146 -0.40161070654545244 -1.2144189791408408 0.2758993741410046 0 0 0 0
58000001 0.43694097344691063 -0.40993005410514477 -1.2080959420846356 0.2847630257436396 0 0 0 0
59000001 0.42889710456625996 -0.41810686717617734 -1.20191354235131 0.29333424338546354 0 0 0 0
60000001 0.42092201608953017 -0.42611059679218427 -1.1963758355679863 0.3019271881295619 0 0 0 0
61000001 0.41252318189083587 -0.4340498294486798 -1.1911494894708392 0.310359494646893 0 0 0 0
62000001 0.40416119700516623 -0.4418978740064425 -1.185489004110484 0.31870466354371113 0 0 0 0
63000001 0.39556171662565265 -0.44950229216037507 -1.1805395401464829 0.3267626650839083 0 0 0 0
64000001 0.38712534478736244 -0.4572196154372106 -1.172983766356574 0.33443677560531027 0 0 0 0
65000001 0.37833738398598576 -0.46429098516890277 -1.1716798636997952 0.3432544771709467 0 0 0 0
66000001 0.36946829307301177 -0.47108443049566523 -1.167183347045324 0.3511464571301536 0 0 0 0
67000001 0.36067278850740514 -0.4781911288372766 -1.1633298588088405 0.3596098945685104 0 0 0 0
68000001 0.351602102490561 -0.48494448577307364 -1.1598695688781628 0.36752878846036885 0 0 0 0
69000001 0.3423925697262847 -0.4917136589421496 -1.1565781962085657 0.3754053559562637 0 0 0 0
70000001 0.3331226006683668 -0.4978941963404741 -1.1542021288941506 0.3838406282945041 0 0 0 0
71000001 0.3236001501136782 -0.503943540160163 -1.151812212387576 0.3920547573405194 0 0 0 0
72000001 0.31430627496326846 -0.5102545419564818 -1.1500270091388614 0.40020768808231244 0 0 0 0
73000001 0.3046185510073532 -0.5158871585289845 -1.1479101751568461 0.40894199381093577 0 0 0 0
74000001 0.29475857269656786 -0.5216915156859199 -1.1462163540478505 0.41717450151668334 0 0 0 0
75000001 0.2851158375408894 -0.5270567350401668 -1.144048735771742 0.4264073911652333 0 0 0 0
76000001 0.2749987001101558 -0.5325199817562818 -1.1429144230259516 0.43436319498517384 0 0 0 0
77000001 0.2650869323907136 -0.5376622751824536 -1.1414136303185278 0.44371686130493243 0 0 0 0
78000001 0.2551732326478063 -0.5425708471801338 -1.1398980224707231 0.45292029005764656 0 0 0 0
79000001 0.24454986340268065 -0.5472389125199844 -1.1395353763327802 0.46241900003937947 0 0 0 0
80000001 0.23442403453725266 -0.5519578817418761 -1.1391050117007924 0.47212749163309564 0 0 0 0
81000001 0.22415580636239987 -0.556101302848526 -1.1386640912412243 0.4820923264526682 0 0 0 0
82000001 0.21345814292033918 -0.5604191492609428 -1.1385926124321109 0.4926071085479846 0 0 0 0
83000001 0.20317044771688225 -0.5642251967533022 -1.138156892667011 0.5034537935886496 0 0 0 0
84000001 0.19258559116500734 -0.5682272181240045 -1.13763246206297 0.5145137910404589 0 0 0 0
85000001 0.1816337010712649 -0.5718845729773661 -1.1374490785723972 0.5260132899984604 0 0 0 0
86000001 0.17110464583178878 -0.575281642356975 -1.1370622091036746 0.5373335076541477 0 0 0 0
87000001 0.16009433574060974 -0.5787426611693764 -1.1377993593141704 0.5497753184683617 0 0 0 0
88000001 0.14906863283683494 -0.581955624521101 -1.1384322086535694 0.5630834585630005 0 0 0 0
89000001 0.13822314929407614 -0.5845174303950851 -1.1388374730181887 0.5764720348376093 0 0 0 0
90000001 0.12757097965985745 -0.5873270598520117 -1.1396252360735486 0.5898773291001242 0 0 0 0
91000001 0.11654162913484738 -0.5899803489790654 -1.1407671351156148 0.6038802734800803 0 0 0 0
92000001 0.10568206544187285 -0.5921014361736571 -1.1414619629692702 0.6189833241570895 0 0 0 0
93000001 0.09455298517835505 -0.5942551126745781 -1.1421134800642223 0.6341254215494179 0 0 0 0
94000001 0.08365779504870925 -0.5963663425746483 -1.1425315959347766 0.6487967182704704 0 0 0 0
95000001 0.0727570198124243 -0.5979619504008249 -1.142549249111518 0.6640446684924655 0 0 0 0
96000001 0.06148753613664083 -0.5994656602148455 -1.1425615987046387 0.6799336383970946 0 0 0 0
97000001 0.05021746564667011 -0.6008581994191577 -1.1432457809212508 0.6966194632493331 0 0 0 0
98000001 0.039416169101060175 -0.6017773957476928 -1.1433845670643399 0.7142361259636355 0 0 0 0
99000001 0.028225393947783478 -0.6027222290824543 -1.1434927882658212 0.7314284546623976 0 0 0 0
100000001 0.01685717594403939 -0.6034732551508736 -1.1441005367300199 0.7498537579892557 0 0 0 0
