# HZ S RI R 50
1 -0.8133362101910532 -0.2353810141546292 0.2502464310238447 -0.09132206780689232 0 0 0 0
1000001 -0.006539432134074622 -0.010976457298299585 2.0708485371735597 2.971799056368619 0 0 0 0
2000001 -0.013022803969762499 0.006626730672930021 2.2876180593025186 2.855563592920786 0 0 0 0
3000001 -0.014904598091356249 0.012122545793485623 2.421228059752304 2.753599200673686 0 0 0 0
4000001 -0.015684544242000036 0.014553438438545457 2.5310742151490713 2.654439807617691 0 0 0 0
5000001 -0.015914875390079214 0.015826244330518754 2.627965214678725 2.5557986205743917 0 0 0 0
6000001 -0.01621179083147184 0.016462793318527562 2.715881802891511 2.4569863923815225 0 0 0 0
7000001 -0.016000651949184732 0.01665508070258581 2.798413360036274 2.355724488848169 0 0 0 0
8000001 -0.01630539758310381 0.016699460470481403 2.874689586967859 2.255198331510444 0 0 0 0
9000001 -0.016235676918392818 0.016403589614835738 2.9457310090314697 2.153709660638066 0 0 0 0
10000001 -0.016336628997029503 0.016109507932444804 3.0130334819764553 2.050192105265957 0 0 0 0
11000001 -0.01618564792501399 0.01589486593555635 3.0754295596256864 1.9445679246511558 0 0 0 0
12000001 -0.016074697277207742 0.015543024618795243 3.134270379480786 1.83895444546789 0 0 0 0
13000001 -0.01496946770929284 0.01542099866509204 3.1892255940483607 1.7304490417206504 0 0 0 0
14000001 -0.01402151857381122 0.016814493001870223 3.2436694303062468 1.6186343066538929 0 0 0 0
15000001 -0.01625464056227511 0.013813797729838533 3.2853725228791286 1.5156610937777355 0 0 0 0
16000001 -0.018239595367303546 0.017171176926767263 3.3365468555135496 1.407636720214388 0 0 0 0
17000001 -0.0166130875930149 0.017612550427481704 3.3756857982028525 1.2954966433794128 0 0 0 0
18000001 -0.01623395400041321 0.012246412899589599 3.4011890215990754 1.1866702456161236 0 0 0 0
19000001 -0.016382423610567222 0.011335372630924606 3.432347428779811 1.0752077296516107 0 0 0 0
20000001 -0.016409749789749677 0.01068210564339367 3.458353478337555 0.9677318968125526 0 0 0 0
21000001 -0.016426686274373478 0.010232291551382474 3.482861161427593 0.8576845041586895 0 0 0 0
22000001 -0.016613164558655573 0.00957661485706112 3.5047867473198524 0.745006710541308 0 0 0 0
23000001 -0.01676643058410437 0.008779666218626365 3.5217329564034303 0.6313305850052984 0 0 0 0
24000001 -0.017155356631011105 0.008050697393751983 3.533966845227327 0.523358302189615 0 0 0 0
25000001 -0.017222299363247075 0.0074355284714370225 3.5437492487138007 0.4145083208810445 0 0 0 0
26000001 -0.017462393208707478 0.0068034377748004094 3.5507058342684292 0.30252055713340364 0 0 0 0
27000001 -0.01767020909283312 0.00608685159757879 3.555376846196288 0.1881565469205273 0 0 0 0
28000001 -0.01810750486718537 0.005457525567602401 3.55322144458361 0.07182483323994393 0 0 0 0
29000001 -0.018306274935383022 0.004818106810446751 3.5489242027079175 -0.04243550236508395 0 0 0 0
30000001 -0.018565128689782964 0.004329582924887303 3.5388275337278317 -0.15227441235567313 0 0 0 0
31000001 -0.019012169419074826 0.0034987292039721173 3.5271027107767376 -0.2540769017549076 0 0 0 0
32000001 -0.019394939433924216 0.0027882730456668774 3.5128639231259733 -0.3580305672575022 0 0 0 0
33000001 -0.019705553894494517 0.002107139216548572 3.495717388142886 -0.4652962619524566 0 0 0 0
34000001 -0.01999270709265327 0.0018558030485731902 3.4756172351192127 -0.5721714454435464 0 0 0 0
35000001 -0.02059998534966046 0.0007402077407894031 3.452261090680791 -0.6769707825475636 0 0 0 0
36000001 -0.02096828984692377 0.00034798355467209016 3.424670181584109 -0.7859286811036464 0 0 0 0
37000001 -0.021376654567756614 -0.00022009449117222886 3.3918060679031603 -0.8954440818527234 0 0 0 0
38000001 -0.021938118496014285 -0.0007394507010742571 3.3571719764881043 -0.9992513782856709 0 0 0 0
39000001 -0.02221117156310734 -0.0012994543308462642 3.321040857790855 -1.1016118942961808 0 0 0 0
40000001 -0.022788905057982957 -0.0021494791948658168 3.282936267219306 -1.201420625767009 0 0 0 0
41000001 -0.02342572490221299 -0.002796451301935234 3.2417930679047515 -1.298827682350783 0 0 0 0
42000001 -0.02405556626277172 -0.0030686032032607386 3.200179756021554 -1.392493980864716 0 0 0 0
43000001 -0.024602005233118306 -0.0036138951596352098 3.1569495912929257 -1.4750754721052102 0 0 0 0
44000001 -0.025253464998117335 -0.004096558351020353 3.1120820906537494 -1.5532458228895825 0 0 0 0
45000001 -0.025883043091487673 -0.004541501348770437 3.0622016732830253 -1.6368672478408384 0 0 0 0
46000001 -0.026473265357142804 -0.005081212142011858 3.0098753836612837 -1.7216910361468316 0 0 0 0
47000001 -0.027223639018749298 -0.005714503595485156 2.9561825295429927 -1.8067132275028157 0 0 0 0
48000001 -0.028194890660495166 -0.006030820045980131 2.8992849253007376 -1.8914661484662534 0 0 0 0
49000001 -0.019272929862253277 -0.006291069305480842 2.822075583660752 -1.9771587763819232 0 0 0 0
50000001 -0.029105030280728597 -0.006850681521246103 2.7789206222503147 -2.04986997822985 0 0 0 0
51000001 -0.029909907336322265 -0.007381771871640347 2.71650390225654 -2.127127236409839 0 0 0 0
52000001 -0.030532017480148454 -0.007662379609258111 2.653516051424892 -2.202983694557657 0 0 0 0
53000001 -0.031144560720729447 -0.007829852937832863 2.586272109078932 -2.2821218088550896 0 0 0 0
54000001 -0.032102010554687 -0.008187269923994062 2.5124039331279966 -2.358325704376801 0 0 0 0
55000001 -0.03272778691776475 -0.008414821236374522 2.4324360159524807 -2.427404633599907 0 0 0 0
56000001 -0.03359424598338639 -0.008426985488193837 2.3511531873648797 -2.4888975854728055 0 0 0 0
57000001 -0.03437318088970967 -0.008388803942743937 2.2712119184239485 -2.5417209201676103 0 0 0 0
58000001 -0.035026570447315525 -0.00860668230068623 2.191022967893319 -2.5920090413807926 0 0 0 0
59000001 -0.036061773271152266 -0.008546235578655663 2.1129812219633823 -2.640513604147638 0 0 0 0
60000001 -0.03646211586773948 -0.00832063744059318 2.0324351278608193 -2.68578997264155 0 0 0 0
61000001 -0.037141475066792475 -0.008512797150812466 1.9518832505298818 -2.728969731661888 0 0 0 0
62000001 -0.03803133101420203 -0.008341414171627167 1.8706507864076054 -2.771508432560831 0 0 0 0
63000001 -0.038644447281606646 -0.008479587315586989 1.788189422037639 -2.811383102750711 0 0 0 0
64000001 -0.03922784072327581 -0.008299840059650936 1.7052524612489366 -2.849330250024643 0 0 0 0
65000001 -0.03974229021983161 -0.008221354459234116 1.6208399580179154 -2.8855316306466996 0 0 0 0
66000001 -0.04044721707980473 -0.008113153218023594 1.5377224024061127 -2.91995476960822 0 0 0 0
67000001 -0.040668141699613025 -0.00781444623608987 1.4526581140472878 -2.951266770803607 0 0 0 0
68000001 -0.04112871781096176 -0.007917177626650838 1.3716020704411527 -2.9828248503556063 0 0 0 0
69000001 -0.041532059221063906 -0.008054661404309578 1.2939050668190966 -3.014837275940539 0 0 0 0
70000001 -0.041807966717436314 -0.00808372612293785 1.219664791042675 -3.0478842933150427 0 0 0 0
71000001 -0.042226616761849786 -0.008320895227198696 1.149353930548802 -3.0834064858845402 0 0 0 0
72000001 -0.042956330112898816 -0.008261166580131582 1.0805122764985005 -3.1169126584468145 0 0 0 0
73000001 -0.04347701516170143 -0.008595282434823453 1.0077954040392285 -3.1459674214978883 0 0 0 0
74000001 -0.04434884719278234 -0.008344226312375542 0.9290174939053282 -3.173594794120407 0 0 0 0
75000001 -0.04518872871780948 -0.00858155022423798 0.8438822039521451 -3.198265032271041 0 0 0 0
76000001 -0.04565800712082583 -0.00858293568466138 0.7523873640714507 -3.2201653981594047 0 0 0 0
77000001 -0.046241808085812595 -0.008739009004205074 0.6574918174624113 -3.2396648047399705 0 0 0 0
78000001 -0.04701484422238673 -0.00889311384963397 0.5607908434034476 -3.2571434811999604 0 0 0 0
79000001 -0.047686221559322596 -0.009252668184185837 0.46312998593686516 -3.2720089649902984 0 0 0 0
80000001 -0.048265608319223614 -0.009338987713501546 0.3612472289834442 -3.284999799385723 0 0 0 0
81000001 -0.048784925311084644 -0.009206319598460822 0.2581675067928558 -3.295486772923963 0 0 0 0
82000001 -0.04947083968766799 -0.009570683791034509 0.15279823884023688 -3.3014440640899467 0 0 0 0
83000001 -0.05033419152610671 -0.009795794902748584 0.045118782865408304 -3.305172100983265 0 0 0 0
84000001 -0.051128196601417264 -0.009838339941861302 -0.0658871612945052 -3.3048778759857167 0 0 0 0
85000001 -0.05185522952651685 -0.010451857428921693 -0.17908914312736068 -3.298631654421288 0 0 0 0
86000001 -0.05269354499632912 -0.01048313463061967 -0.294584449905231 -3.2894937915081273 0 0 0 0
87000001 -0.05362789328156566 -0.010792979048844128 -0.41276324215953797 -3.272888849729394 0 0 0 0
88000001 -0.05473537278574361 -0.011012074717989822 -0.5304897843563909 -3.2522913523684003 0 0 0 0
89000001 -0.05578515132776792 -0.011138525877397073 -0.6516222166927088 -3.2234772485249357 0 0 0 0
90000001 -0.05702193866146064 -0.011405974008887196 -0.7690406395620945 -3.1895088932009052 0 0 0 0
91000001 -0.058265299665917314 -0.011497578271241145 -0.8863400079941534 -3.148697198883357 0 0 0 0
92000001 -0.0595354948273635 -0.011597147955707963 -1.0002632434090588 -3.100971034496478 0 0 0 0
93000001 -0.06093023981987497 -0.011370132758328159 -1.1097640729732137 -3.048620955234418 0 0 0 0
94000001 -0.062309170957370104 -0.01145402478206427 -1.2125779908259169 -2.9911656918491283 0 0 0 0
95000001 -0.0640595540499507 -0.011175336172278026 -1.3095450597829692 -2.9315989005950467 0 0 0 0
96000001 -0.0602528491255195 -0.027122739981173934 -1.3761919466877823 -2.848201557052902 0 0 0 0
97000001 -0.06680969299215536 -0.010552788323113271 -1.4800119673490797 -2.8092891122830483 0 0 0 0
98000001 -0.06368323523608584 -0.010206490133596226 -1.5592530963477242 -2.7426991943011885 0 0 0 0
99000001 -0.06967932097983824 -0.009141344172922637 -1.6266931729340515 -2.6920209753351334 0 0 0 0
100000001 -0.07130213793908613 -0.008506123458513617 -1.6925275390606116 -2.636339196199473 0 0 0 0
