# HZ S RI R 50
1 -0.8142311043530656 -0.22407955944621255 0.0060312079625803264 0.022164175179131534 0 0 0 0
1000001 -0.006369200435125877 -0.01179599299909246 0.00013489247143712643 0.0001432805301930303 0 0 0 0
2000001 -0.012746617070973276 0.00464674734652894 -3.1615779107370905e-05 1.3654438734997673e-05 0 0 0 0
3000001 -0.014758602419084912 0.00887453691266939 0.00014222080863153606 -7.697103841137979e-06 0 0 0 0
4000001 -0.015289428041813902 0.010418009170393755 -4.113881283489429e-05 -4.081255999318383e-05 0 0 0 0
5000001 -0.016443994804556897 0.010892877125127804 2.6988091854775054e-05 -5.905318850009949e-05 0 0 0 0
6000001 -0.01692809471846382 0.010037853440703246 -7.132577890332638e-05 -4.904326827976322e-06 0 0 0 0
7000001 -0.01680719904307476 0.009364075954048888 -0.00025281077792913014 9.956025543627779e-05 0 0 0 0
8000001 -0.017561628904759447 0.008534319762573819 -0.0001746775928678086 0.00012455476617326746 0 0 0 0
9000001 -0.01794927558383429 0.007560940230362889 -0.0002448842185650727 0.00011460259582849982 0 0 0 0
10000001 -0.018561776201160705 0.006347394896909874 -0.0001506045407388393 0.00015837902707852093 0 0 0 0
11000001 -0.01909735984457873 0.0051718360759313315 -0.00023967469902064778 0.00017719071418178164 0 0 0 0
12000001 -0.019912228719089244 0.004231987368877434 -0.00030945635841398594 0.0001685693190395428 0 0 0 0
13000001 -0.02066581763019452 0.0033022331036905335 -0.0005996888918247693 0.0001228613996646064 0 0 0 0
14000001 -0.02125528582054508 0.0021134707585959028 -0.0005403623664101864 0.0002583506609275906 0 0 0 0
15000001 -0.02239482331391967 0.0013600059903323184 -0.0005952040589282722 0.0003012862747229361 0 0 0 0
16000001 -0.023064436273850852 0.0005283202192630178 -0.000933522953998879 0.0002587732666543662 0 0 0 0
17000001 -0.024035024150889622 -0.0003287763127111944 -0.001032506194754879 0.000300706383790687 0 0 0 0
18000001 -0.02482766388169132 -0.0011534221996410939 -0.0010555859519331943 0.0004025133896597004 0 0 0 0
19000001 -0.02568708053073678 -0.0016935896760078275 -0.0011796816771834787 0.0007996170248890229 0 0 0 0
20000001 -0.026831742479842366 -0.0026623445952606924 -0.0012692889038440772 0.0008444440058138452 0 0 0 0
21000001 -0.02754881748195364 -0.0031898657031112962 -0.0012614104332095703 0.0011794843535420873 0 0 0 0
22000001 -0.02867449961207635 -0.0038621641508573288 -0.0013166034339369497 0.0012468503121912493 0 0 0 0
23000001 -0.029610956532387114 -0.004421444431508485 -0.0014537043257552055 0.0015426985918399541 0 0 0 0
24000001 -0.030635436763544157 -0.005078450537305402 -0.0012731143478631392 0.0016283468234636238 0 0 0 0
25000001 -0.031371668609588496 -0.005723735138224183 -0.001240274568177175 0.0018609528865084937 0 0 0 0
26000001 -0.03243036640702844 -0.005883731848759447 -0.0011694157095838177 0.0020609749578327802 0 0 0 0
27000001 -0.033302745842514615 -0.00618197244962459 -0.0012058204114946942 0.0023710525459775243 0 0 0 0
28000001 -0.0345326440043665 -0.0068320681787226055 -0.0009207490379891502 0.0025607157204097252 0 0 0 0
29000001 -0.03523168606541295 -0.007189683206479263 -0.0008753046618284492 0.002835309882737002 0 0 0 0
30000001 -0.03641510753828787 -0.007687090032450783 -0.0008383172292782454 0.0028364466781806226 0 0 0 0
31000001 -0.037185021609581884 -0.007913157018112505 -0.0006217182962185147 0.002989299137250164 0 0 0 0
32000001 -0.03809579348726925 -0.009322900941564481 -0.0006752287213202155 0.0032113635547727512 0 0 0 0
33000001 -0.03922750089386137 -0.008203707823822752 -0.0002440292699013919 0.003351674709067572 0 0 0 0
34000001 -0.040512752660729325 -0.009060323574825209 -8.944723220140101e-05 0.003316636776899309 0 0 0 0
35000001 -0.040952524271888426 -0.008736223244762467 0.00015130752317495707 0.00367568863368079 0 0 0 0
36000001 -0.04219526423108395 -0.009011370934218964 0.00030531444456445453 0.0035838478755889232 0 0 0 0
37000001 -0.042707235074301166 -0.00905328731931836 0.00045166355070565126 0.0036418437164244745 0 0 0 0
38000001 -0.043916654066718616 -0.00921718702585854 0.0007152693108946503 0.003502769286011735 0 0 0 0
39000001 -0.04438312957675916 -0.009187636184484595 0.0009076724807849729 0.003728074089847316 0 0 0 0
40000001 -0.04576559811603482 -0.009346488180166467 0.001095216439595594 0.0038968571080034535 0 0 0 0
41000001 -0.04695808705099728 -0.009402232679401342 0.0012404412852289172 0.003665847235206897 0 0 0 0
42000001 -0.04801505226404792 -0.009458724084583776 0.0015071219554637525 0.00383038008644823 0 0 0 0
43000001 -0.048709603226538875 -0.009163429736916626 0.001697071825212237 0.003599285524301945 0 0 0 0
44000001 -0.049794858090699196 -0.009365575282520836 0.0017562671802774938 0.003569327786257081 0 0 0 0
45000001 -0.05078855178700166 -0.009006739408061269 0.00177159835312424 0.003697412433917503 0 0 0 0
46000001 -0.05179098441673056 -0.009168330927155834 0.0020365751042994563 0.003679125218701194 0 0 0 0
47000001 -0.05291557663787066 -0.009000545466317407 0.002279130040597224 0.0035133434592842976 0 0 0 0
48000001 -0.053937008760516506 -0.008812526428860934 0.0024020994190560125 0.003492585214084589 0 0 0 0
49000001 -0.054715841256699885 -0.008550280534849393 0.0026294491644236187 0.0033733012711826913 0 0 0 0
50000001 -0.055660464966919274 -0.008578362784324719 0.0027245659888367295 0.003382098254489171 0 0 0 0
51000001 -0.056556739338183185 -0.008251925926196476 0.0028186790473694475 0.0032887358085632026 0 0 0 0
52000001 -0.057518878389702 -0.00794301812604115 0.0030994239799405944 0.0032475635410515904 0 0 0 0
53000001 -0.05813694634286492 -0.007824779871802271 0.0032108133616477017 0.003091049292019831 0 0 0 0
54000001 -0.05914138913857656 -0.0074826791619550335 0.0034635781672076632 0.0028668144797781396 0 0 0 0
55000001 -0.060253363679614494 -0.007290919299488061 0.003275195768272428 0.0027230433990263737 0 0 0 0
56000001 -0.06109745945599714 -0.006672052643411509 0.003442181036773144 0.00282079873906694 0 0 0 0
57000001 -0.06159655586416638 -0.0064431951214110154 0.0035563060260429854 0.0026340957128980114 0 0 0 0
58000001 -0.06252519694686214 -0.005989909344557006 0.0036941903080140283 0.0025400710355673833 0 0 0 0
59000001 -0.06392527648192031 -0.005704310666697881 0.0038177147818286537 0.0026440676754381763 0 0 0 0
60000001 -0.0645896351773975 -0.00508141563981474 0.003832659028862492 0.0022621062520666257 0 0 0 0
61000001 -0.06553197000185364 -0.004663677497979232 0.0038222680626728922 0.0023110862991033514 0 0 0 0
62000001 -0.06659311840026692 -0.004097557835394623 0.003926608860358563 0.0021043806692786176 0 0 0 0
63000001 -0.06730261370831907 -0.0035952658594846647 0.00397416795139066 0.00199192507036993 0 0 0 0
64000001 -0.06820032296537769 -0.0030549240532235047 0.004021518138225383 0.0017023245095222086 0 0 0 0
65000001 -0.06897468766995117 -0.002329817425492661 0.004102340337471958 0.0018470967975999751 0 0 0 0
66000001 -0.06966960456222074 -0.001563973719136075 0.004294317944656755 0.0015808543117550318 0 0 0 0
67000001 -0.07051779060185157 -0.0009776281408403432 0.004378999569832322 0.0014619299470988935 0 0 0 0
68000001 -0.07140059382813466 -0.0002862441836413766 0.004304999124682592 0.0012801914805772763 0 0 0 0
69000001 -0.07215405329574401 0.00025023779789052394 0.004259600384107906 0.0011944429037447418 0 0 0 0
70000001 -0.07280291390827366 0.001196163623855761 0.004366834501442611 0.0012034578463570298 0 0 0 0
71000001 -0.07362860973613022 0.0019602336326709413 0.004386172949891598 0.0011285348885662942 0 0 0 0
72000001 -0.0743009707281144 0.002538364357114345 0.004454651210899604 0.0009794929455533147 0 0 0 0
73000001 -0.07485934387196468 0.0034541040275890846 0.004398481206659269 0.0006530107495185795 0 0 0 0
74000001 -0.07576045143773008 0.004214469421035238 0.0044480843867444764 0.0007190628351016276 0 0 0 0
75000001 -0.07624709690050223 0.00499087143716232 0.004599157361018556 0.0005560028923704941 0 0 0 0
76000001 -0.07718146373661694 0.005705696211866331 0.004645241357567186 0.0003344198383305868 0 0 0 0
77000001 -0.07783120772866002 0.0067629633323400785 0.004563069440977647 0.0002082519803303549 0 0 0 0
78000001 -0.07817105923491104 0.006824064663692545 0.004509893580066528 0.00025042200586112667 0 0 0 0
79000001 -0.07806271933203857 0.00794363532660523 0.004550755207343926 0.00011831109104695165 0 0 0 0
80000001 -0.07921638146205386 0.009157954758362672 0.004599418285732985 8.234627145936469e-05 0 0 0 0
81000001 -0.07956356983298025 0.009930371393068642 0.004634981208412394 -3.458050648607247e-05 0 0 0 0
82000001 -0.0807199115031949 0.011408709747795396 0.00473919738007811 -0.0002488265664688171 0 0 0 0
83000001 -0.0809486456425972 0.012565732787971445 0.004496262258921497 -0.0003721075915713624 0 0 0 0
84000001 -0.08136951825041688 0.013638011477161597 0.004501863035783148 -0.00036197499108048205 0 0 0 0
85000001 -0.08215162129029067 0.014553583435247881 0.0045501240242669504 -0.0005950249891420034 0 0 0 0
86000001 -0.08219152515490433 0.01517694015296828 0.004547245849246162 -0.0008867476173634355 0 0 0 0
87000001 -0.0829652079272591 0.016860456993640627 0.004619311170296042 -0.0008175247778412613 0 0 0 0
88000001 -0.08350725921331628 0.01710335666222407 0.0045394658559395 -0.0009718221661037856 0 0 0 0
89000001 -0.08376206227511691 0.018969837686011175 0.004386201719956795 -0.0010754350839265892 0 0 0 0
90000001 -0.08433117020419793 0.020156208467837 0.004697271909723399 -0.00097279786020977 0 0 0 0
91000001 -0.0840493148782331 0.02084062935610565 0.004446802565982274 -0.0013451604288467266 0 0 0 0
92000001 -0.08485799481972406 0.022857228618457907 0.004271218531835053 -0.0013824587152303624 0 0 0 0
93000001 -0.08522054348283598 0.023787817142543757 0.004416077421279198 -0.0014183083411624965 0 0 0 0
94000001 -0.08547275354263809 0.025120461241179583 0.00444034343871432 -0.00152321678862853 0 0 0 0
95000001 -0.08566451216330426 0.026470489917519182 0.00427810620412096 -0.0016010233465517585 0 0 0 0
96000001 -0.08582330499917418 0.027580616094567783 0.0042708978455739295 -0.001797082973979958 0 0 0 0
97000001 -0.08588319758360684 0.029209040941288733 0.00430721672436766 -0.0016917201085651838 0 0 0 0
98000001 -0.08617079763957808 0.030321223966009843 0.004145672590662453 -0.001977795999614672 0 0 0 0
99000001 -0.08629718921247986 0.03153609981459459 0.0041721243835967335 -0.0023112764544100245 0 0 0 0
100000001 -0.08622860733515295 0.0329491842396462 0.004055799117927008 -0.00218487957493897 0 0 0 0
