# HZ S RI R 50
1 -0.8444352481631436 -0.25296383610702444 0.005316954272590308 0.02234420945818431 0 0 0 0
1000001 -0.006818074495912087 -0.0116046383632009 -0.0001212800123532026 -4.3060873039277845e-05 0 0 0 0
2000001 -0.013000085047992284 0.004481674645861517 -9.893690414760691e-05 -0.00014392157680249667 0 0 0 0
3000001 -0.014319475393203975 0.008959790715392317 5.671324120742581e-05 8.18192835908667e-06 0 0 0 0
4000001 -0.015294663669217954 0.010108593736952977 0.0002324211732502325 0.00012209892792672071 0 0 0 0
5000001 -0.016103760169186868 0.010738254679214397 -8.977855854312487e-05 0.0002731014669323735 0 0 0 0
6000001 -0.01640274303090421 0.010296920633943779 -0.00025500102057548834 0.00016901863984318711 0 0 0 0
7000001 -0.017011150220066985 0.009481190945728166 -0.0003784865354176342 0.0002652297861174792 0 0 0 0
8000001 -0.018923413649713276 -0.003294325105090294 -0.0002966402823427669 0.00017097614071521426 0 0 0 0
9000001 -0.017935121192504313 0.007555756086817684 -0.0002227450292875192 7.853638317354272e-05 0 0 0 0
10000001 -0.022859404379627746 0.009303874666454704 -0.00031118877735574114 0.00014349042525151382 0 0 0 0
11000001 -0.019084709240063023 0.0012175917641052737 -0.00039436621155344913 7.778202842858483e-05 0 0 0 0
12000001 -0.02178778914141382 0.001578685224666319 -0.00044641776581558424 0.00018839485925160803 0 0 0 0
13000001 -0.021176927183844264 0.0006071725180489112 -0.0006112374597783193 0.00021312446037930906 0 0 0 0
14000001 -0.0216051657637931 0.002670018803663883 -0.0007213016910330593 0.00022049122266540173 0 0 0 0
15000001 -0.022282861422598284 0.0016808895882387666 -0.0008312272638096686 0.0003960856945637399 0 0 0 0
16000001 -0.024547759168454485 0.00030902405772129023 -0.0009265140485602561 0.0004257052678663868 0 0 0 0
17000001 -0.02318984261756757 0.0009911461070162 -0.0010318263221171537 0.0005019301507481417 0 0 0 0
18000001 -0.025234160701731432 -0.0019174978495651817 -0.0011039848981280371 0.0006078744026795897 0 0 0 0
19000001 -0.02579467822253049 -0.0015035920134334434 -0.001293157730295249 0.0007775615313547879 0 0 0 0
20000001 -0.026572924951876502 -0.0023828915820232003 -0.0012544168509794156 0.00102812479008084 0 0 0 0
21000001 -0.02760909692696373 -0.0029055032819689883 -0.001283927704654593 0.0012875909047424493 0 0 0 0
22000001 -0.027157634505713 -0.00284190817588512 -0.0013264934375521499 0.0015500210550484198 0 0 0 0
23000001 -0.028347545860689206 -0.004560500922714751 -0.0013312026518642445 0.0017276113463780514 0 0 0 0
24000001 -0.03058861617997475 -0.004431110681193969 -0.0014648927665590753 0.002008299094478837 0 0 0 0
25000001 -0.031116011663059173 -0.005286813961866289 -0.00100962045535434 0.002181459470068388 0 0 0 0
26000001 -0.032127044209337575 -0.0062616415569819355 -0.0011121564139783074 0.0022971889534269038 0 0 0 0
27000001 -0.033081595265846024 -0.006212690848033579 -0.000993157071649313 0.0026081051995572747 0 0 0 0
28000001 -0.0340139802779881 -0.00673032381072757 -0.0009302841997906716 0.002646061141254387 0 0 0 0
29000001 -0.034879021791469934 -0.006853236962813809 -0.0007180980519368112 0.0029254388858158337 0 0 0 0
30000001 -0.03579705389474071 -0.007186510308683013 -0.0006000549314437397 0.0028889810086881683 0 0 0 0
31000001 -0.03696462178498289 -0.007543175902121386 -0.000497535124685223 0.003165053762082967 0 0 0 0
32000001 -0.037651901922856924 -0.00779773862442307 -0.00037051958726018225 0.003177795183095671 0 0 0 0
33000001 -0.03849166616175147 -0.008136181527132417 -0.0002163429128135575 0.003287095968705709 0 0 0 0
34000001 -0.0394496165989893 -0.008229648726093412 0.00012184809097502839 0.003407993664133818 0 0 0 0
35000001 -0.04045331777429555 -0.00853661686674894 0.00032732960897782987 0.003441140250425464 0 0 0 0
36000001 -0.04145373299159419 -0.008644791355307425 0.00042914178111581186 0.0035595666399457953 0 0 0 0
37000001 -0.0425702574430587 -0.008761676100741383 0.0008323726905257278 0.003633968223145484 0 0 0 0
38000001 -0.04323757702584915 -0.008995494370771238 0.0009903464079492731 0.0036885395373506867 0 0 0 0
39000001 -0.04453597434212769 -0.009041315564663307 0.0010079113952887768 0.0036444873468576507 0 0 0 0
40000001 -0.04533082835451971 -0.009165743536625347 0.0013089729213941377 0.0037640786356919944 0 0 0 0
41000001 -0.04631749163511704 -0.009160297730411002 0.0013260206287298625 0.0035444856212810934 0 0 0 0
42000001 -0.04702989064581532 -0.009337254815159679 0.001519667908257544 0.0036264122563225217 0 0 0 0
43000001 -0.048257042128464794 -0.009225903613111257 0.001649248607929164 0.0034451697110143456 0 0 0 0
44000001 -0.049081359520268514 -0.009227354092982528 0.001937810468030883 0.0034430539313205976 0 0 0 0
45000001 -0.05011321979233833 -0.009318603645778351 0.002064637247611726 0.003551135480536597 0 0 0 0
46000001 -0.05109702605305875 -0.009168784827778732 0.0022586626523349237 0.003416400635861332 0 0 0 0
47000001 -0.05207794888583563 -0.008964687377511295 0.00238761611102487 0.003412311686670637 0 0 0 0
48000001 -0.05297615673892965 -0.008963032318020396 0.0024796656144800517 0.003311616907648387 0 0 0 0
49000001 -0.05396846972126345 -0.008787550382987615 0.002614892758221661 0.0031896212039541887 0 0 0 0
50000001 -0.05488659943974396 -0.008708246301186459 0.00274282479881158 0.003119585518258211 0 0 0 0
51000001 -0.05591820379605699 -0.0084745664809384 0.002876584992660298 0.002890189858269214 0 0 0 0
52000001 -0.05675277062185676 -0.008179503664806693 0.0031334675628081963 0.002962994996965031 0 0 0 0
53000001 -0.057665217785891225 -0.007854656513266674 0.0031224998276819277 0.0029534609384371004 0 0 0 0
54000001 -0.058594507457383815 -0.007610342167418348 0.0030787575171907933 0.002692357767407632 0 0 0 0
55000001 -0.05951628353983772 -0.007298513740420949 0.003404716072663258 0.002640849493050564 0 0 0 0
56000001 -0.06061820655251489 -0.007123084915356594 0.0035194619930564598 0.0027666176039259625 0 0 0 0
57000001 -0.061198643984168126 -0.006680416374132037 0.0035623139704166564 0.0025935090323290872 0 0 0 0
58000001 -0.06214610678442125 -0.006359558750791102 0.003526879299567332 0.002240639386953653 0 0 0 0
59000001 -0.06308433924968979 -0.006022980206492082 0.0037249662407456987 0.002337842831471736 0 0 0 0
60000001 -0.06394155019102879 -0.005530004713393729 0.0037503159968026315 0.0021688617100675566 0 0 0 0
61000001 -0.06488251214193236 -0.005225269362565423 0.0037176197460122014 0.00214156504795646 0 0 0 0
62000001 -0.0658529676730961 -0.004592770983359033 0.003897516406404838 0.001823201906096409 0 0 0 0
63000001 -0.06659790456879673 -0.0038148198608625524 0.003935392393739428 0.0018947235463815182 0 0 0 0
64000001 -0.06748357786821403 -0.003644435197499709 0.00397043457866759 0.0018492836649070168 0 0 0 0
65000001 -0.06827979298405551 -0.0026809606226578992 0.00416764325690382 0.001543214327546879 0 0 0 0
66000001 -0.06935187235266543 -0.002085444988749392 0.0039919203299217726 0.0015285122128405133 0 0 0 0
67000001 -0.06990063669745375 -0.001545147479975066 0.004071305416050178 0.001260902172526864 0 0 0 0
68000001 -0.07101272765717896 -0.0006636983813759048 0.004278149206000419 0.0014197682626244385 0 0 0 0
69000001 -0.07162845591144874 -0.0002528257395419497 0.004264870700082436 0.0012193672479389056 0 0 0 0
70000001 -0.0726476791508722 0.0005755546300392443 0.004209026238356705 0.0010774523649680374 0 0 0 0
71000001 -0.07317553515669956 0.0012981248348565779 0.004356474813705386 0.0007962764862222416 0 0 0 0
72000001 -0.07383952725884231 0.0018208376861077562 0.004208258919284567 0.000926736517491889 0 0 0 0
73000001 -0.07440772963109087 0.002626028932681832 0.004313890883613643 0.0007934234489844779 0 0 0 0
74000001 -0.07533505138894658 0.0036609440995300185 0.004354028295288462 0.0008342560777134754 0 0 0 0
75000001 -0.07590975158804285 0.004552485061631964 0.004388659390977596 0.0004314372639177029 0 0 0 0
76000001 -0.07671042085429447 0.005340753695965785 0.004379877090730732 0.00040796953112694494 0 0 0 0
77000001 -0.07733630222101887 0.0059777812050104615 0.004314495335986044 0.0003695990906844258 0 0 0 0
78000001 -0.07795727702048548 0.006986964521428343 0.004447724006218195 0.00013019687169053964 0 0 0 0
79000001 -0.07885999432329895 0.008175256791331204 0.004439704630564668 6.1034980234080916e-05 0 0 0 0
80000001 -0.07900501718765929 0.008789490755354094 0.0044493632595826085 -9.823292653789742e-06 0 0 0 0
81000001 -0.07972082669113965 0.00989211018084862 0.004354062862557348 -0.0001457659610321494 0 0 0 0
82000001 -0.08058737204122025 0.010812860002662995 0.0045063343271853525 -0.00036073497460620654 0 0 0 0
83000001 -0.08099822869431365 0.011924125457412733 0.004457017666881728 -0.00028205125491909914 0 0 0 0
84000001 -0.08146111907897882 0.013007836124632969 0.00437709678924733 -0.0004062064338406703 0 0 0 0
85000001 -0.08206545420569411 0.01397059289519409 0.0043796643235321266 -0.0004129871620839609 0 0 0 0
86000001 -0.08241584417436429 0.014995493792078218 0.004341454938902688 -0.0006503595763308475 0 0 0 0
87000001 -0.08286209974653336 0.01613215039047222 0.0043818584458763625 -0.000775664458732855 0 0 0 0
88000001 -0.0833378011956579 0.017124437985477154 0.004564365947539272 -0.0008136787586516715 0 0 0 0
89000001 -0.08371554070648737 0.01825462242635191 0.004328542759458393 -0.000955545186094013 0 0 0 0
90000001 -0.08415705166990227 0.019332780633631953 0.004473713981912961 -0.0011130335569314918 0 0 0 0
91000001 -0.08404638375257574 0.02063971546062124 0.004377995822189 -0.0012579033197439554 0 0 0 0
92000001 -0.08488721872775006 0.021774631411531267 0.004366572876018103 -0.00128419346010336 0 0 0 0
93000001 -0.08515719202590787 0.023102133570208 0.00421101479659944 -0.0011811613153353893 0 0 0 0
94000001 -0.08475737041908855 0.024092962590653032 0.004280919049150998 -0.0014029665215046577 0 0 0 0
95000001 -0.08562412178043885 0.025772405053495692 0.004370184083033503 -0.0014767936187541626 0 0 0 0
96000001 -0.08581880201155496 0.026741858901891284 0.004019749510039415 -0.001651645634299586 0 0 0 0
97000001 -0.08610435333013798 0.028233698991445694 0.004106253038304851 -0.0017122568096741909 0 0 0 0
98000001 -0.08643509571613744 0.02930994179833456 0.004020171946439763 -0.0019582756764913657 0 0 0 0
99000001 -0.0864671310700949 0.030737197260781002 0.004125819837739991 -0.0019104664165496173 0 0 0 0
100000001 -0.08640279534104309 0.032163466894170586 0.004064064466447399 -0.0019122612242515966 0 0 0 0
