# HZ S RI R 50
1 0.10153556604554394 0.36683807231619153 -0.17669233448686075 0.020696468048520215 0 0 0 0
1000001 0.4922441654364125 0.017556417380230296 -4.7036126984332425 3.735560014342066 0 0 0 0
2000001 0.512721398130798 0.0036466194107692778 -2.6920333723266676 4.11356536072782 0 0 0 0
3000001 0.4915609783749107 0.03678690175944336 -1.2223028184386142 3.3863685722791215 0 0 0 0
4000001 0.49395932231895284 0.046538841662132624 -0.3463367991714895 2.5303023859406157 0 0 0 0
5000001 0.5015572436457191 0.06702300485524743 0.14202571569703853 1.8618566240347818 0 0 0 0
6000001 0.503251492442938 0.06357877511900697 0.4049408525311713 1.3447670424636562 0 0 0 0
7000001 0.5047909101572897 0.07193609158544959 0.5419116308415837 0.9846045610531708 0 0 0 0
8000001 0.49981696784636725 0.07963548360368408 0.614001587349817 0.7280478257967512 0 0 0 0
9000001 0.5044832837134894 0.09370051157145261 0.6482714623213905 0.5401787418738797 0 0 0 0
10000001 0.5130341814119137 0.10295668860049219 0.6605698944549585 0.3862486332227343 0 0 0 0
11000001 0.5114006183138301 0.11567607765367326 0.6344495563542388 0.23453934062798512 0 0 0 0
12000001 0.5173943177842109 0.1186042526784548 0.6398605937163583 0.11851387895355497 0 0 0 0
13000001 0.519250247020803 0.1276218213681392 0.6479139372277002 0.02950387003713642 0 0 0 0
14000001 0.5231332177732172 0.1362165313316745 0.6504018014475798 -0.04529055639090149 0 0 0 0
15000001 0.5227488295709404 0.14765481150384274 0.6558675448482192 -0.10961290204878636 0 0 0 0
16000001 0.5338634193656718 0.15546129375125906 0.6549347508914823 -0.1715339789398117 0 0 0 0
17000001 0.5372497719774604 0.16699345752494016 0.6593629626215736 -0.22674642042555326 0 0 0 0
18000001 0.5474015842863994 0.1714529626938761 0.6546824675633532 -0.28075642548931334 0 0 0 0
19000001 0.5510767523223006 0.18097643321026188 0.6515860034066864 -0.3335332675670874 0 0 0 0
20000001 0.557170406885264 0.18928393799305504 0.6474995398435249 -0.381953798543495 0 0 0 0
21000001 0.564697208557653 0.1982853800623365 0.6380414431783253 -0.433308415590165 0 0 0 0
22000001 0.5714609219068477 0.2059319226517475 0.6265851027381802 -0.48573046203988524 0 0 0 0
23000001 0.5799297736101353 0.211282037212866 0.6172016509732439 -0.5350483888277977 0 0 0 0
24000001 0.5833527267084105 0.2182826595348076 0.6074163425747636 -0.5866425646789701 0 0 0 0
25000001 0.5892691331628523 0.22264353106635407 0.5912086035003641 -0.6328162832043971 0 0 0 0
26000001 0.5949386297740272 0.22680165547014325 0.5722685482982504 -0.680284675728043 0 0 0 0
27000001 0.5983163073934159 0.23139862434928002 0.5581623085099148 -0.7312286115034904 0 0 0 0
28000001 0.6025521774760803 0.23486806250142253 0.5426162471053524 -0.779952109825257 0 0 0 0
29000001 0.60705251113393 0.2385512245583551 0.5243278696634426 -0.8335115463699109 0 0 0 0
30000001 0.6110868639390684 0.24178756620269468 0.5059559244308344 -0.8796992348170338 0 0 0 0
31000001 0.6156271821605679 0.24556165900461857 0.48820602618013764 -0.928397077785645 0 0 0 0
32000001 0.6206082820713019 0.25100562008025695 0.4613884496981195 -0.980986156829065 0 0 0 0
33000001 0.6250724728667796 0.2535426827976786 0.42955197009069557 -1.0486428750628087 0 0 0 0
34000001 0.6276255399842705 0.2552748835530652 0.4091123922319944 -1.111179994342619 0 0 0 0
35000001 0.6303679852188092 0.2574901044064082 0.3806742764959795 -1.1715750318767069 0 0 0 0
36000001 0.6342647885748103 0.2606849218169269 0.34643844301331234 -1.2359211323643748 0 0 0 0
37000001 0.6373777989700861 0.2635184510894797 0.31027021959912426 -1.3101037358124525 0 0 0 0
38000001 0.6414164752862852 0.26639557313368945 0.26866873663050306 -1.3787498209153342 0 0 0 0
39000001 0.6451054677632996 0.26922062945074543 0.23051903282045988 -1.4308980369787885 0 0 0 0
40000001 0.6552749294873385 0.27199670913656315 0.19149100182344003 -1.4862528858608577 0 0 0 0
41000001 0.6598495134908972 0.27497580142937944 0.14212299741197432 -1.5428371842699713 0 0 0 0
42000001 0.6614053654711711 0.2776211733233822 0.08745556335192262 -1.5961933873823542 0 0 0 0
43000001 0.6681934574665273 0.28139558163559747 0.009592192304471503 -1.6871188212603658 0 0 0 0
44000001 0.6720242596468715 0.28388431134051506 -0.06295303148709408 -1.7745815907059241 0 0 0 0
45000001 0.6761836420706622 0.2862743820093971 -0.1256413102562307 -1.8494982043051775 0 0 0 0
46000001 0.6862943031788037 0.28967003848619766 -0.2082898579961724 -1.9171405557705958 0 0 0 0
47000001 0.6848196521018609 0.29117531646037736 -0.27522240675313503 -1.9823456483462545 0 0 0 0
48000001 0.6891188307083381 0.28410420936907327 -0.34930230825789355 -2.040355368951454 0 0 0 0
49000001 0.6956719657660859 0.2967930667001956 -0.43915959051387754 -2.113798036278858 0 0 0 0
50000001 0.6977243392143557 0.29745036325416246 -0.5279830599062891 -2.221049695958654 0 0 0 0
51000001 0.7043912655657196 0.3011961349796596 -0.6481955668421611 -2.332706914780504 0 0 0 0
52000001 0.7105371386961222 0.30483935634492065 -0.7711025467968191 -2.4120376228258826 0 0 0 0
53000001 0.7193803339256815 0.3090463473994224 -0.8872476729546788 -2.4959701380103816 0 0 0 0
54000001 0.7248631730060671 0.31081283550909194 -1.0422144568942178 -2.5919278512536343 0 0 0 0
55000001 0.7322641560132807 0.31302071017362854 -1.1579198611170531 -2.647097826748554 0 0 0 0
56000001 0.7373256757842669 0.3149461115917748 -1.3057852809760198 -2.7209209408426367 0 0 0 0
57000001 0.7454878320693876 0.3177337376944138 -1.455422960022828 -2.7619048868858793 0 0 0 0
58000001 0.7472763297875556 0.31694216615090853 -1.6139106333570694 -2.8475204267800276 0 0 0 0
59000001 0.7590891914151557 0.31682631587081006 -1.8125929330162593 -2.897926063926634 0 0 0 0
60000001 0.7580872115908354 0.31881146078534045 -1.986235167613963 -2.9244946489088264 0 0 0 0
61000001 0.7651727026491367 0.32117925733321384 -2.2266641801502325 -2.9619052421344514 0 0 0 0
62000001 0.7743793041966028 0.3236152768122874 -2.4564388050969446 -2.9308143471217525 0 0 0 0
63000001 0.7780630228383013 0.3242472968117332 -2.672617735178065 -2.950712372241945 0 0 0 0
64000001 0.7963911800356954 0.3288244159093375 -2.8679696415523743 -2.8677280483066165 0 0 0 0
65000001 0.8047304533198262 0.33223927953968 -3.1103259070484652 -2.7382697081177496 0 0 0 0
66000001 0.8093307148220465 0.33208598498629704 -3.305565015990201 -2.7128838100276824 0 0 0 0
67000001 0.8322349632284541 0.3239432895250139 -3.4156552056410083 -2.5868515055016883 0 0 0 0
68000001 0.8367265506614011 0.3244958469245889 -3.558561004966464 -2.51214771846982 0 0 0 0
69000001 0.8353998537699004 0.33278921502522124 -3.737324110767908 -2.454397092978338 0 0 0 0
70000001 0.8394462098743333 0.3320126148907223 -3.824355871991235 -2.410210740932706 0 0 0 0
71000001 0.842413841348592 0.3302441802063429 -3.8445531651329503 -2.4338384732864973 0 0 0 0
72000001 0.8491201982734954 0.331623832057784 -3.9494217934678524 -2.311405021835754 0 0 0 0
73000001 0.8523914469477509 0.32999833145525514 -4.020124607607288 -2.337118658567901 0 0 0 0
74000001 0.8521718872120266 0.3219159449328844 -3.9592358683232436 -2.3451223283939635 0 0 0 0
75000001 0.8567330426711608 0.3208211213809033 -4.012637497796623 -2.3190451979589954 0 0 0 0
76000001 0.8566462674167704 0.3203796173542785 -4.031655436959412 -2.345082627618757 0 0 0 0
77000001 0.8605065177661345 0.3165312532902716 -4.0508971138864265 -2.373106351041251 0 0 0 0
78000001 0.8660061106601489 0.3115767321122389 -4.044464437487948 -2.3814145940628153 0 0 0 0
79000001 0.8663209725741658 0.3108265225233991 -4.070944249627219 -2.4167833533493717 0 0 0 0
80000001 0.86584630011524 0.3136403644564034 -4.071175274657242 -2.4967331776359565 0 0 0 0
81000001 0.8875102712332559 0.2944297021197846 -3.9331872608835825 -2.462591121867054 0 0 0 0
82000001 0.882113187899858 0.2826266264918151 -3.9440294236994506 -2.5654414798598593 0 0 0 0
83000001 0.8884765047763026 0.2949082502846516 -3.958072804063026 -2.500539903074885 0 0 0 0
84000001 0.8809566185945653 0.29531397300029477 -4.050424044795543 -2.4041644858263744 0 0 0 0
85000001 0.8776738394763404 0.29160611777795087 -4.068922551839911 -2.526586649043968 0 0 0 0
86000001 0.8954455594415142 0.27326962003577915 -3.9244603587265967 -2.585446902004056 0 0 0 0
87000001 0.8842585931175584 0.2860565889143109 -3.9667943200824287 -2.6949733316807016 0 0 0 0
88000001 0.909825174053788 0.27914651722345757 -3.8850845854127587 -2.6972809069097616 0 0 0 0
89000001 0.8904545631690981 0.2780748726428148 -3.9190892590087185 -2.7997093847263694 0 0 0 0
90000001 0.8925613503251894 0.2743397167283992 -3.8806165606012923 -2.871692382691662 0 0 0 0
91000001 0.8932505918472617 0.2702306310021735 -3.8294106805627894 -2.919917832429223 0 0 0 0
92000001 0.8958781543620077 0.26778480592776555 -3.8916807060762744 -2.9270436581598753 0 0 0 0
93000001 0.898154050782213 0.26424721728365713 -3.8843385070390135 -3.016653342768968 0 0 0 0
94000001 0.9008444393172894 0.26219246347713987 -3.7331570849883944 -3.221078394998287 0 0 0 0
95000001 0.8998499476938767 0.25776160374111734 -3.9007814053774754 -3.0697608021499008 0 0 0 0
96000001 0.9037881293352032 0.2543720372127109 -3.8551774764271625 -3.232777649224811 0 0 0 0
97000001 0.8996320091586599 0.24993417776358426 -3.8211910723398046 -3.3869725735789578 0 0 0 0
98000001 0.9011869968434075 0.24760172862391341 -3.841006442587351 -3.495846017198077 0 0 0 0
99000001 0.9016952886908387 0.2449020241133945 -3.8260492344051036 -3.603568009359557 0 0 0 0
100000001 0.9029850682269659 0.2409039105260844 -3.8430977914641993 -3.691941045530138 0 0 0 0
