# HZ S RI R 50
1 0.7097939645097284 -0.10710407815495995 -1.7673757276050341 -0.5866010602622613 0 0 0 0
1000001 0.18287254444433895 0.002724793023888596 -7.087885702369048 0.8151963384802932 0 0 0 0
2000001 0.2018324624295755 0.00091081253561462 -7.086687769552705 0.7980556772558147 0 0 0 0
3000001 0.2017105320103462 0.0012484115499244745 -7.075612607645124 0.8062292700697681 0 0 0 0
4000001 0.2014278285156662 -0.00023839737857177164 -7.05077975477917 0.7895142247769378 0 0 0 0
5000001 0.19954668431624245 -0.0035398707455687206 -7.036704035204668 0.7952465852688988 0 0 0 0
6000001 0.2004956313578733 -0.0024153717126210467 -6.995630674446004 0.8089196362409339 0 0 0 0
7000001 0.19992284417448047 -0.00228147676854423 -6.961980499380427 0.822415173982814 0 0 0 0
8000001 0.19473352330063926 -0.0054241611280781655 -6.915908322823424 0.8357705939557624 0 0 0 0
9000001 0.1985769473895131 0.00026158384141219894 -6.872420645628681 0.8798756310866405 0 0 0 0
10000001 0.2007588087588216 -0.002768626380833715 -6.8261087857191125 0.9120958880910988 0 0 0 0
11000001 0.1986944601924891 -0.0017107162975818818 -6.787147791176269 0.9290130388565254 0 0 0 0
12000001 0.1983190230007191 -0.0030960167413959733 -6.753556194346581 0.9603726645894399 0 0 0 0
13000001 0.19988490628332486 -0.0028625038353243546 -6.717786520296148 0.9952945358659397 0 0 0 0
14000001 0.19744240673766364 -0.0033236716668218974 -6.6953675544679285 1.0066149619130371 0 0 0 0
15000001 0.19751716747731382 -0.003557998603909534 -6.668951764683063 1.0358391564784664 0 0 0 0
16000001 0.19728882379409984 -0.003557388566411057 -6.648460535521687 1.0685753038883035 0 0 0 0
17000001 0.19702193952957403 -0.004415468619452298 -6.635344663409533 1.0935706261601186 0 0 0 0
18000001 0.19649144211347153 -0.005082988738018563 -6.619588893785724 1.1230351839496475 0 0 0 0
19000001 0.19569553191382133 -0.004569966167015021 -6.599308656273728 1.148968921801185 0 0 0 0
20000001 0.19584052310644784 -0.004377967284928344 -6.580691724908746 1.1735220663812647 0 0 0 0
21000001 0.19524025399917372 -0.004670993460550861 -6.564117306108697 1.2004612080877854 0 0 0 0
22000001 0.19500738558346384 -0.004866875734261628 -6.54055234208972 1.2317230717447676 0 0 0 0
23000001 0.19563256574523843 -0.00542520936017783 -6.525193876254851 1.2563669098141226 0 0 0 0
24000001 0.19524880532059094 -0.00612271989853215 -6.5082895476781895 1.2835370693924528 0 0 0 0
25000001 0.19424896951819556 -0.005233262601071298 -6.49478717917864 1.3088556739821187 0 0 0 0
26000001 0.19422207011075657 -0.005753564203466626 -6.480121386079136 1.3330787283211853 0 0 0 0
27000001 0.19396016232857044 -0.005602011699249753 -6.464695673000299 1.3601886593730872 0 0 0 0
28000001 0.1938053811890779 -0.005776770593651997 -6.445180515448723 1.3866989359862023 0 0 0 0
29000001 0.19384742024878598 -0.0058908434023103055 -6.4329442344863885 1.4187052073012545 0 0 0 0
30000001 0.19376927616393794 -0.005994965486857987 -6.414972150735085 1.44172304363047 0 0 0 0
31000001 0.1936146167352532 -0.006247798559009203 -6.404536610415833 1.4671424000160185 0 0 0 0
32000001 0.19350513498521818 -0.006731340423799745 -6.3934898914194855 1.4913398382780902 0 0 0 0
33000001 0.19303548671667256 -0.006623911765530101 -6.381788900593747 1.5180591277956461 0 0 0 0
34000001 0.19295123542117268 -0.0064887891643338564 -6.371754985373142 1.545539944339566 0 0 0 0
35000001 0.19276190870938156 -0.006837793485871917 -6.363454760201548 1.5718773493669547 0 0 0 0
36000001 0.19315983333250414 -0.006993269735598146 -6.352638137743387 1.6013547676226447 0 0 0 0
37000001 0.19268045120718247 -0.007383194343723066 -6.343694487508914 1.6297561301380221 0 0 0 0
38000001 0.1925339176350277 -0.007553032730575485 -6.334436858755809 1.6530440502832129 0 0 0 0
39000001 0.19250539031283792 -0.0076433604221224066 -6.325050409590037 1.6801186755957842 0 0 0 0
40000001 0.19376066683604026 -0.008444285067378567 -6.318234483074027 1.7075721151304533 0 0 0 0
41000001 0.19333066358532408 -0.008488383186530815 -6.314702604257426 1.7357935882958078 0 0 0 0
42000001 0.19279317625748574 -0.008697079872725534 -6.300195182967421 1.7570981475202767 0 0 0 0
43000001 0.19262691797403178 -0.00864955316356477 -6.2940918485575645 1.7834253670672373 0 0 0 0
44000001 0.19294207179684977 -0.00909095498556368 -6.287584981502985 1.8096870957160232 0 0 0 0
45000001 0.19262381423714436 -0.009290750600562413 -6.281662640067836 1.8362610599700857 0 0 0 0
46000001 0.19340742795803625 -0.010036591790024292 -6.276776511814405 1.8648971965148953 0 0 0 0
47000001 0.19281062135480015 -0.009936657469783111 -6.26683800567158 1.8868964057487478 0 0 0 0
48000001 0.19185749541716327 -0.01107107140262491 -6.252134616532832 1.9215945220262243 0 0 0 0
49000001 0.19291033655673223 -0.010000168372865458 -6.256854465508643 1.9397904071368814 0 0 0 0
50000001 0.19328931264829474 -0.010482399121429052 -6.245228696241564 1.9653141480555631 0 0 0 0
51000001 0.19305859281481874 -0.010745393906172521 -6.2409180330528855 1.990784435311428 0 0 0 0
52000001 0.19286336752326166 -0.010986758056745366 -6.238798640854202 2.018299509657314 0 0 0 0
53000001 0.19284533143630558 -0.011220879527187429 -6.232817408542815 2.0447842530746803 0 0 0 0
54000001 0.19306009452207543 -0.011275771886896336 -6.2262814282741585 2.0700501224028742 0 0 0 0
55000001 0.19325342866578574 -0.011443828906033132 -6.223296297305033 2.0964547331445664 0 0 0 0
56000001 0.19332378450737492 -0.011904406502095436 -6.218083290176795 2.123392756499718 0 0 0 0
57000001 0.193347338070501 -0.012425572615938768 -6.214073535989391 2.1456253241404415 0 0 0 0
58000001 0.193483763350381 -0.012766322285225208 -6.204882991228498 2.173536702028509 0 0 0 0
59000001 0.19388653692046096 -0.013564810609860166 -6.203299516641892 2.205199327828983 0 0 0 0
60000001 0.19367369494705675 -0.013592674600960619 -6.199725482100901 2.226352027171962 0 0 0 0
61000001 0.1935383743958697 -0.01383283071134915 -6.195833399195436 2.2532512267960847 0 0 0 0
62000001 0.19332868203715872 -0.014230221838919945 -6.193905175055981 2.2813372792595694 0 0 0 0
63000001 0.19327940309794947 -0.014311494250320439 -6.193420281889625 2.3086281089899017 0 0 0 0
64000001 0.1938854845091712 -0.014736688963620976 -6.212743700912531 2.3452894790898076 0 0 0 0
65000001 0.19263358920640553 -0.015131464686609544 -6.193413939049339 2.3657975314536377 0 0 0 0
66000001 0.193371561700901 -0.01527243618311589 -6.190043328348367 2.392622749981521 0 0 0 0
67000001 0.1934780118197756 -0.0158980980754783 -6.185196498948425 2.4221704331222087 0 0 0 0
68000001 0.1934362457845814 -0.01631043101840782 -6.182889301316951 2.449824525838487 0 0 0 0
69000001 0.19357275137189073 -0.01668754406921809 -6.180450891206996 2.4777027904909272 0 0 0 0
70000001 0.19359504939550937 -0.016968368227330357 -6.181298682909199 2.5074239615129796 0 0 0 0
71000001 0.19365321126009916 -0.01735791857562602 -6.180612022521782 2.5366620915042826 0 0 0 0
72000001 0.19371933383612633 -0.017683849056477102 -6.176730417931219 2.5661312236779557 0 0 0 0
73000001 0.19340620898524444 -0.017981745707446747 -6.1763424024178395 2.5999812894169407 0 0 0 0
74000001 0.19356808073470083 -0.018295422492373863 -6.175488677391722 2.629146212654785 0 0 0 0
75000001 0.19349676610119612 -0.018861325615569743 -6.179247225579627 2.6599238589535177 0 0 0 0
76000001 0.19386202961484963 -0.019341782773689305 -6.180448955530598 2.6874844442580987 0 0 0 0
77000001 0.19354386208277888 -0.02011981009793536 -6.1807531003936464 2.721716437248344 0 0 0 0
78000001 0.19341327673901085 -0.020351372785860355 -6.184531082603893 2.7567307671124404 0 0 0 0
79000001 0.19379808317412567 -0.021212178894357774 -6.185666698306218 2.7845803230783486 0 0 0 0
80000001 0.1936893179564044 -0.021926711758819446 -6.190013410219933 2.817934637020753 0 0 0 0
81000001 0.19375218408932438 -0.022843842098469846 -6.193855105811947 2.8456133178419165 0 0 0 0
82000001 0.19415339784084643 -0.023269348514511488 -6.1937526524605 2.879523605866007 0 0 0 0
83000001 0.19448731752231813 -0.024079285971777217 -6.193365418798247 2.909361514726689 0 0 0 0
84000001 0.19402021832121166 -0.02450237017896116 -6.1962401444583195 2.946759253660428 0 0 0 0
85000001 0.19370898222823257 -0.02461302213601598 -6.200312212827718 2.980691605981776 0 0 0 0
86000001 0.19327205715515997 -0.026221958144716666 -6.191267335537331 3.0236014837391503 0 0 0 0
87000001 0.1937892502944695 -0.02574544161986935 -6.203058722196924 3.04965324462178 0 0 0 0
88000001 0.194059721185108 -0.026932740043313207 -6.209808433660823 3.0944752003229894 0 0 0 0
89000001 0.19368182335857262 -0.026717287125636372 -6.21395213200494 3.120490326406118 0 0 0 0
90000001 0.19374376108736857 -0.027146874039847297 -6.217709435450289 3.154926793043865 0 0 0 0
91000001 0.19370443890517342 -0.027611010493223394 -6.217058994902559 3.1837629508495833 0 0 0 0
92000001 0.19339018483912462 -0.028321273779229897 -6.221663491520253 3.225403237169028 0 0 0 0
93000001 0.19351405835006513 -0.029045597597298963 -6.2290040988716715 3.259079627992962 0 0 0 0
94000001 0.19373363291996687 -0.029213461344880166 -6.229007480863606 3.298773916398405 0 0 0 0
95000001 0.19290345365344336 -0.02980044867475645 -6.229870773824493 3.3383869773978403 0 0 0 0
96000001 0.19327808912702416 -0.030430608152228037 -6.236432080531185 3.3801528031507417 0 0 0 0
97000001 0.19314035278454708 -0.030572037729733926 -6.235959352210599 3.4129401603403777 0 0 0 0
98000001 0.19303042109933888 -0.03127552116641876 -6.236089261830188 3.4525350452376022 0 0 0 0
99000001 0.19257001691685377 -0.03152687505210913 -6.2412002648561815 3.4950443567696317 0 0 0 0
100000001 0.19231216788034755 -0.03185185331150924 -6.243101152706299 3.5367449153953867 0 0 0 0
