# HZ S RI R 50
1 0.9519522276177558 0.5265501928171584 -0.31329623464978973 -0.27921511452879594 0 0 0 0
1000001 0.42931406198412336 0.001519024990691325 -5.352898441662206 1.472816509069025 0 0 0 0
2000001 0.4351717472336772 -0.00046774739305648836 -5.32036929736382 1.424621966669933 0 0 0 0
3000001 0.43115001692568156 -0.0005205040325682195 -5.295605007971001 1.4657054050105744 0 0 0 0
4000001 0.43169233840384624 -0.0030204180411083264 -5.265463395558724 1.458256511139078 0 0 0 0
5000001 0.42894908247225133 -0.008368328783272955 -5.262080634402912 1.4498834472742488 0 0 0 0
6000001 0.4315041010277501 -0.007511382263801186 -5.222146321159451 1.4799412255450166 0 0 0 0
7000001 0.43124671502108136 -0.00697790619350247 -5.199734007766267 1.481467454943205 0 0 0 0
8000001 0.42829899499684543 -0.006943510391279405 -5.1664168875449885 1.499614482787445 0 0 0 0
9000001 0.42842865628740756 -0.004796364244963419 -5.12563426135503 1.5021662351968355 0 0 0 0
10000001 0.4319638763617837 -0.007299224920391838 -5.091124664154314 1.514758382302006 0 0 0 0
11000001 0.42533658885660314 -0.009064539685305809 -5.073455508295924 1.4932823458448143 0 0 0 0
12000001 0.42878665874060456 -0.009471829311326833 -5.049086292190879 1.5174387416564228 0 0 0 0
13000001 0.4274507631750638 -0.013770633148188658 -5.002473745702894 1.50780568628601 0 0 0 0
14000001 0.4293389049523949 -0.012639344367933545 -4.974959170529591 1.5157975253982887 0 0 0 0
15000001 0.4273384869062267 -0.010586535931537048 -4.959166471657073 1.5210506573520697 0 0 0 0
16000001 0.42854174925442795 -0.011441146876293516 -4.929018741851008 1.531918772233679 0 0 0 0
17000001 0.4305021565386339 -0.012363924906019 -4.908109121477426 1.5420333456674038 0 0 0 0
18000001 0.42651686599289296 -0.014422654527888407 -4.892008799165039 1.5409009874814874 0 0 0 0
19000001 0.4246052707680977 -0.013308321046142144 -4.866274152081744 1.5392207677871759 0 0 0 0
20000001 0.42468974341582144 -0.01352355369286119 -4.843798886390072 1.5405156673129086 0 0 0 0
21000001 0.4241342010448285 -0.01407035724699723 -4.820714104090539 1.5410045036254765 0 0 0 0
22000001 0.4237451043644906 -0.014577323549217754 -4.797262664076928 1.5465854398516707 0 0 0 0
23000001 0.4210786218914544 -0.030297440434566707 -4.749743911528632 1.5005117263227565 0 0 0 0
24000001 0.423095471630831 -0.020662879399229044 -4.75149452482486 1.5393951466507219 0 0 0 0
25000001 0.4228668184676479 -0.0165841387950948 -4.736868218964751 1.5495241311027619 0 0 0 0
26000001 0.4225893786196198 -0.017715738420155103 -4.718468168884305 1.5454850755310232 0 0 0 0
27000001 0.42201944286496246 -0.017450717000643483 -4.701169177019168 1.5510746357324563 0 0 0 0
28000001 0.42154567870501913 -0.018113504581213392 -4.682933759682115 1.5515835557915938 0 0 0 0
29000001 0.4216255615577739 -0.0189453746445714 -4.6642834634497365 1.5552278470735845 0 0 0 0
30000001 0.4211615956543782 -0.019325361444929866 -4.647507994046413 1.5528484733731207 0 0 0 0
31000001 0.4206525459679583 -0.020108072319675298 -4.631760541187712 1.5522650380480534 0 0 0 0
32000001 0.42029163234994105 -0.021299926012596972 -4.619494588893191 1.5486334296433033 0 0 0 0
33000001 0.42011168654190395 -0.021447762531051066 -4.601822204752959 1.5502902057633103 0 0 0 0
34000001 0.41973895048936355 -0.0217405367723773 -4.5901223608527735 1.550774507625783 0 0 0 0
35000001 0.4194949383390316 -0.02272189977318934 -4.576506477246097 1.550111094497928 0 0 0 0
36000001 0.41927070035648273 -0.02323065919995131 -4.564341180370046 1.550443207180722 0 0 0 0
37000001 0.4190896952224967 -0.024166499933586907 -4.550719635647837 1.5519680640193205 0 0 0 0
38000001 0.4185054183462972 -0.024795324589868797 -4.539834809945681 1.5482031994824035 0 0 0 0
39000001 0.41843966884876804 -0.025601184762499896 -4.527535923694988 1.5492719684058498 0 0 0 0
40000001 0.42063489591590636 -0.027322468383462497 -4.521315899114058 1.5537108816497667 0 0 0 0
41000001 0.4202135975934309 -0.027920363608396854 -4.516086021306759 1.5530681554347534 0 0 0 0
42000001 0.4179487842379257 -0.027868918440844933 -4.499706568602703 1.5436889098265372 0 0 0 0
43000001 0.4175452900652962 -0.028438177394738078 -4.494284168188652 1.5428268028681051 0 0 0 0
44000001 0.41772360225047955 -0.02937939669255888 -4.485587203488061 1.5414693471328196 0 0 0 0
45000001 0.4170642888621406 -0.030216415527900935 -4.479429150840796 1.5392075572861637 0 0 0 0
46000001 0.4187124936503945 -0.031986944481035076 -4.475933176045632 1.5452549600109167 0 0 0 0
47000001 0.41697021070148244 -0.0316215604051776 -4.469199711715369 1.5371317361804522 0 0 0 0
48000001 0.41399480723259374 -0.03532489625132265 -4.449676508275804 1.5460468296781158 0 0 0 0
49000001 0.4164697203680638 -0.032762048463323694 -4.45926033769034 1.534851622634234 0 0 0 0
50000001 0.4165754090499472 -0.03340003093028429 -4.453451269503928 1.5339070941860078 0 0 0 0
51000001 0.41615803239767335 -0.03432297624104797 -4.4503531042382285 1.5349345155075667 0 0 0 0
52000001 0.4155767725139438 -0.03518187019293588 -4.448280956644088 1.53300129424476 0 0 0 0
53000001 0.4153166083765021 -0.035866838156364045 -4.44974779929203 1.5319175395615547 0 0 0 0
54000001 0.4153722431490809 -0.03636865732169061 -4.449787873446464 1.5307968377288068 0 0 0 0
55000001 0.4153346949236259 -0.03723085765402126 -4.450515298933206 1.529740525726389 0 0 0 0
56000001 0.41534134491838615 -0.03805606715643877 -4.450359832760168 1.5307435029777283 0 0 0 0
57000001 0.4147402576121601 -0.038788329399685684 -4.453605282982858 1.5308926182902596 0 0 0 0
58000001 0.41458542984175484 -0.03974985476074946 -4.455982139176326 1.5309025655265023 0 0 0 0
59000001 0.41531013519057997 -0.04211759218823093 -4.458845595818225 1.5385572102479483 0 0 0 0
60000001 0.4140669140970401 -0.04159743601609515 -4.46252527619468 1.5314829593716621 0 0 0 0
61000001 0.41410970220525206 -0.04209967164867836 -4.465832083124705 1.532648378392677 0 0 0 0
62000001 0.41389847630292964 -0.04291275722374472 -4.471375392276541 1.5325942488081667 0 0 0 0
63000001 0.4135319421968197 -0.043477173592906 -4.478954690586678 1.5357932106284995 0 0 0 0
64000001 0.41289657463559387 -0.04461318345708 -4.472846479820617 1.529054236433859 0 0 0 0
65000001 0.4135744761868178 -0.04525231005716768 -4.492282153677462 1.5383399681691632 0 0 0 0
66000001 0.41295948974983954 -0.045716837176548564 -4.503633943286586 1.5422085595228185 0 0 0 0
67000001 0.4128753135155938 -0.04713364237528074 -4.510828330389111 1.543490700366389 0 0 0 0
68000001 0.412325058600386 -0.048013244034530424 -4.521341256381748 1.5473632124462757 0 0 0 0
69000001 0.4120885727345162 -0.04852066419464494 -4.5307455228212845 1.5538290569659696 0 0 0 0
70000001 0.41217730271236647 -0.04933092637116251 -4.542997830510053 1.557436236980587 0 0 0 0
71000001 0.41162521689519965 -0.049920275410237185 -4.5547402248046716 1.5644941452188241 0 0 0 0
72000001 0.41178343261514844 -0.051057670459738295 -4.5668049508890745 1.568900619477752 0 0 0 0
73000001 0.4113860910749725 -0.05198917382023947 -4.578807369080749 1.5753122236947015 0 0 0 0
74000001 0.41110671129121806 -0.05238407866908796 -4.59203274872252 1.5847312711215333 0 0 0 0
75000001 0.410924423772911 -0.053519583262492176 -4.608679466898789 1.5916797629446 0 0 0 0
76000001 0.41075170913900455 -0.05452143791244306 -4.624436598054609 1.5966819211917866 0 0 0 0
77000001 0.4101318224513768 -0.05558300149516196 -4.641775342357492 1.6066115299690933 0 0 0 0
78000001 0.3991892704489694 -0.056489749270364334 -4.694445514088427 1.6358977559430596 0 0 0 0
79000001 0.4100976731557144 -0.05765391530657831 -4.675920111664448 1.6240076542862691 0 0 0 0
80000001 0.40580528320503806 -0.06133213491428512 -4.713918023004539 1.6336518494544428 0 0 0 0
81000001 0.40905798676868405 -0.06015444500573519 -4.719110526091219 1.6452781071346363 0 0 0 0
82000001 0.409206871062749 -0.06095731956561354 -4.7346154461901095 1.656527873817995 0 0 0 0
83000001 0.4001650545708598 -0.05761877317794016 -4.771347064157305 1.699016976203316 0 0 0 0
84000001 0.4011781373228263 -0.07056961004095719 -4.811342876093792 1.6741085052129714 0 0 0 0
85000001 0.40839891740299783 -0.06366150085287307 -4.794388296101958 1.6976943451955535 0 0 0 0
86000001 0.40636378929226796 -0.06763585024236336 -4.801977447115732 1.7223906092059882 0 0 0 0
87000001 0.4080196439851818 -0.06573458245058955 -4.840131433521709 1.7294690571282634 0 0 0 0
88000001 0.40842965798103953 -0.06859564127836089 -4.863093687854436 1.7545878375299466 0 0 0 0
89000001 0.40758054157077334 -0.06693376646137066 -4.88280218109929 1.762738187159449 0 0 0 0
90000001 0.4072910740089317 -0.0682778877934579 -4.907097789232149 1.7809840540672384 0 0 0 0
91000001 0.40723362405765995 -0.06951304907789346 -4.9286913758178486 1.7895301636166883 0 0 0 0
92000001 0.40678511690069147 -0.07041810126182454 -4.955032725309863 1.8107573094069036 0 0 0 0
93000001 0.40610233374481114 -0.07113577240082113 -4.981604468832692 1.8316675241748652 0 0 0 0
94000001 0.4065227529577494 -0.07195086405085492 -5.004305189924591 1.8554494730495583 0 0 0 0
95000001 0.40570559623192026 -0.07330747017623206 -5.029377801062249 1.87633023947408 0 0 0 0
96000001 0.4070403560021182 -0.07475034370655613 -5.059235842564025 1.9044727761185976 0 0 0 0
97000001 0.4048262579100496 -0.07450429406030738 -5.077443874104267 1.9241457183730297 0 0 0 0
98000001 0.40446995571077654 -0.07556788581858472 -5.0998295924911705 1.9509206316472731 0 0 0 0
99000001 0.4039869914758797 -0.07645917567412058 -5.12826739341596 1.9759839084005524 0 0 0 0
100000001 0.4036354298681906 -0.07790455124420978 -5.155905376857518 2.001408549274484 0 0 0 0
