# HZ S RI R 50
1 0.7016032306861375 0.23565244226517276 -0.3450103849178223 -0.7807113575923701 0 0 0 0
1000001 0.5922687944145969 -0.001760170027386929 -3.862857700479732 1.4911137637236211 0 0 0 0
2000001 0.5894171523344565 -0.00189155759972268 -3.855765023689064 1.4396519141155977 0 0 0 0
3000001 0.5837483811869295 -0.0017196343084390432 -3.8256031152604937 1.4817131736550893 0 0 0 0
4000001 0.5838872707498657 -0.004050388359363672 -3.7975799819612646 1.4707385128210022 0 0 0 0
5000001 0.5807236459434975 -0.010118616042922 -3.7916021875304713 1.4519024242406007 0 0 0 0
6000001 0.5875979972001799 -0.012146120812191474 -3.7397775668813904 1.488505113601213 0 0 0 0
7000001 0.5850099101952825 -0.008821853795239556 -3.722744405588522 1.4816262869930437 0 0 0 0
8000001 0.5817740446840721 -0.00943015588313868 -3.687082312569338 1.4929589479883572 0 0 0 0
9000001 0.5806450196245134 -0.006897997543078031 -3.646923044360562 1.4883073755801357 0 0 0 0
10000001 0.5839097787188301 -0.009837335745060861 -3.6132116267758962 1.4932303317308373 0 0 0 0
11000001 0.5811798950201401 -0.009511325104636299 -3.5911692664373716 1.4839984992170194 0 0 0 0
12000001 0.5817429265254911 -0.012585745751960762 -3.5642128421162864 1.490172335672072 0 0 0 0
13000001 0.5815807021993962 -0.0121425168502465 -3.530850675358986 1.4886270617300876 0 0 0 0
14000001 0.5811637655649442 -0.013453369224305312 -3.4985332744933664 1.4799118142138814 0 0 0 0
15000001 0.5793990892513864 -0.013538006544188868 -3.47316417890437 1.4752608269576821 0 0 0 0
16000001 0.5802957928057784 -0.014318583049848739 -3.4450798740096342 1.4797084531455074 0 0 0 0
17000001 0.5824349826278223 -0.01846661408097038 -3.416805754704829 1.4780745516071725 0 0 0 0
18000001 0.579066660810538 -0.01857043025968073 -3.4000182101959466 1.4790320590357506 0 0 0 0
19000001 0.5767840263289312 -0.017409529175269424 -3.372547323709264 1.4713654352060794 0 0 0 0
20000001 0.5771041133753204 -0.01729962105740068 -3.3490178811455347 1.465496041564035 0 0 0 0
21000001 0.5764770614632344 -0.01807043910478073 -3.3258635237951304 1.461357439913321 0 0 0 0
22000001 0.5759579228622638 -0.019190450759530853 -3.298918071917128 1.4565300353905166 0 0 0 0
23000001 0.5777015131413505 -0.021278562150299628 -3.2743270630856394 1.4506770640107456 0 0 0 0
24000001 0.5772352823506972 -0.023235115208703236 -3.254470131798833 1.4483469417002963 0 0 0 0
25000001 0.5750639066308658 -0.021398193012533446 -3.2365433009441573 1.4405923675720183 0 0 0 0
26000001 0.5748016115653286 -0.022957692886316775 -3.2176456264774873 1.4300001876437496 0 0 0 0
27000001 0.5744288170912425 -0.022877238667780013 -3.195521961129321 1.4273991907074541 0 0 0 0
28000001 0.5743498946076738 -0.0238791334692837 -3.17563995408008 1.4210896911647404 0 0 0 0
29000001 0.5739605361534025 -0.024640066996329087 -3.1576480147549937 1.4150260273907853 0 0 0 0
30000001 0.5735358084422945 -0.025341498346930807 -3.13883343550346 1.4047417277678462 0 0 0 0
31000001 0.573349410071153 -0.026485243794682128 -3.12036077305642 1.3948715191348846 0 0 0 0
32000001 0.5726363150942481 -0.02780312692957427 -3.108096366823216 1.383079239857063 0 0 0 0
33000001 0.5724559505169994 -0.02815432292728287 -3.0900274228446687 1.375714077162589 0 0 0 0
34000001 0.5720692092811938 -0.028892524692929238 -3.0766965492364786 1.366538509787146 0 0 0 0
35000001 0.5716553571072932 -0.030163562287166983 -3.0621110478735587 1.354977222810101 0 0 0 0
36000001 0.5717388981105891 -0.03082775434372694 -3.0474048162339455 1.3469981986743216 0 0 0 0
37000001 0.5715937596482744 -0.03193537001390089 -3.0346894984659594 1.3365142651213082 0 0 0 0
38000001 0.570924487946046 -0.03308108748582612 -3.0223519021774132 1.3243281606158481 0 0 0 0
39000001 0.5707009581115203 -0.033798640444861555 -3.012253255656331 1.313266571890602 0 0 0 0
40000001 0.5742226710627208 -0.03707352785113752 -3.0048142948546808 1.3074849202119982 0 0 0 0
41000001 0.5734526034774279 -0.03759642182662268 -2.99643858583007 1.2957146264018125 0 0 0 0
42000001 0.5702469472568084 -0.03723243456204076 -2.982748784726426 1.278107915148799 0 0 0 0
43000001 0.5699956992875811 -0.0382997215272642 -2.975127904390552 1.2667408006679712 0 0 0 0
44000001 0.5697670460540222 -0.03940738543561791 -2.9662191324491545 1.2538305341782554 0 0 0 0
45000001 0.5694640906407326 -0.04047817990769803 -2.9611329394693118 1.2419677527101585 0 0 0 0
46000001 0.571937527060454 -0.04348571803800537 -2.9572537297191497 1.23644076292686 0 0 0 0
47000001 0.5690583924983302 -0.04262722680988161 -2.9517134205562976 1.2177677416595072 0 0 0 0
48000001 0.56437672011904 -0.04826164356772159 -2.9348932028107146 1.2134209218231893 0 0 0 0
49000001 0.5685911447002111 -0.044394287377271725 -2.943015897537377 1.1935609292933809 0 0 0 0
50000001 0.5685600937348182 -0.04537702302460252 -2.9396600688767105 1.1816584650426107 0 0 0 0
51000001 0.5680402288952547 -0.04678788147543451 -2.936685390378324 1.1689255679639379 0 0 0 0
52000001 0.5676144273844772 -0.04786142807646113 -2.9353179753406264 1.157645441073131 0 0 0 0
53000001 0.567378169530185 -0.04874449513954664 -2.9359608408943325 1.1443797079800548 0 0 0 0
54000001 0.5672911043491229 -0.04966777923671137 -2.9360140752779174 1.1331307122633634 0 0 0 0
55000001 0.5673461724254255 -0.050638849709885664 -2.9370828626479684 1.1200359733365084 0 0 0 0
56000001 0.567042501712411 -0.05192804480829685 -2.9392306700991098 1.1082370091055354 0 0 0 0
57000001 0.5669115694798409 -0.05300820114670647 -2.9426690904047295 1.0965127300731377 0 0 0 0
58000001 0.5662522770329574 -0.05441421290550369 -2.9467132159567244 1.085229220453105 0 0 0 0
59000001 0.5669139327221453 -0.05819488320186271 -2.9538573860086124 1.0795578232665346 0 0 0 0
60000001 0.5655824683802245 -0.05681775419791632 -2.957064594761722 1.06098264178055 0 0 0 0
61000001 0.565204986926263 -0.057587836556632854 -2.963623766609028 1.0515092238537715 0 0 0 0
62000001 0.5651808791663203 -0.05882095761911796 -2.9711542896272274 1.0395747743129786 0 0 0 0
63000001 0.5644583684721904 -0.05993370416684787 -2.979573587611319 1.0288643004262201 0 0 0 0
64000001 0.5614055626343601 -0.06697811924429153 -2.9944637434137853 1.000588114658324 0 0 0 0
65000001 0.5649895250570262 -0.06250783771054505 -2.996622786288458 1.0081863287479862 0 0 0 0
66000001 0.5637165027485337 -0.06315321290772065 -3.0108782462545443 0.999635832319587 0 0 0 0
67000001 0.5634860032496273 -0.0645959802519437 -3.022290484863605 0.9900538812261411 0 0 0 0
68000001 0.5629423564423129 -0.0658670524108421 -3.0352021639946383 0.9802698917905526 0 0 0 0
69000001 0.562628111343183 -0.06715925847215763 -3.0471250043860945 0.9721548259790737 0 0 0 0
70000001 0.5621484139205308 -0.06799629681252256 -3.063110407147585 0.9646235419410074 0 0 0 0
71000001 0.5620258185128465 -0.06948115805838462 -3.0772497064932316 0.9560231075378377 0 0 0 0
72000001 0.5614441038890242 -0.07038794199794347 -3.092343632155024 0.95063175690627 0 0 0 0
73000001 0.5612755708458955 -0.07159402510099741 -3.1082861895857588 0.9455198078485338 0 0 0 0
74000001 0.5609815956640779 -0.07280792204592032 -3.12409711695343 0.939289894368674 0 0 0 0
75000001 0.5609083799859658 -0.07397005785092851 -3.143058663447094 0.934487031154809 0 0 0 0
76000001 0.5603522204049071 -0.07508001227589366 -3.1616689698938627 0.9282889645188706 0 0 0 0
77000001 0.5598011272508265 -0.07651861004546963 -3.1809174896875496 0.9254982689436808 0 0 0 0
78000001 0.559795744084765 -0.0775852578616012 -3.1988851299685956 0.9216575533118557 0 0 0 0
79000001 0.5595317565263667 -0.07949398093462447 -3.223190302808246 0.9159069479463822 0 0 0 0
80000001 0.5589673771211204 -0.08105760454225895 -3.2480544036513894 0.9118844943620082 0 0 0 0
81000001 0.5584466234782519 -0.08267212208140792 -3.273025388807156 0.9081424035761064 0 0 0 0
82000001 0.5584322928218423 -0.08387651771061676 -3.29320212543313 0.9074224786878042 0 0 0 0
83000001 0.558838765319753 -0.08582395549375561 -3.3133160387711413 0.9022098217605659 0 0 0 0
84000001 0.5581072386572145 -0.0867793625588144 -3.33635058958831 0.9068595616886792 0 0 0 0
85000001 0.5570870927851272 -0.08719538101728379 -3.3650962736267824 0.9140300456669886 0 0 0 0
86000001 0.5535477079893589 -0.09296477969027772 -3.3755616183563695 0.9259372509797552 0 0 0 0
87000001 0.5564583025524422 -0.09001923402152612 -3.417485244332258 0.918527746201648 0 0 0 0
88000001 0.5571430084240403 -0.09473590261208477 -3.4476330851932047 0.9300643295449936 0 0 0 0
89000001 0.5558441054773325 -0.09239457398254572 -3.474143349137548 0.925924046090654 0 0 0 0
90000001 0.555582663471311 -0.09376671652375257 -3.50211323673214 0.9320329456778372 0 0 0 0
91000001 0.555079337462902 -0.09529089809753255 -3.529097712864789 0.9316707745903717 0 0 0 0
92000001 0.5543321079853069 -0.09630878132823353 -3.559104163611902 0.9423381242574448 0 0 0 0
93000001 0.5540141104446914 -0.0975426722543512 -3.5886729414552723 0.9472506687256917 0 0 0 0
94000001 0.5543515215781771 -0.09893079004906624 -3.618472109699306 0.957027271235863 0 0 0 0
95000001 0.5530909731218976 -0.10046973460282754 -3.65078846396906 0.9662215611487236 0 0 0 0
96000001 0.5551306606683102 -0.10285785235139856 -3.685588260745143 0.9789936094979296 0 0 0 0
97000001 0.5521645998761535 -0.1026904338793575 -3.7125814176356613 0.9879952798470837 0 0 0 0
98000001 0.5515208402734733 -0.10386142935398411 -3.7434362267596435 1.0025180565170804 0 0 0 0
99000001 0.551102880310417 -0.10526917849809429 -3.776749103118525 1.0140295790888345 0 0 0 0
100000001 0.5507785048751341 -0.1065974168158593 -3.8092427008346768 1.0275326372667308 0 0 0 0
