# HZ S RI R 50
1 0.6984818968471985 0.056777859600961114 -0.08671108526506863 -0.053861468625762216 0 0 0 0
1000001 -0.008760945370412701 8.508958832098623e-05 0.07790336191906828 -0.32829233669880253 0 0 0 0
2000001 -0.0073330616060671705 -0.0011754585284131764 -0.1393516275153538 -0.9285141816130192 0 0 0 0
3000001 -0.006367721825546174 -0.002320903366591185 -0.8399904939299369 -1.2716752173832095 0 0 0 0
4000001 -0.008389561203316768 -0.0008328251886673023 -1.6392511088913386 -1.0824191683133904 0 0 0 0
5000001 -0.008055982512523341 -0.0007847490334490532 -2.2198172213197798 -0.46113338834510087 0 0 0 0
6000001 -0.007519705655489769 -0.0013477115411798803 -2.2619062994542976 0.21703491231599487 0 0 0 0
7000001 -0.007475276096325427 -0.0019284335463185022 -1.7803242902483514 0.7372900408307497 0 0 0 0
8000001 -0.009562784887691949 -0.0023280438349753216 -1.6320220638778231 1.4804924957171257 0 0 0 0
9000001 -0.007133407035430893 -0.0008144674428785692 -1.2357300095254595 1.5128635454937749 0 0 0 0
10000001 -0.005691588599305169 -0.005807971945993172 -0.8049009595015926 1.084305961738368 0 0 0 0
11000001 -0.005791704537667475 -0.0034414909064907134 -0.6955206277381337 1.1258920957668488 0 0 0 0
12000001 -0.006562984213042754 -0.006314737999161249 -0.3371669188764804 1.3833723225761854 0 0 0 0
13000001 -0.005711908110956829 -0.005446945039945705 0.022971856413469643 1.3072553959286772 0 0 0 0
14000001 -0.005585121100230384 -0.005827245376920536 0.5228398165053635 1.1498332285980297 0 0 0 0
15000001 -0.005744111777171184 -0.006619531270413978 0.45222680689795197 0.923310254789448 0 0 0 0
16000001 -0.006308174673395693 -0.00700750908221428 0.8435573040239963 0.6847453327864701 0 0 0 0
17000001 -0.00657133366113044 -0.007871599036835894 0.9621521955506658 0.41732196551504175 0 0 0 0
18000001 -0.006193854856454349 -0.008055813957909897 0.9734143656372549 0.32082860994148554 0 0 0 0
19000001 -0.005519166585164426 -0.009841799013013151 0.9822779316613297 0.3185889268341298 0 0 0 0
20000001 -0.005194256827868809 -0.010525035379040563 1.0575621875909416 0.25493816224441157 0 0 0 0
21000001 -0.0060848603666960425 -0.011706810994574417 1.139980025828737 0.09146776615694016 0 0 0 0
22000001 -0.006791986713575836 -0.01234269552664957 1.1882850575540589 -0.05602871924276786 0 0 0 0
23000001 -0.0074927090269038535 -0.01298007246647485 1.1881069761909429 -0.17128838731434393 0 0 0 0
24000001 -0.008593892123386376 -0.012791534087502353 1.1388324416405315 -0.4014268422276631 0 0 0 0
25000001 -0.009764448527293901 -0.012549423145005312 1.0349752234132403 -0.6141473368826795 0 0 0 0
26000001 -0.010898171674981121 -0.011536880873357254 0.8864032530781577 -0.7857295368152378 0 0 0 0
27000001 -0.011681971900116599 -0.009726651495918741 0.7105826389836407 -0.9129870257316577 0 0 0 0
28000001 -0.01245814062381913 -0.007612608838085573 0.5131349468591684 -0.9991564743803893 0 0 0 0
29000001 -0.011883146262073077 -0.004000411693924976 0.2571418570151732 -1.0318779769360307 0 0 0 0
30000001 -0.009709211736808108 -0.0001228310263009369 -0.0347366835016618 -0.9636895598641697 0 0 0 0
31000001 -0.006473637990764281 0.0037293421208836035 -0.3049912504597613 -0.7911669733742777 0 0 0 0
32000001 -0.0009466005492183006 0.007306820390542073 -0.47304880826899387 -0.5578434438632642 0 0 0 0
33000001 0.006731204266402542 0.009311116898549876 -0.5247595578218922 -0.33275826006250175 0 0 0 0
34000001 0.015428156756511855 0.008808147455080196 -0.5150164951097395 -0.16362899899772818 0 0 0 0
35000001 0.02488492467578547 0.004850639022091164 -0.474574437935724 -0.03430699764867051 0 0 0 0
36000001 0.033564336234959226 -0.0023043570036955672 -0.41220901378809977 0.06697593235878682 0 0 0 0
37000001 0.039562533933420733 -0.012999787104802818 -0.35468618009953984 0.13452380731675162 0 0 0 0
38000001 0.04187520304103624 -0.02595798888698931 -0.2978844539111329 0.18153558095363131 0 0 0 0
39000001 0.03890596799706755 -0.039138293324954575 -0.24293071199535496 0.21761598063777468 0 0 0 0
40000001 0.031422846014008646 -0.051235732201617694 -0.1852494226092608 0.24350032551024237 0 0 0 0
41000001 0.019452735833437124 -0.058495856849318364 -0.12665948590388865 0.25756475872355006 0 0 0 0
42000001 0.005254959877344025 -0.060066771511591795 -0.06925615603779281 0.25917104625637477 0 0 0 0
43000001 -0.008525721845113602 -0.05547911801879276 -0.01698374903574717 0.2515820259783355 0 0 0 0
44000001 -0.017991921555502482 -0.045016208571457675 0.030345723894572147 0.23725872572636553 0 0 0 0
45000001 -0.022011284036279437 -0.030684031331684763 0.0699736329793886 0.21610028785427016 0 0 0 0
46000001 -0.018783563805614863 -0.016078252620097627 0.10457348767220137 0.18877549936827923 0 0 0 0
47000001 -0.00847808765686175 -0.004805759035014167 0.13034827108132388 0.15766496248193787 0 0 0 0
48000001 0.005828116386535428 0.00157973359421639 0.14749147401891227 0.1250052102907455 0 0 0 0
49000001 0.02204745451207316 0.000608378845246603 0.15955414574693233 0.09406009066794434 0 0 0 0
50000001 0.03639946807223957 -0.006445637844940453 0.16520457598022925 0.06283700755586612 0 0 0 0
51000001 0.04624197432282781 -0.018281610452159293 0.16804178188686048 0.03549124530332389 0 0 0 0
52000001 0.05107955189998796 -0.03215499207159201 0.16805984316053676 0.008454112289809825 0 0 0 0
53000001 0.051479295286418786 -0.04593244984513035 0.1674153884862586 -0.01778968864286087 0 0 0 0
54000001 0.047872847144995775 -0.0575978926793609 0.1615867926282068 -0.04450391979025248 0 0 0 0
55000001 0.04221447830603705 -0.06661826129784536 0.15339950083140183 -0.07137761328053258 0 0 0 0
56000001 0.035564650584724834 -0.07310332375941539 0.13956378209310447 -0.09645137452173891 0 0 0 0
57000001 0.029519693280185076 -0.07757984004043192 0.11860808957075616 -0.12036790585183027 0 0 0 0
58000001 0.024248702481119287 -0.08044693648420821 0.09353644353368035 -0.13869615361616486 0 0 0 0
59000001 0.019554219995389303 -0.08314381794446282 0.0658166540282019 -0.1498619071639726 0 0 0 0
60000001 0.01629207166458872 -0.08557467840292216 0.038713936139661675 -0.15384104780450394 0 0 0 0
61000001 0.012820523173110922 -0.08810213504716942 0.014891149869722786 -0.15332760898072395 0 0 0 0
62000001 0.00942377199897538 -0.09141963084833427 -0.007665707881225415 -0.1507110679993845 0 0 0 0
63000001 0.0053522135258945195 -0.09479904641587804 -0.02839199222795366 -0.14689429611047966 0 0 0 0
64000001 0.00032915824002329006 -0.09815847252894568 -0.05032854216321109 -0.13900416447760616 0 0 0 0
65000001 -0.005472592715009095 -0.10121722963316535 -0.06949938189263473 -0.12894957477232732 0 0 0 0
66000001 -0.011672933088619076 -0.1031109189025731 -0.09118035993262832 -0.1164896408156207 0 0 0 0
67000001 -0.01844580189751723 -0.10434433805080676 -0.10649123871460224 -0.09992473044995479 0 0 0 0
68000001 -0.02568297402219 -0.10411176225973173 -0.11939301444974743 -0.0803165812580384 0 0 0 0
69000001 -0.0326268371908799 -0.10252638211682054 -0.1306686555282972 -0.055780999801562606 0 0 0 0
70000001 -0.03885768117448257 -0.0999663670604138 -0.1333995491502673 -0.029321033177304792 0 0 0 0
71000001 -0.044426308999335265 -0.09633919793053959 -0.12835379478179662 -0.0025025095543084333 0 0 0 0
72000001 -0.049141024638553174 -0.09254766259685213 -0.11749316217210469 0.015799929843405017 0 0 0 0
73000001 -0.05307035328836232 -0.08781451179835134 -0.09754883023234318 0.03213205291247135 0 0 0 0
74000001 -0.05568022981469024 -0.08295982990166778 -0.08597994202198875 0.04353752394329815 0 0 0 0
75000001 -0.05767361664801787 -0.07811936807400285 -0.07164920256039466 0.04997615167682823 0 0 0 0
76000001 -0.05855825121110584 -0.07326771092972012 -0.06247907322946267 0.052360849939583745 0 0 0 0
77000001 -0.05888533430043278 -0.0688918463393815 -0.053060200840413914 0.05341638675726952 0 0 0 0
78000001 -0.058492372282976504 -0.06452141397084502 -0.04645441966278036 0.05404929149474924 0 0 0 0
79000001 -0.057226271637186424 -0.060983716121587664 -0.0395682454415183 0.05402483662573733 0 0 0 0
80000001 -0.05569773402112829 -0.05736860430665167 -0.03597596326886507 0.05267036806655947 0 0 0 0
81000001 -0.05387616365822855 -0.054725544171335884 -0.03308505592663982 0.05020857131553621 0 0 0 0
82000001 -0.052093433190859274 -0.05275984351330904 -0.032806711439594995 0.047671796171896076 0 0 0 0
83000001 -0.04992447363856077 -0.05091511413968735 -0.03562895003405153 0.04322847131625186 0 0 0 0
84000001 -0.04830569591106263 -0.050044487526449896 -0.04418441582016967 0.04128115806853254 0 0 0 0
85000001 -0.045789238114542934 -0.04887036242534823 -0.05375686344120995 0.03836033464107403 0 0 0 0
86000001 -0.04381443461317258 -0.04803873799202298 -0.0688585262046145 0.036183121284436896 0 0 0 0
87000001 -0.041724288971392215 -0.04876961068006915 -0.09726486433346551 0.035161206092175816 0 0 0 0
88000001 -0.04024496222681429 -0.04827804812190361 -0.13101303123395927 0.04917114535754474 0 0 0 0
89000001 -0.038419106581213815 -0.04915215376359887 -0.15733617722740353 0.08205984010697029 0 0 0 0
90000001 -0.0370424305552108 -0.04968181522651987 -0.18365382910000105 0.12032522025531726 0 0 0 0
91000001 -0.03630044804488163 -0.050134755072708724 -0.17603215516527101 0.1922470673777389 0 0 0 0
92000001 -0.035380375507200225 -0.050959164995771515 -0.11374907974599222 0.2590594216565151 0 0 0 0
93000001 -0.034698050195387235 -0.051699583327153076 -0.04412681869958055 0.2679383415899585 0 0 0 0
94000001 -0.03378685173750561 -0.05230419201279576 0.01637726190831784 0.2757026763251536 0 0 0 0
95000001 -0.0332888587152588 -0.052946102644153656 0.09376067434088596 0.2476143489227531 0 0 0 0
96000001 -0.033187712770106015 -0.05369571352360437 0.1445211328025396 0.1954738650730323 0 0 0 0
97000001 -0.03221719075491152 -0.054341274765360666 0.17313065085154108 0.14705322612812904 0 0 0 0
98000001 -0.03210276045628117 -0.054995673408991225 0.19645767129194822 0.095593987912891 0 0 0 0
99000001 -0.032025748118284916 -0.055711588194628764 0.1992490990049804 0.03219941883962879 0 0 0 0
100000001 -0.031927456769515576 -0.05644431007032869 0.17915662826520143 -0.034418426229335004 0 0 0 0
