# HZ S RI R 50
1 0.9170416058338127 -0.12396492956971897 -0.11418276222211052 -0.08843412103307273 0 0 0 0
1000001 -0.009147194834801049 -0.00012867849416851076 -0.5066795626208453 -2.558693482246175 0 0 0 0
2000001 -0.009105497734690987 -7.498319283431538e-05 -3.4585775006448993 -2.510119971062881 0 0 0 0
3000001 -0.008907604574638343 -0.0011682166862188612 -4.765543087732102 -1.1092460505797472 0 0 0 0
4000001 -0.008404288359391365 -0.0013699464604384488 -5.173282321997825 0.4295069677411006 0 0 0 0
5000001 -0.008065655102245982 -0.0017068954600557155 -4.604192280464632 1.9958460373981106 0 0 0 0
6000001 -0.007527676293522763 -0.0025795704513623843 -3.9909962998531125 3.18195712186098 0 0 0 0
7000001 -0.007855024945526664 -0.003482622961941207 -2.5812693735927956 3.838951179622289 0 0 0 0
8000001 -0.01456237933978115 -0.00836409117285433 -1.3117736261386186 4.0260847534087 0 0 0 0
9000001 -0.007766494473691116 -0.0031710440971829137 -0.19202011953397632 3.8380386629233874 0 0 0 0
10000001 -0.008434763983597755 -0.009914553428199531 0.43295421850137134 3.6317583053343814 0 0 0 0
11000001 -0.00775601255055715 -0.006515852013637098 1.045170373298287 3.3179101025529607 0 0 0 0
12000001 -0.008073471730452007 -0.00882982629345132 1.393589829781098 2.884647052193028 0 0 0 0
13000001 -0.007798914252843534 -0.007607259287650603 1.8346196627627844 2.399733386874509 0 0 0 0
14000001 -0.014903365372819532 -0.006816989179373295 2.1441964256380306 1.8309619709695415 0 0 0 0
15000001 -0.012458223944032447 -0.010996576948006494 2.294952761478089 1.2565287780321293 0 0 0 0
16000001 -0.01026075574182788 -0.012205836799842362 2.343149646977547 0.7480579553098219 0 0 0 0
17000001 -0.011031946782180769 -0.013261443190916569 2.288762193302538 0.3139579576261855 0 0 0 0
18000001 -0.01188132122313097 -0.01369626142972116 2.1533791931149335 -0.046886232283203766 0 0 0 0
19000001 -0.012940270423881583 -0.014036974567137778 1.9886450609420987 -0.3339476591147607 0 0 0 0
20000001 -0.01440499265141321 -0.01442189916852706 1.7970672545509883 -0.5564540177548236 0 0 0 0
21000001 -0.016289842088271233 -0.014458572524655131 1.5962382385430745 -0.7434424141076652 0 0 0 0
22000001 -0.018033328563600515 -0.013866768402584568 1.3386303538183641 -0.9158073608827936 0 0 0 0
23000001 -0.019331376448727112 -0.013125287880134834 1.068656296924315 -1.0332275876895842 0 0 0 0
24000001 -0.020394997724620556 -0.011346674561889309 0.7995097163136459 -1.1002172747091667 0 0 0 0
25000001 -0.021345582129180838 -0.009597311743488546 0.5412909536064172 -1.1249529606127269 0 0 0 0
26000001 -0.021180398675612888 -0.007085736816079525 0.30492893636618884 -1.1093680734032203 0 0 0 0
27000001 -0.02044340290979142 -0.0045090190676205805 0.1107969272929007 -1.066135115289568 0 0 0 0
28000001 -0.018636148139728748 -0.001800748690479553 -0.09734833545965359 -0.9016268396794257 0 0 0 0
29000001 -0.015765350526079514 0.0012133425879261221 -0.22827668569246806 -0.7599374033258546 0 0 0 0
30000001 -0.011695922530495537 0.0033819296546501354 -0.3197853162226176 -0.6437748537618739 0 0 0 0
31000001 -0.0068133117050033715 0.004796085941557806 -0.38668152359789304 -0.5697665599759045 0 0 0 0
32000001 -0.0007223557704845345 0.005348936191769983 -0.42917926071253554 -0.44647864694956757 0 0 0 0
33000001 0.0062154539290829765 0.004531695295249882 -0.4573706706132656 -0.35552550196886684 0 0 0 0
34000001 0.013375105234265766 0.0019478583596806546 -0.4592102937497034 -0.26229454689245524 0 0 0 0
35000001 0.020969107248596637 -0.0026780930994049577 -0.4473407250982104 -0.1798451521026075 0 0 0 0
36000001 0.028405216693718646 -0.009106824678217931 -0.4264206647057248 -0.10830365451829042 0 0 0 0
37000001 0.034397934096181665 -0.01761271512091361 -0.395266568291904 -0.045774447524403614 0 0 0 0
38000001 0.038995701000098706 -0.02794771693496204 -0.36083269052365974 0.006582224680813355 0 0 0 0
39000001 0.04146111767473519 -0.039591104936767575 -0.34061954502451225 0.03871644270638276 0 0 0 0
40000001 0.04171846699138551 -0.05253289674262339 -0.312170525062012 0.07196835044383362 0 0 0 0
41000001 0.03906546496535967 -0.06538001493451323 -0.2827760690889814 0.1014431763049905 0 0 0 0
42000001 0.03361772507427377 -0.0772016504391147 -0.2502220161346045 0.12480044382404713 0 0 0 0
43000001 0.02553952570711623 -0.08823060698289997 -0.21781857315214795 0.14127720532614754 0 0 0 0
44000001 0.015530900095662973 -0.09751550373261444 -0.18611126990366186 0.1525487005150573 0 0 0 0
45000001 0.003727707299206864 -0.10441056990527642 -0.15743426568815688 0.16033134558851755 0 0 0 0
46000001 -0.009388050219973064 -0.10837848735761627 -0.1300395169085586 0.16454465352071015 0 0 0 0
47000001 -0.02205777170951693 -0.10946908508431752 -0.10607818693528734 0.1662232250697296 0 0 0 0
48000001 -0.03453666323109971 -0.10654769202871149 -0.08632819756144505 0.1648799490457806 0 0 0 0
49000001 -0.04523585711723486 -0.10306096647567814 -0.06595045162852833 0.16308250462665394 0 0 0 0
50000001 -0.05447368919996011 -0.09686318815867125 -0.05009972563159434 0.1609509792712446 0 0 0 0
51000001 -0.0616949218602837 -0.08922219648266483 -0.033983702625404996 0.1589862817571716 0 0 0 0
52000001 -0.06674555220799108 -0.0805242142264016 -0.020541199683619785 0.1568436484319194 0 0 0 0
53000001 -0.06927985437744283 -0.07213025093070813 -0.006913654213172965 0.15484662186412534 0 0 0 0
54000001 -0.06941330025699176 -0.06387657111160902 0.0063514600843901075 0.15310535335864034 0 0 0 0
55000001 -0.0683405869079314 -0.05660593774568273 0.022405919934835542 0.14965319450792505 0 0 0 0
56000001 -0.06569008622736387 -0.050344258352270355 0.03838634069393719 0.14451396338325814 0 0 0 0
57000001 -0.0623276245676462 -0.04559263409802316 0.052737726907004366 0.13808924418085106 0 0 0 0
58000001 -0.05854713535656195 -0.04177861239557429 0.06675299268976209 0.12961418536338554 0 0 0 0
59000001 -0.05454579224001317 -0.03958332060971631 0.08064901567693175 0.11862182772400902 0 0 0 0
60000001 -0.050477313656653894 -0.03899474477749437 0.09054614604744121 0.10673257910762868 0 0 0 0
61000001 -0.047056288560075814 -0.0387175870997484 0.09777024932232287 0.09236603097870148 0 0 0 0
62000001 -0.04415582382351857 -0.03939808510789873 0.1027989225616035 0.08018376758578676 0 0 0 0
63000001 -0.041739467678659076 -0.040413867476570386 0.10635699381734719 0.06809504217889574 0 0 0 0
64000001 -0.040124993115001985 -0.0416953538980757 0.10884682446626494 0.05846072977926076 0 0 0 0
65000001 -0.039012233916384545 -0.043227059050102705 0.10931582302412925 0.04887935768501999 0 0 0 0
66000001 -0.03823928106372606 -0.044422948404515605 0.11230741731409068 0.04131385568219567 0 0 0 0
67000001 -0.03805318921761084 -0.0462842245722218 0.11280876348071323 0.032662460177651266 0 0 0 0
68000001 -0.0381559300769814 -0.04729609322462661 0.1132810572697942 0.021921407307771066 0 0 0 0
69000001 -0.038662514212164635 -0.048208193494335465 0.11384531982234507 0.013626020082567865 0 0 0 0
70000001 -0.039026364973441176 -0.048697397978559855 0.11526973100248875 0.005414762068872515 0 0 0 0
71000001 -0.03981451523458792 -0.04925519535705367 0.11433123193725707 -0.002443230591892583 0 0 0 0
72000001 -0.040370838068014274 -0.049708352832111495 0.11400707471847156 -0.009525921061674505 0 0 0 0
73000001 -0.04087503580636381 -0.0492484263738075 0.11367902608369887 -0.016782065580436715 0 0 0 0
74000001 -0.040136457822758646 -0.04876755681238049 0.11241555040648564 -0.021887241370224957 0 0 0 0
75000001 -0.04183232572188108 -0.04860934335691239 0.11334330662746275 -0.03031693890583685 0 0 0 0
76000001 -0.041716356022390655 -0.04797054128252406 0.11522862599302425 -0.03628321543043526 0 0 0 0
77000001 -0.04203008623117355 -0.04757244797830934 0.11862020429462372 -0.04489009996750822 0 0 0 0
78000001 -0.04126260002001579 -0.04643662291129574 0.1227022434672448 -0.05438997172967204 0 0 0 0
79000001 -0.04132890379036786 -0.04664339068322513 0.1291956620547475 -0.06969246492716336 0 0 0 0
80000001 -0.040564069448876534 -0.04586795504024142 0.13266578616816158 -0.08881179478108946 0 0 0 0
81000001 -0.040422777657874644 -0.04534551599197553 0.13223478462446475 -0.12008923054745413 0 0 0 0
82000001 -0.039945391314117645 -0.04508232100206366 0.12343846336646311 -0.1560664259354422 0 0 0 0
83000001 -0.038600049583240655 -0.0450788708939877 0.09849021068688929 -0.19026291612074914 0 0 0 0
84000001 -0.038893021603592544 -0.04504104825204332 0.047587962332916955 -0.21698613417972937 0 0 0 0
85000001 -0.03817435962975446 -0.04492420552780246 0.002473328425451735 -0.2227382475818631 0 0 0 0
86000001 -0.03754142744416533 -0.04429597379540867 -0.035676533851577534 -0.21764094331594808 0 0 0 0
87000001 -0.03660236572612141 -0.04469701775728807 -0.06546905584834041 -0.20157694878496066 0 0 0 0
88000001 -0.035836771674967204 -0.04462101985932754 -0.09656968713036272 -0.17553086466938442 0 0 0 0
89000001 -0.03474852038327428 -0.04478326637949855 -0.1090483742353287 -0.1472553557309029 0 0 0 0
90000001 -0.034077432622382955 -0.04493217551637639 -0.12177239446463801 -0.12278616739969804 0 0 0 0
91000001 -0.03321969467593656 -0.045042707463436166 -0.13258114496619994 -0.09641884061697542 0 0 0 0
92000001 -0.0322088584994273 -0.045678025508159095 -0.12922458495736563 -0.07273777687493274 0 0 0 0
93000001 -0.031191158375736064 -0.045911693491333234 -0.12280417712471146 -0.05354103997994748 0 0 0 0
94000001 -0.030557372936452363 -0.046858224632909874 -0.11449442023706659 -0.03598437098720974 0 0 0 0
95000001 -0.029722869676666163 -0.04736422653551441 -0.09670196049363226 -0.021598509216798414 0 0 0 0
96000001 -0.028772043029824775 -0.0481722130169643 -0.06401838724076094 -0.019271182341147733 0 0 0 0
97000001 -0.028088269942814482 -0.049167896473831484 -0.04778821962487016 -0.06772228925494772 0 0 0 0
98000001 -0.027883818695580334 -0.049797469253969676 -0.0817519344575475 -0.08730142915142353 0 0 0 0
99000001 -0.027537736815623076 -0.05079447639664699 -0.11577930979632561 -0.1087647276850163 0 0 0 0
100000001 -0.02711021848480167 -0.05195218969263175 -0.1771439788032734 -0.0956515334222604 0 0 0 0
