# HZ S RI R 50
1 0.9452434472809566 0.13941072937713334 -0.0029319096627031783 0.0006662037093534518 0 0 0 0
1000001 0.055401763105284524 0.028749056497594416 -2.205463057560836 -2.0898577501111735 0 0 0 0
2000001 0.08657429092740623 0.008042538486863138 -3.831723953137654 1.2365443571085633 0 0 0 0
3000001 0.08575945181622759 0.0007837329787630012 -2.08808687204396 3.416900217781846 0 0 0 0
4000001 0.08592483457729072 -0.006412718624340718 -0.045104829978696775 3.664616767599422 0 0 0 0
5000001 0.08413714719912645 -0.013459825647986383 1.3554541402828846 2.932360516536453 0 0 0 0
6000001 0.08374796020719227 -0.01825108704233095 2.040457821109446 1.8793025448971454 0 0 0 0
7000001 0.08208760778795382 -0.022768746354627167 2.1789658305429733 0.8808834774120466 0 0 0 0
8000001 0.07817810302759781 -0.02704698321904596 1.9685609312112071 0.11433725280176572 0 0 0 0
9000001 0.07857646166335 -0.028913243460944996 1.5928165616611782 -0.38888205255807284 0 0 0 0
10000001 0.07892765278666562 -0.03572502267936481 1.192985032370987 -0.6623010731801964 0 0 0 0
11000001 0.0756056477991887 -0.03852872815336013 0.8400613692971963 -0.7783974101253232 0 0 0 0
12000001 0.07301602000551392 -0.04378632140884183 0.5400312839668615 -0.8045022194153896 0 0 0 0
13000001 0.0711850578257339 -0.0471472881987952 0.3004039439901447 -0.7693654343802387 0 0 0 0
14000001 0.06895817030470491 -0.05078102988626509 0.12805720627149292 -0.7080914751403204 0 0 0 0
15000001 0.06488959493867588 -0.054707057421285614 -0.005688817107021224 -0.6244213655178509 0 0 0 0
16000001 0.06248138955537073 -0.05689554739851427 -0.11171663917120345 -0.5434300130005466 0 0 0 0
17000001 0.058783639576828944 -0.06086512737834327 -0.1847133242769091 -0.45668310556215036 0 0 0 0
18000001 0.054865577779654624 -0.06466631508084283 -0.22149516503896696 -0.36636221840656047 0 0 0 0
19000001 0.05133362961001718 -0.0670261216891601 -0.23692884965025796 -0.274340399485874 0 0 0 0
20000001 0.048221252191318 -0.07000805711326127 -0.2364486805568706 -0.19774793718238765 0 0 0 0
21000001 0.04436039835902712 -0.07236827661992616 -0.22299436182436888 -0.13431776903417098 0 0 0 0
22000001 0.04032964592390819 -0.07492346661127972 -0.20563495913694588 -0.0857616058583407 0 0 0 0
23000001 0.03727307609232333 -0.07719636988224489 -0.1907521141836058 -0.05518221048218114 0 0 0 0
24000001 0.03321533425910133 -0.0798109995437457 -0.16900370192987846 -0.026348910170384023 0 0 0 0
25000001 0.029178919289948084 -0.08094675061990304 -0.15087568808791216 -0.002717325820317928 0 0 0 0
26000001 0.02503587213967199 -0.0826924423194143 -0.13081932308086866 0.012885657253014703 0 0 0 0
27000001 0.020380042401404758 -0.08494644290035981 -0.1207286787595635 0.015246599710236074 0 0 0 0
28000001 0.015924845388003137 -0.08629124698100726 -0.1054841741674213 0.024881233148140676 0 0 0 0
29000001 0.011490970311364456 -0.08729017151267289 -0.091134721032637 0.031823730157673265 0 0 0 0
30000001 0.007121402968064004 -0.08830107456587794 -0.07851436557714608 0.037793279569279636 0 0 0 0
31000001 0.0025619776307664157 -0.08912954375582491 -0.06712682894991018 0.04173037679437384 0 0 0 0
32000001 -0.002546257969762997 -0.08976550007191336 -0.05337291644983335 0.04359362659187831 0 0 0 0
33000001 -0.007371374984277084 -0.09007768131416373 -0.038112087073243206 0.04108954870549194 0 0 0 0
34000001 -0.01229287107683234 -0.09033859806812262 -0.031624631139413766 0.039989446274914346 0 0 0 0
35000001 -0.017031629169512966 -0.09018076566826376 -0.026046034025386425 0.03702767850643423 0 0 0 0
36000001 -0.0221829302758947 -0.08965857088826792 -0.021448880352272725 0.0349283750216591 0 0 0 0
37000001 -0.027916319675025798 -0.08907047973511316 -0.01657135224623869 0.03190679639181781 0 0 0 0
38000001 -0.03293140535003006 -0.088081694713892 -0.014216315989359777 0.02904530730573568 0 0 0 0
39000001 -0.038129201289299176 -0.08670980905957808 -0.012104515506225794 0.028306727746830188 0 0 0 0
40000001 -0.043682425991596434 -0.08477951273371812 -0.011218479959106856 0.027339920226998386 0 0 0 0
41000001 -0.04896284451703232 -0.08226368471401309 -0.008707702518376667 0.026938244541808154 0 0 0 0
42000001 -0.05416436174065111 -0.07997573385612605 -0.005831773492661103 0.026446357889464565 0 0 0 0
43000001 -0.059256602569660914 -0.07768739726999896 -0.00429192106434403 0.024806407536972316 0 0 0 0
44000001 -0.0639703732108063 -0.0744247834184761 -0.001809043481522514 0.022463517386152362 0 0 0 0
45000001 -0.0688816326098503 -0.07109358093042027 -0.0006203802371917899 0.020758634458862394 0 0 0 0
46000001 -0.0737930770792654 -0.0673564255452686 0.00039983760913344497 0.019108080362721876 0 0 0 0
47000001 -0.07762759438688636 -0.06386523192984002 0.0017080422346653081 0.017127273216057077 0 0 0 0
48000001 -0.08216217647652886 -0.05875828530618713 0.0018404654332063444 0.015656261900696068 0 0 0 0
49000001 -0.08623945517839651 -0.05494889866003268 0.001295748209847846 0.01312207547385311 0 0 0 0
50000001 -0.08986238383700734 -0.05007330598396517 0.0005192355237595562 0.011898392695141495 0 0 0 0
51000001 -0.09349695155460185 -0.045290272310505524 -0.0005818872477181817 0.011496696898682058 0 0 0 0
52000001 -0.09695725999992572 -0.040468090373200385 -0.0022387329049798864 0.010927021329900232 0 0 0 0
53000001 -0.09978833199592747 -0.03455358325014432 -0.003218028614377036 0.012969564172967974 0 0 0 0
54000001 -0.10201761250248126 -0.02855303269326978 -0.002433289163950293 0.013785738173579613 0 0 0 0
55000001 -0.10417565111099943 -0.021876546263268903 -0.002681633367158153 0.015612284011207516 0 0 0 0
56000001 -0.10602419582950648 -0.015469140899570289 -0.0007299878372418607 0.016473345851930665 0 0 0 0
57000001 -0.10771471693739232 -0.009236638889567259 -8.33857869112567e-05 0.018206435369164303 0 0 0 0
58000001 -0.10896887524485638 -0.002374718389294377 0.004195407120705145 0.017807630178230373 0 0 0 0
59000001 -0.10980519326453354 0.004885357300014123 0.006118900667467131 0.016674358299452866 0 0 0 0
60000001 -0.10991762428100026 0.011311285380407585 0.007146804774112006 0.014226614117933342 0 0 0 0
61000001 -0.10977199351450201 0.018288210439249254 0.009256855262658804 0.0120418200988039 0 0 0 0
62000001 -0.10938181257115552 0.02544300470184279 0.007780070759790715 0.009464804434334624 0 0 0 0
63000001 -0.10799285660554832 0.03256352092605098 0.006190429540366417 0.008251166974452044 0 0 0 0
64000001 -0.10698238692927431 0.03999420073457054 0.003989772855096855 0.008570265597721696 0 0 0 0
65000001 -0.10394974055885223 0.04675842844702928 0.0017169050251954216 0.01005822405930894 0 0 0 0
66000001 -0.1015414355582944 0.053927140043956004 0.0026146203274401655 0.012395904097759083 0 0 0 0
67000001 -0.09849172839382307 0.060845625626222956 0.0026302045103013517 0.014472714469883729 0 0 0 0
68000001 -0.09489601106199651 0.0678357909890344 0.005131076085763785 0.015678838984108226 0 0 0 0
69000001 -0.09087964296462704 0.0747095399725314 0.006022405734217189 0.018117201142544413 0 0 0 0
70000001 -0.08631994303295298 0.08109779151242769 0.009569725077358922 0.01844914099763028 0 0 0 0
71000001 -0.08145558247366182 0.08699846326828017 0.011622688872238848 0.018724823384126146 0 0 0 0
72000001 -0.07602798481863594 0.09265940024428501 0.013776231816756983 0.01816685722911421 0 0 0 0
73000001 -0.0702094647433569 0.0983291170857941 0.017246799161630706 0.01883470455481658 0 0 0 0
74000001 -0.0637402937589127 0.10358758927028788 0.020254720633202685 0.018428904285162938 0 0 0 0
75000001 -0.05705000860144426 0.10800008342665071 0.023248376749493926 0.01775954312503342 0 0 0 0
76000001 -0.049761262259748376 0.11207397207726144 0.02750348891820401 0.017225163001935405 0 0 0 0
77000001 -0.0426907514232942 0.11584525647468642 0.033408640855986715 0.015807210571522824 0 0 0 0
78000001 -0.03582803456948522 0.11909312214727591 0.03846744463505991 0.013051267866833518 0 0 0 0
79000001 -0.0270847173121672 0.12240231726717499 0.04434889836198579 0.007826800208765054 0 0 0 0
80000001 -0.01906560365450967 0.12466182986095561 0.05117913152222454 0.0011000411883857878 0 0 0 0
81000001 -0.009783435485787452 0.125701441262425 0.05759067870671125 -0.008403307321835989 0 0 0 0
82000001 -0.0011759895409460136 0.12570228837110267 0.06329723554531978 -0.02519092701388636 0 0 0 0
83000001 0.006731850784981353 0.1253397627221316 0.06189960341202499 -0.038879960841420536 0 0 0 0
84000001 0.015357703197096145 0.12428157168992139 0.05521074278274828 -0.055427472983629454 0 0 0 0
85000001 0.024019535003185436 0.1231506454804879 0.04123853972663943 -0.07457750920445283 0 0 0 0
86000001 0.03311922287800782 0.12116196787095176 0.01643095944221068 -0.08297125039678808 0 0 0 0
87000001 0.04027025685277147 0.11891595222471972 -0.0038803815927690995 -0.07659413628079505 0 0 0 0
88000001 0.048723083123664336 0.11634459523579052 -0.01946494502385458 -0.07705574857812982 0 0 0 0
89000001 0.056078973892598485 0.11217517400039492 -0.033941085843435234 -0.06921669581895978 0 0 0 0
90000001 0.063323285211089 0.10808256709714828 -0.044246505895960096 -0.05578577555059571 0 0 0 0
91000001 0.07106415700225897 0.10338561408847594 -0.0507236758302279 -0.04198197417089955 0 0 0 0
92000001 0.07750528479569364 0.09817108782641631 -0.050734642750590093 -0.0309192452241299 0 0 0 0
93000001 0.08398389162903748 0.09269840291250454 -0.0529950255444186 -0.020204363309225204 0 0 0 0
94000001 0.09014449642096424 0.08681804485595462 -0.05277300731009099 -0.01074849973379565 0 0 0 0
95000001 0.09568263223264577 0.08016956387791378 -0.04994370195106457 0.00016549763293035387 0 0 0 0
96000001 0.10131471564924609 0.07378207166529017 -0.04443700409961991 0.010267085732180286 0 0 0 0
97000001 0.10554622134111073 0.0665360943382221 -0.03191579840620775 0.016375950831522473 0 0 0 0
98000001 0.10936276643507593 0.059204968060738015 -0.014957796692234 0.013288434817815106 0 0 0 0
99000001 0.11296797323829758 0.05163987418410495 -0.008120115565856607 -0.0024464814797403606 0 0 0 0
100000001 0.11628327100944617 0.04369608700124729 -0.017031966164208878 -0.017274922865913582 0 0 0 0
