# HZ S RI R 50
1 0.7495437213953313 -0.2998892310462867 -0.13271628486004983 -0.0679515443216535 0 0 0 0
1000001 0.0582329179458913 0.028712175004459124 -3.092104436224837 -3.226072587182389 0 0 0 0
2000001 0.08335086798429692 0.010166563878748149 -5.379403927338817 1.3169668542805728 0 0 0 0
3000001 0.08648716170999472 0.0012936026297062173 -4.224653611922492 6.103756101512785 0 0 0 0
4000001 0.08637744168605972 -0.005911823174763801 -1.6432104933140848 7.785072916752285 0 0 0 0
5000001 0.07836590332790778 -0.010441335772955663 1.1278648138416654 7.955307201197904 0 0 0 0
6000001 0.08432943563969182 -0.01809050917978709 3.6188772408773886 6.82681413245439 0 0 0 0
7000001 0.08262264004641755 -0.022605564534689693 5.291050526798601 4.8326257170251825 0 0 0 0
8000001 0.07849170983564771 -0.02684326213117503 5.894294987301972 2.551554237860047 0 0 0 0
9000001 0.07886345541239664 -0.02891604728728506 5.5819530106275055 0.6747616269115113 0 0 0 0
10000001 0.07913945616013172 -0.03545326375431948 4.865704220026857 -0.5864383947853893 0 0 0 0
11000001 0.0760849729261574 -0.038467934912866306 4.039679335673565 -1.3943139407664096 0 0 0 0
12000001 0.0730413964724979 -0.04344601809200803 3.219264514189257 -1.916856189544123 0 0 0 0
13000001 0.06982192846346198 -0.044648668733008684 2.4605595544194907 -2.205983981414688 0 0 0 0
14000001 0.07039674567729452 -0.051469996752358506 1.8523733801387015 -2.3114861357157954 0 0 0 0
15000001 0.06539488160965301 -0.05451091789988573 1.2918446832890826 -2.3109070323977887 0 0 0 0
16000001 0.062127152820528705 -0.05709928626694034 0.7878104834340356 -2.27390863982565 0 0 0 0
17000001 0.06091030664305629 -0.0609533760836599 0.3724898087987298 -2.1595253094500824 0 0 0 0
18000001 0.055146665370187975 -0.0643204783879223 0.017921832203697023 -1.9814293180272524 0 0 0 0
19000001 0.0515150665248988 -0.06650128592855839 -0.2632693335282734 -1.704220746898976 0 0 0 0
20000001 0.048439777855520595 -0.0695608028779106 -0.45685977844337783 -1.4326366231886978 0 0 0 0
21000001 0.04457995625145279 -0.07187878266780563 -0.5758068917005903 -1.1571228221722687 0 0 0 0
22000001 0.04078465618426299 -0.07412544300344975 -0.6345745564084094 -0.9337291752922113 0 0 0 0
23000001 0.040674314215538646 -0.07851485024604128 -0.6681286783385665 -0.7954093335183055 0 0 0 0
24000001 0.03441280157145014 -0.07976076695757013 -0.6742299419384516 -0.6273983244082822 0 0 0 0
25000001 0.029621104177504774 -0.08036179767866222 -0.6675921829952426 -0.49618412119450156 0 0 0 0
26000001 0.025484974231627485 -0.08210146599771978 -0.6451050510243488 -0.36709065102184085 0 0 0 0
27000001 0.02083658400732236 -0.08441531132788554 -0.614794318055376 -0.32129868914216 0 0 0 0
28000001 0.016207866872350242 -0.08579850025934922 -0.5814387810047463 -0.2372773112007589 0 0 0 0
29000001 0.011875604453403339 -0.08694436628267299 -0.5449045129533198 -0.16548361294103214 0 0 0 0
30000001 0.007552867890726133 -0.08781957882545988 -0.5143147103066036 -0.10355014888436914 0 0 0 0
31000001 0.00288019964758883 -0.08820866557837949 -0.47908714167456 -0.04956875873383565 0 0 0 0
32000001 -0.0021679729662468727 -0.08880100030278175 -0.433862669401738 0.0015265160175045693 0 0 0 0
33000001 -0.006855064781009566 -0.0894174224135349 -0.366903359355292 0.04616143712755029 0 0 0 0
34000001 -0.011851226691256213 -0.08953715634917099 -0.34216647064837324 0.06567862660443656 0 0 0 0
35000001 -0.01652437541044705 -0.08942806607797575 -0.31056490242405355 0.0830386186896648 0 0 0 0
36000001 -0.02137291816429696 -0.08847950938169888 -0.28654885869013064 0.09335865414879077 0 0 0 0
37000001 -0.0272196808086255 -0.08831392397490113 -0.2570179899299033 0.10232925781522642 0 0 0 0
38000001 -0.03218400393973032 -0.08702343917765358 -0.23451333359522372 0.11069594233787289 0 0 0 0
39000001 -0.0370963660012065 -0.08574427018342713 -0.2214578416533502 0.122244615450285 0 0 0 0
40000001 -0.04301894862999923 -0.08391741734409928 -0.2098116814004282 0.13005205789824942 0 0 0 0
41000001 -0.04805848184083313 -0.08140251391605233 -0.18881912893940161 0.14255141999683282 0 0 0 0
42000001 -0.05323952326228408 -0.07912114379165852 -0.17031223977549603 0.14976635441537284 0 0 0 0
43000001 -0.058205645074233835 -0.07687442148437763 -0.15304575987370428 0.15543132407728677 0 0 0 0
44000001 -0.06315805529627459 -0.07377054104318605 -0.1351534145067522 0.15694769002962913 0 0 0 0
45000001 -0.06798138967930059 -0.07040846948064267 -0.11932967746799755 0.16033497533251026 0 0 0 0
46000001 -0.07267886356503145 -0.06665285060267093 -0.10354936924114087 0.15966931031376475 0 0 0 0
47000001 -0.07673998009861513 -0.06303407219312084 -0.08985797345609242 0.15897577043847802 0 0 0 0
48000001 -0.08119331028264387 -0.057916086156343326 -0.07635485077246916 0.15605583105597723 0 0 0 0
49000001 -0.08529931341383375 -0.05381238194473434 -0.0658841301454119 0.1543708532309755 0 0 0 0
50000001 -0.08890672566301142 -0.04916467329355634 -0.05649180137958551 0.15096931271389638 0 0 0 0
51000001 -0.09230414916455282 -0.04469679952577297 -0.04574263884760083 0.15110069310805457 0 0 0 0
52000001 -0.09601101753368717 -0.03939414675404874 -0.03798545922537906 0.14886821153355514 0 0 0 0
53000001 -0.09859961559200198 -0.03389893184607572 -0.02963709045511516 0.1502768870144671 0 0 0 0
54000001 -0.1010981696559905 -0.027726329922700497 -0.018638906697449872 0.15070279377750662 0 0 0 0
55000001 -0.10306861678986971 -0.021310457391525022 -0.009450765436851118 0.15046126646756175 0 0 0 0
56000001 -0.10455228046710034 -0.014983670495753049 0.004873644007027449 0.14859430251478117 0 0 0 0
57000001 -0.10651264431451565 -0.00848301765963757 0.016540140835630174 0.14523816981731166 0 0 0 0
58000001 -0.10779862532092489 -0.0016869022327788464 0.028195150307943662 0.1400397724384947 0 0 0 0
59000001 -0.10898565140454304 0.005583104338760435 0.042264892930469165 0.13222762456308318 0 0 0 0
60000001 -0.10886512161993503 0.011868158342449935 0.05287289154307758 0.12360961733095667 0 0 0 0
61000001 -0.10873535890887277 0.01918458152224295 0.060386980127463366 0.11203921350947485 0 0 0 0
62000001 -0.10816621730043181 0.02605074486851085 0.06524512164120085 0.10179486943512228 0 0 0 0
63000001 -0.10683750462897697 0.03330897613020802 0.06863138370532669 0.09179605658865019 0 0 0 0
64000001 -0.10576938879502033 0.0406802733924552 0.07155861841397536 0.0874322171539332 0 0 0 0
65000001 -0.10279018490525783 0.047226114709064286 0.07250183299212672 0.07913172618036833 0 0 0 0
66000001 -0.10044791302197058 0.05456035776547759 0.07612207491541963 0.07333487449325325 0 0 0 0
67000001 -0.09720908027098596 0.061289794115390026 0.07963130748426342 0.06792826083244245 0 0 0 0
68000001 -0.09382071026778056 0.06841155843974918 0.08416625916053694 0.06131810555876061 0 0 0 0
69000001 -0.0896324336229069 0.07512860874860063 0.08508607133332846 0.05333989751109217 0 0 0 0
70000001 -0.0851819540198507 0.08140384385619871 0.08895463744912133 0.046903364975966824 0 0 0 0
71000001 -0.08047180097168731 0.08757121828855428 0.09075530112162755 0.03816751142600884 0 0 0 0
72000001 -0.07503313989497706 0.0933271422072863 0.09032894575320106 0.032487664043952834 0 0 0 0
73000001 -0.06898830277362046 0.09890905167652349 0.0910456132746661 0.024439498022054282 0 0 0 0
74000001 -0.06241680642959891 0.10386882036200598 0.0923938445824983 0.01886594619406739 0 0 0 0
75000001 -0.05588975288659288 0.1084245586217272 0.09260816013537466 0.013855886077283096 0 0 0 0
76000001 -0.0488121078512195 0.11268761081895384 0.09547084149261847 0.008768635466636046 0 0 0 0
77000001 -0.04154894065610708 0.11610156490217854 0.09810062683690632 0.0020622039004924595 0 0 0 0
78000001 -0.034670149665544624 0.12033816260000692 0.10317093985418956 -0.0063154168881314155 0 0 0 0
79000001 -0.0258143842939602 0.12291830553336226 0.1099679674557156 -0.016048231671384746 0 0 0 0
80000001 -0.018128843235553416 0.12445914116224134 0.11726320191929249 -0.02893847354226024 0 0 0 0
81000001 -0.008690313767663781 0.1255042996694447 0.12502522579828582 -0.05012590289376094 0 0 0 0
82000001 5.173215672908384e-05 0.1261133713611562 0.12406766247308236 -0.07105138058017234 0 0 0 0
83000001 0.008839068404270307 0.1262953193251343 0.11671239874939748 -0.0977483972594887 0 0 0 0
84000001 0.016748111399227116 0.12478109270263202 0.10024409481646682 -0.13114382547803327 0 0 0 0
85000001 0.02462681081281953 0.12303237851697582 0.06290859406961839 -0.15099279541770805 0 0 0 0
86000001 0.03378842307710686 0.1208778409664688 0.023693178966463842 -0.1510007206344227 0 0 0 0
87000001 0.041286910465498046 0.11875522112137094 -0.0014432314967578515 -0.1530160150945411 0 0 0 0
88000001 0.04971990894829237 0.11614079983966963 -0.029927673928169397 -0.1434109080365728 0 0 0 0
89000001 0.05657525184223036 0.11215634882791983 -0.05389040650280002 -0.1229246851936862 0 0 0 0
90000001 0.06397164798276953 0.10791313137535775 -0.06631429535812584 -0.10081326941566608 0 0 0 0
91000001 0.07125775155161537 0.10363097244132673 -0.07360326849803442 -0.08276487227257782 0 0 0 0
92000001 0.0783554553329402 0.0983729167552727 -0.08083154355765665 -0.0635061505644957 0 0 0 0
93000001 0.08446198429281486 0.0928311587377923 -0.08125694815409767 -0.048684992973055854 0 0 0 0
94000001 0.09068177087219859 0.08709150876113948 -0.07705603779199416 -0.03171092951286606 0 0 0 0
95000001 0.09630931766483272 0.08056909869274727 -0.07141096832905625 -0.01949022851912291 0 0 0 0
96000001 0.10171623655615682 0.07420213102654911 -0.05947923310337804 -0.010618361080520647 0 0 0 0
97000001 0.10634582142380168 0.06716895106813343 -0.03906719035232333 -0.008456750114904205 0 0 0 0
98000001 0.11023786536238502 0.05975686114608225 -0.027574384276954262 -0.02853899582612835 0 0 0 0
99000001 0.11357028177959719 0.05229876057795766 -0.041747012683831394 -0.048744521253206635 0 0 0 0
100000001 0.11657800806460834 0.044484228837952854 -0.056476535265326006 -0.05897325224507457 0 0 0 0
