# HZ S RI R 50
1 -0.3791535542310887 0.5109951413431527 -0.0008255262840107129 0.0006128851279838571 0 0 0 0
1000001 -0.009782916947832504 0.0004396855758280478 0.03881853116783682 -0.09807587888571849 0 0 0 0
2000001 -0.009133623603556169 -2.6858269613170595e-05 -0.041507997843160525 -0.3097517076481566 0 0 0 0
3000001 -0.008294798466865705 -0.0016106366473975485 -0.30932376654170857 -0.4075295393186038 0 0 0 0
4000001 -0.007888937507920668 -0.00169197046845735 -0.5858721577495172 -0.28225223706269914 0 0 0 0
5000001 -0.013446998740355199 -0.001704554827110152 -0.7403925832245951 -0.011105484871043379 0 0 0 0
6000001 -0.007769562472291118 -0.002721486238024254 -0.6890506019281402 0.23723195347899256 0 0 0 0
7000001 -0.007601800837971287 -0.00337464035969705 -0.47837069934961346 0.3848357099326533 0 0 0 0
8000001 -0.012324773637439366 -0.006021750735077121 -0.3450753611703414 0.5946987295497996 0 0 0 0
9000001 -0.007370907689342306 -0.0028314179601187134 -0.19790734197952267 0.5721091294311892 0 0 0 0
10000001 -0.005501786332158212 -0.006204295726011717 -0.11341994715867902 0.4049108054340998 0 0 0 0
11000001 -0.01183929050758209 -0.009093194681987812 -0.06903119089017164 0.4023431890504466 0 0 0 0
12000001 -0.008602130066975508 -0.007570871368265894 0.07657236866534879 0.41759008695753935 0 0 0 0
13000001 -0.006572638102192594 -0.00844103739227601 0.15940287774697304 0.34019452027494923 0 0 0 0
14000001 -0.007253151313371402 -0.009343682803249188 0.28469034986710984 0.2147285286408044 0 0 0 0
15000001 -0.0038040396002418427 -0.011230749296670447 0.23626988559329448 0.1624531259965004 0 0 0 0
16000001 -0.00620840434623971 -0.01195675004519312 0.2887307257690088 0.041607373611644835 0 0 0 0
17000001 -0.005776137479244129 -0.013849880680364446 0.2714015345309217 -0.03509965782551372 0 0 0 0
18000001 -0.006545627108711533 -0.013554225578462354 0.25670978601101424 -0.0577845019470703 0 0 0 0
19000001 -0.006129604343351134 -0.016051433288169343 0.24793609340755748 -0.06321979476912061 0 0 0 0
20000001 -0.006320527843636858 -0.017590194896465603 0.24883416791700358 -0.09117903840563127 0 0 0 0
21000001 -0.007493463914322964 -0.019253890356104593 0.23732088229277232 -0.13431919532614722 0 0 0 0
22000001 -0.008679457060733834 -0.020606143097313415 0.2173574351085538 -0.16998813634668578 0 0 0 0
23000001 -0.009733444154664398 -0.022073303593954038 0.19372650102496994 -0.18882652856215673 0 0 0 0
24000001 -0.011194581207350231 -0.02240013182350316 0.14645620741465507 -0.21790560276540316 0 0 0 0
25000001 -0.013194996584880695 -0.023477709402532576 0.09847217379906625 -0.2333514197834936 0 0 0 0
26000001 -0.014970077625718108 -0.02285529090202947 0.05133422000626127 -0.240838788013365 0 0 0 0
27000001 -0.017209531618374362 -0.022735603718874172 0.005808668765593354 -0.2359086334032443 0 0 0 0
28000001 -0.019115568024672517 -0.021409212941536852 -0.03592586881949245 -0.22098103645827985 0 0 0 0
29000001 -0.019939699865783485 -0.018897883043302144 -0.07946406726643038 -0.19418245160658232 0 0 0 0
30000001 -0.02000931143330206 -0.01565863463173794 -0.11819224862151685 -0.14650862342742163 0 0 0 0
31000001 -0.018919719683625425 -0.01241771920157149 -0.13731460771250853 -0.08489136543093795 0 0 0 0
32000001 -0.015544791662572596 -0.009093438700076638 -0.13272451781295336 -0.028608118257587415 0 0 0 0
33000001 -0.010755322897211775 -0.00695010249240871 -0.11107875492588841 0.011057895466644796 0 0 0 0
34000001 -0.004637997485936324 -0.006939849171055393 -0.0894998312852356 0.033264697378130606 0 0 0 0
35000001 0.002122033584702022 -0.00958142506698169 -0.06717342384217652 0.04529869120699604 0 0 0 0
36000001 0.00806740103775004 -0.015229320996301811 -0.04741553527323998 0.04976012452525072 0 0 0 0
37000001 0.011521702813452269 -0.024055959878835638 -0.03382816154316024 0.051271326467592325 0 0 0 0
38000001 0.011532962033583812 -0.0342909886536832 -0.022607952379561 0.04983180445404184 0 0 0 0
39000001 0.007222155454173435 -0.04422750482485828 -0.013605199146634519 0.049634104706143316 0 0 0 0
40000001 -0.0015762442861756202 -0.05279382772068416 -0.003967936870553819 0.04806663622098641 0 0 0 0
41000001 -0.013506074901808078 -0.05618269266807654 0.0055550608212723875 0.04562691589679442 0 0 0 0
42000001 -0.02658788746709838 -0.054169886259763225 0.014002438791347358 0.03957930605771642 0 0 0 0
43000001 -0.03819438813130018 -0.046383436876510926 0.019245286171750354 0.03294549547250712 0 0 0 0
44000001 -0.045118871572377546 -0.033556754027346404 0.022610762427373386 0.026176186403806614 0 0 0 0
45000001 -0.045924288969357144 -0.018395488579543557 0.024554292504070735 0.020211059354278155 0 0 0 0
46000001 -0.039283413677176415 -0.003263505793883032 0.02476544641858071 0.015015414573994782 0 0 0 0
47000001 -0.025753522381848387 0.0073388472567102615 0.024854341727979446 0.010701596351091322 0 0 0 0
48000001 -0.008654496077245872 0.011562838820751794 0.0245757241061235 0.008018997021027305 0 0 0 0
49000001 0.008870032033107378 0.008233936820027854 0.024573033087703665 0.004849572191996128 0 0 0 0
50000001 0.024145369675405835 -0.0021923650607952963 0.02498066555794068 0.002299466360863089 0 0 0 0
51000001 0.03341925036284713 -0.017396788462977382 0.025842985192729435 -0.002051910153630293 0 0 0 0
52000001 0.03696892238004895 -0.033946861327951654 0.02569085710597342 -0.005912274358410398 0 0 0 0
53000001 0.034274172869338926 -0.05076622388791019 0.02539329732679395 -0.009844542998977869 0 0 0 0
54000001 0.027304178642501516 -0.06432127576575074 0.024120525833684826 -0.014012930607868165 0 0 0 0
55000001 0.01764267753906011 -0.07419677912077906 0.022950538146896095 -0.017608877668667765 0 0 0 0
56000001 0.007178255960247731 -0.08068478180558268 0.019550949807301293 -0.023128040047103927 0 0 0 0
57000001 -0.003047617365561673 -0.08430249238353542 0.015327756182860745 -0.026027605841653076 0 0 0 0
58000001 -0.012471064621740906 -0.08544322151719631 0.010394401958843311 -0.030524749744913093 0 0 0 0
59000001 -0.018801915536553623 -0.08565609386415676 0.0026521451091032185 -0.03184053742815763 0 0 0 0
60000001 -0.027535741889361223 -0.08494545617838353 -0.004940679446639767 -0.03049310978800831 0 0 0 0
61000001 -0.032372261960340015 -0.08441219931567236 -0.009275889135202232 -0.028051596688208582 0 0 0 0
62000001 -0.03857941669579852 -0.08349485583404714 -0.011580039307948273 -0.024136751331334208 0 0 0 0
63000001 -0.04406975381592267 -0.08245726367609713 -0.01365555990363626 -0.021873483099007402 0 0 0 0
64000001 -0.049726406193318924 -0.08153830293229984 -0.016313010493160227 -0.021454101125685694 0 0 0 0
65000001 -0.0555966663115846 -0.08038125700546826 -0.01943511112067321 -0.019907452217915712 0 0 0 0
66000001 -0.06139538700335051 -0.07798626445805293 -0.022476636360076144 -0.017527301543093714 0 0 0 0
67000001 -0.06715401010201413 -0.07507599572434903 -0.026745262855692873 -0.013080990500491933 0 0 0 0
68000001 -0.07264093348012012 -0.07124719185770187 -0.031001279008806108 -0.007914103191676593 0 0 0 0
69000001 -0.0775523578935758 -0.06625939417695109 -0.0319263113704792 -0.0008809604382714008 0 0 0 0
70000001 -0.08150238072014526 -0.060679396359943884 -0.03170847159596271 0.006505930002592127 0 0 0 0
71000001 -0.0847495091037038 -0.05482135246183103 -0.0290910424998697 0.014992026124645888 0 0 0 0
72000001 -0.08698333426743736 -0.048572072405733406 -0.020796429668119728 0.021123715176927797 0 0 0 0
73000001 -0.08781834346618078 -0.041985404144364386 -0.011401726148238173 0.023049953810223657 0 0 0 0
74000001 -0.08772884858795564 -0.03537185346434795 -0.004000836134312664 0.02053952909433353 0 0 0 0
75000001 -0.08699640714273169 -0.02982164790332085 0.0011808541077925633 0.018850268423307476 0 0 0 0
76000001 -0.08529525024179568 -0.024022333525255037 0.006115412581298857 0.015557577288765596 0 0 0 0
77000001 -0.08299580536510089 -0.018872648262049742 0.009342228931112789 0.010501792704507127 0 0 0 0
78000001 -0.07993408093733245 -0.01438264905085345 0.0106899928196838 0.005911600274695501 0 0 0 0
79000001 -0.0766004269271977 -0.010688825324922595 0.010427072763651478 0.0010013853110422673 0 0 0 0
80000001 -0.0727747615501991 -0.007589337454169749 0.009493322392876693 -0.003924728966552283 0 0 0 0
81000001 -0.06863667805479333 -0.0050444553835398325 0.007084528170022685 -0.009074971923167807 0 0 0 0
82000001 -0.06480772252961146 -0.0030282099271046552 0.004002741398791362 -0.013823753133041695 0 0 0 0
83000001 -0.06077493234420377 -0.0018446567433267986 -4.217335204660438e-05 -0.01847280584053348 0 0 0 0
84000001 -0.0574231067036715 -0.0017332923106257562 -0.0068182245495192135 -0.022783762779549455 0 0 0 0
85000001 -0.05332120000385573 -0.0014192460145851036 -0.01645249615294323 -0.026896885378479774 0 0 0 0
86000001 -0.049615077637898054 -0.001220268146483203 -0.028980627265417586 -0.028408528650006766 0 0 0 0
87000001 -0.046492662071756057 -0.0023785242500403837 -0.04202172899802534 -0.028094955436014705 0 0 0 0
88000001 -0.043573567251241466 -0.0033018252607064573 -0.060210842032406495 -0.025436502309015306 0 0 0 0
89000001 -0.04099422008577115 -0.004808151437970441 -0.0798858715578496 -0.01175334627050817 0 0 0 0
90000001 -0.038751506029804074 -0.006182375810390556 -0.09279923354648943 0.016225390783766138 0 0 0 0
91000001 -0.03702436425841715 -0.0075664382591087475 -0.09627784506113662 0.048900907807509934 0 0 0 0
92000001 -0.03544024854124923 -0.009814787561240644 -0.09235484143309804 0.08759366984015156 0 0 0 0
93000001 -0.0342313026933271 -0.01111171359033531 -0.06013500967754505 0.11948852784523657 0 0 0 0
94000001 -0.03296357307449559 -0.012725854746287455 -0.021966855893903507 0.1287132125805866 0 0 0 0
95000001 -0.032313095495524816 -0.014486794340320222 0.009547465796226822 0.1269949600538427 0 0 0 0
96000001 -0.03185543776731142 -0.015848187909000472 0.04824284235356752 0.11498464314095247 0 0 0 0
97000001 -0.03092431002645298 -0.017220642467443117 0.0861356357872803 0.08813053474426007 0 0 0 0
98000001 -0.030299150750474076 -0.018438796839148525 0.10621428231197608 0.05377902323552293 0 0 0 0
99000001 -0.03012807959985817 -0.019964512546980964 0.11186413970395943 0.013066111416798969 0 0 0 0
100000001 -0.02964902523360649 -0.021372160072876404 0.10424859526926514 -0.02839881893518676 0 0 0 0
