# HZ S RI R 50
1 0.8470825293120575 0.0948788330620452 -0.000768353478144537 -0.00021675281975735923 0 0 0 0
1000001 -0.009092940243351066 -0.00029825860137437275 -0.303846709470088 -1.0532311878266225 0 0 0 0
2000001 -0.009153548728205166 -0.0001911615114947893 -1.573785695815096 -0.874521721070928 0 0 0 0
3000001 -0.009047578226078615 -0.0019566879727189956 -1.9702764053660657 -0.03169647045112975 0 0 0 0
4000001 -0.008497455004061379 -0.002380172764317379 -1.8481511331396814 0.716257433563115 0 0 0 0
5000001 -0.008098961021179645 -0.0031287177814433623 -1.37887428212977 1.2536059006361273 0 0 0 0
6000001 -0.007831252928914147 -0.004219728454402595 -0.9530506364004375 1.5742178035349834 0 0 0 0
7000001 -0.007852540323208921 -0.0054634333890989685 -0.3403646019645441 1.597735028759838 0 0 0 0
8000001 -0.010963200207029688 -0.007798894135386496 0.1368897368146126 1.4595256831965027 0 0 0 0
9000001 -0.008105650156257234 -0.005788543715012469 0.4793962370787945 1.203792552651439 0 0 0 0
10000001 -0.006745174291295519 -0.00978587385910505 0.6434741661549038 1.0010563649316457 0 0 0 0
11000001 -0.0076594041873359366 -0.009541134207658725 0.7676695203617736 0.7823958267842799 0 0 0 0
12000001 -0.00866991337502171 -0.012129479638737626 0.8355104464093824 0.5550036717941863 0 0 0 0
13000001 -0.009381603221248012 -0.011878055521984515 0.8616455557771087 0.3275293818487231 0 0 0 0
14000001 -0.009439826674974927 -0.014347549084429633 0.8004435411468211 0.1460623849309173 0 0 0 0
15000001 -0.008607087559463367 -0.015708338660606704 0.7364017179850149 -0.03039236273166786 0 0 0 0
16000001 -0.010705621437339545 -0.016806677439807526 0.6577509144746544 -0.1616188676987383 0 0 0 0
17000001 -0.01212558332548353 -0.01870612461896266 0.5628565998744095 -0.2568322383705248 0 0 0 0
18000001 -0.013317393798225139 -0.019575985595052522 0.4636645206483463 -0.3175125245161291 0 0 0 0
19000001 -0.014742106064366323 -0.020433889358685873 0.369392070380859 -0.35339344186646576 0 0 0 0
20000001 -0.016296170007765804 -0.021273131769194105 0.2868943499151941 -0.3655919986205654 0 0 0 0
21000001 -0.01858051821316395 -0.021816826788514657 0.21079768944597943 -0.36830185324700465 0 0 0 0
22000001 -0.02001209283548432 -0.02135684433641848 0.13074008852244975 -0.3577967523405411 0 0 0 0
23000001 -0.022366665083401727 -0.021344268003983858 0.05771309346856402 -0.33406348531717056 0 0 0 0
24000001 -0.0241724739908632 -0.02089845947606144 -0.00179507328101766 -0.302136093307699 0 0 0 0
25000001 -0.02542496276815833 -0.019419007643031727 -0.04964801032422912 -0.2591573556932257 0 0 0 0
26000001 -0.02604658192343105 -0.017659095918189465 -0.08448352370878953 -0.22477409395679596 0 0 0 0
27000001 -0.02614239974712467 -0.01579733321768223 -0.11474874305184515 -0.18963431766609715 0 0 0 0
28000001 -0.025189170824109815 -0.013569216190242437 -0.12506131623487682 -0.13439784143563885 0 0 0 0
29000001 -0.02322695154361954 -0.011357252254835578 -0.12692631739100474 -0.09451961503905668 0 0 0 0
30000001 -0.02008115831389659 -0.009607787260737377 -0.12611159171636202 -0.06307749921606011 0 0 0 0
31000001 -0.01629302552105447 -0.008757101521795041 -0.12508265058603402 -0.03985376980878915 0 0 0 0
32000001 -0.011428864941950556 -0.008779760709466513 -0.1128304092117274 -0.014007178144843261 0 0 0 0
33000001 -0.005716882594330862 -0.009703710382017597 -0.10554447086194076 0.002097290875303936 0 0 0 0
34000001 0.0001835992525918589 -0.012827741404778638 -0.0923089251599467 0.015961196903064002 0 0 0 0
35000001 0.006332016047819992 -0.017956094690742573 -0.07827153163287764 0.025501797444640525 0 0 0 0
36000001 0.011857716931050855 -0.02459227498598899 -0.06565996617574824 0.031195267461108397 0 0 0 0
37000001 0.01606614026276044 -0.033009646428238816 -0.053410487529646264 0.03398369533060707 0 0 0 0
38000001 0.019059305530541536 -0.043271610512799666 -0.04277229206045189 0.03488961473125838 0 0 0 0
39000001 0.019433745076414377 -0.0547370417913575 -0.03691781448674016 0.034996969332866196 0 0 0 0
40000001 0.017477016946242742 -0.06725246436508371 -0.031003446826358926 0.03514700787973572 0 0 0 0
41000001 0.012732328783471076 -0.07909763002751015 -0.02584725652537686 0.03657657352587282 0 0 0 0
42000001 0.0051591298596458295 -0.08984893672602633 -0.018814151765519413 0.03597193489442044 0 0 0 0
43000001 -0.004878033639608554 -0.09948982941290287 -0.01298425043833492 0.03502163127249531 0 0 0 0
44000001 -0.01678298197646075 -0.1070247363517189 -0.008510941377674438 0.03242489216978708 0 0 0 0
45000001 -0.03041674921002065 -0.11174375754590972 -0.004757665284479681 0.029558336480451603 0 0 0 0
46000001 -0.04489342094351061 -0.1131302360302655 -0.00153061768606356 0.02709926740018384 0 0 0 0
47000001 -0.058599242813651746 -0.1121614449780614 0.0004931189888143024 0.023760498529806773 0 0 0 0
48000001 -0.0719298607399504 -0.1065239954000362 0.0020813119389868143 0.021096716571070276 0 0 0 0
49000001 -0.0830464613286967 -0.10109695003723174 0.0023845249961305004 0.017828487578694905 0 0 0 0
50000001 -0.09251178083767962 -0.09231685646631288 0.0017746843845686442 0.01564626891289457 0 0 0 0
51000001 -0.09988787199182796 -0.08254076604454609 0.00035999126956815365 0.015458398720852903 0 0 0 0
52000001 -0.10438793410708017 -0.07183448761507118 -3.528584121845733e-05 0.016332892258639195 0 0 0 0
53000001 -0.10729908058918033 -0.06128178319982666 0.0004947442695797831 0.0172300247597864 0 0 0 0
54000001 -0.10729034916953545 -0.050993544781804935 0.0012147235849363585 0.018292529557092485 0 0 0 0
55000001 -0.10586262554896234 -0.04169977094364846 0.0034556757761659927 0.020009639029459184 0 0 0 0
56000001 -0.10264914011229345 -0.03361013622378833 0.005468530109126359 0.020329743484952315 0 0 0 0
57000001 -0.09879241704118735 -0.02694952361029564 0.008740603704190738 0.020324794474272163 0 0 0 0
58000001 -0.09415201097235779 -0.021744106896607794 0.011692346429665471 0.018191796165493827 0 0 0 0
59000001 -0.08956925655920615 -0.017347724243124533 0.013901341596493134 0.015743956332616552 0 0 0 0
60000001 -0.08451833598934501 -0.01552821064911463 0.01650567098506297 0.012883726836570299 0 0 0 0
61000001 -0.0802181700178322 -0.013491374595987626 0.016092861619173105 0.010133088111633982 0 0 0 0
62000001 -0.07624578905061774 -0.012835578374968211 0.014910246675941416 0.007713296709168527 0 0 0 0
63000001 -0.0728165583202793 -0.01265253578341439 0.01307874933130208 0.00640803623158973 0 0 0 0
64000001 -0.07010170755698984 -0.012694948382481214 0.011517602632350044 0.007271573430590405 0 0 0 0
65000001 -0.06762772589288654 -0.013130260110086781 0.01184427935160341 0.008665868161257298 0 0 0 0
66000001 -0.06589485439313156 -0.01357500706264146 0.011362703020161402 0.010005088946035303 0 0 0 0
67000001 -0.064245531827912 -0.014421763662428982 0.013000442947247464 0.010665448830233761 0 0 0 0
68000001 -0.06329136236037795 -0.015086688578403088 0.015292522240050165 0.011019275420362124 0 0 0 0
69000001 -0.06264471229219741 -0.01515195244742936 0.016654545274223703 0.011292590029382647 0 0 0 0
70000001 -0.06177895791548093 -0.015314868303686748 0.018451441585474983 0.011782070020272284 0 0 0 0
71000001 -0.06139583657847459 -0.01544447804032739 0.020862017116824564 0.011424819805796103 0 0 0 0
72000001 -0.06115008297621929 -0.01540799301977537 0.022612370312186582 0.0109574609350647 0 0 0 0
73000001 -0.06026270357423054 -0.01489245412404863 0.02654321427026496 0.011730701578720752 0 0 0 0
74000001 -0.05981089231753148 -0.01417621841042313 0.029168196510866332 0.010836891430966188 0 0 0 0
75000001 -0.05935785110723211 -0.013785715869933586 0.03314486289007603 0.010028133269070042 0 0 0 0
76000001 -0.05842019986525505 -0.012821861701443157 0.03863847249615554 0.007996292586455596 0 0 0 0
77000001 -0.05768141484527286 -0.012652832975807675 0.044275443436155554 0.004679711958882549 0 0 0 0
78000001 -0.05654301611058953 -0.011817063921061523 0.05072582990489624 -0.0009223938297942177 0 0 0 0
79000001 -0.055404263888093074 -0.011384023137748623 0.05730982185404777 -0.007965307395883732 0 0 0 0
80000001 -0.05428157069108408 -0.010508022587358811 0.0648035754086176 -0.01898804896761516 0 0 0 0
81000001 -0.05263959282144221 -0.010362563634492042 0.07017433640547294 -0.036831088188310615 0 0 0 0
82000001 -0.051612457709697565 -0.009785310734982107 0.0675537595941049 -0.05362601563434031 0 0 0 0
83000001 -0.05002427464151311 -0.009868483781501425 0.05938050478682734 -0.07301623009653578 0 0 0 0
84000001 -0.04937675831883104 -0.009810328161841138 0.04511235525216698 -0.09424767189236907 0 0 0 0
85000001 -0.04765454553995598 -0.00974565643629108 0.019339048157211297 -0.1088304161487115 0 0 0 0
86000001 -0.04645471539390474 -0.009595921085017042 -0.011585609471453857 -0.10932640125957048 0 0 0 0
87000001 -0.044996337187158474 -0.010092523278823392 -0.028628349865015543 -0.10909652367778644 0 0 0 0
88000001 -0.043938487825576286 -0.010188967713249909 -0.049968911427261765 -0.10132860145675857 0 0 0 0
89000001 -0.042691560984829936 -0.01029764215663895 -0.0696523406174004 -0.08303665632993898 0 0 0 0
90000001 -0.04135023927594655 -0.010703919025768314 -0.07700524761018229 -0.06327405815119046 0 0 0 0
91000001 -0.0400468858457023 -0.010703134647987195 -0.0797065722192645 -0.046659765737122424 0 0 0 0
92000001 -0.03871460607601006 -0.011810091210652459 -0.08483284125573197 -0.03019125479612119 0 0 0 0
93000001 -0.037522360723106454 -0.012271732491538834 -0.08300668952754003 -0.015877938112365843 0 0 0 0
94000001 -0.03636108107129868 -0.012975085548355728 -0.07710304357551478 -0.0022953862456203647 0 0 0 0
95000001 -0.03534486193528344 -0.014055395448418438 -0.068085432516948 0.010142641296622281 0 0 0 0
96000001 -0.034566465685528285 -0.014602431875558668 -0.049433528121459715 0.01784502635615632 0 0 0 0
97000001 -0.033200749646434075 -0.01556364058144614 -0.025414363701051716 0.009535639999174002 0 0 0 0
98000001 -0.032321190135691326 -0.016256126388832424 -0.019843395584675464 -0.022283312072606448 0 0 0 0
99000001 -0.03162712268383006 -0.017596869754547155 -0.046639704625297845 -0.04940509990080443 0 0 0 0
100000001 -0.03122314882861705 -0.018660792409027953 -0.08673407186095723 -0.049444320711916734 0 0 0 0
