# HZ S RI R 50
1 0.667110428289624 -0.048034763207166396 -0.08582537642568351 -0.03563395332949908 0 0 0 0
1000001 -0.017566660823963957 -0.03740307149216255 -0.4388437840414204 0.206795252373571 0 0 0 0
2000001 -0.018685102466172842 -0.019781969256541184 0.14475456666891479 0.4890251353850695 0 0 0 0
3000001 -0.017964400475468503 -0.016494866029914963 0.44648885316534254 -0.024834827948996368 0 0 0 0
4000001 -0.018679799982747596 -0.015559125510744119 0.01938244364119001 -0.22170181622524737 0 0 0 0
5000001 -0.02030467650808349 -0.013588645581057938 0.14623896587006757 -0.0954563992929163 0 0 0 0
6000001 -0.018911494833549553 -0.014121969670592024 -0.24611641167883533 -0.28694632269146186 0 0 0 0
7000001 -0.02053194463440012 -0.015449904128246643 -0.3325787731601979 0.16524604919384334 0 0 0 0
8000001 -0.023843162493501394 -0.013725188615186675 0.12678108586585005 0.23235191220432977 0 0 0 0
9000001 -0.020198876459675347 -0.013603631558184564 0.10494476599539992 -0.014732502828430194 0 0 0 0
10000001 -0.0203108315833675 -0.016922329989738052 0.12812278791635465 0.1293773325628076 0 0 0 0
11000001 -0.022430844565709096 -0.014837458688265916 0.13236000122926905 -0.1675039407865183 0 0 0 0
12000001 -0.01923509217022018 -0.017418909316802567 -0.16687432865822036 -0.141275017113206 0 0 0 0
13000001 -0.021085100368837217 -0.0164106300810938 -0.09675203458211858 0.0814614972861317 0 0 0 0
14000001 -0.0211616017580334 -0.019536253709833078 -0.09442848415106249 -0.006180225395722429 0 0 0 0
15000001 -0.022728904421419255 -0.021368431130285866 0.00012153795025660493 0.16619168623540742 0 0 0 0
16000001 -0.02302771279757866 -0.02200040719862364 0.1441703205807588 0.05190076462772083 0 0 0 0
17000001 -0.02316112686205297 -0.023223557770008788 0.04134461577582023 -0.1322963560096017 0 0 0 0
18000001 -0.02456200846170492 -0.023288744046461488 -0.005384395107552658 -0.029946885910798256 0 0 0 0
19000001 -0.023186705226252383 -0.022232169877110224 -0.06049205129718509 -0.08511302917370828 0 0 0 0
20000001 -0.023406822033250358 -0.025269352527133093 -0.046661062180990844 0.05999029240076162 0 0 0 0
21000001 -0.028670320592151022 -0.02445875547496718 0.05059432955703537 0.10001471386186891 0 0 0 0
22000001 -0.02483819597946726 -0.02622600472665187 0.040360290485492445 0.009449624750438774 0 0 0 0
23000001 -0.024898455440216207 -0.027419986743479105 0.05940456856111898 -0.00897417897615838 0 0 0 0
24000001 -0.026449023292582266 -0.028517379497711423 0.020785463673956946 -0.06737934650981617 0 0 0 0
25000001 -0.026780797279252505 -0.027494008538261883 -0.046147577769704795 -0.04533129348462636 0 0 0 0
26000001 -0.0265519229476904 -0.03173664237718542 -0.03464899022577084 0.05220296200289215 0 0 0 0
27000001 -0.025328606402824024 -0.030578704235612326 -0.0030323696606824407 -0.017449568846964605 0 0 0 0
28000001 -0.02558942531700075 -0.030976785915745358 -0.01734078815589266 0.005389481236845842 0 0 0 0
29000001 -0.02700468027638331 -0.03336488802606689 0.027958238782664277 -0.0072992720417143185 0 0 0 0
30000001 -0.028187360120015027 -0.033136936012972774 -0.0004703509741857815 -0.044245246501440474 0 0 0 0
31000001 -0.028553459002454238 -0.03499194838811534 -0.030311154588979254 0.00402873649475503 0 0 0 0
32000001 -0.027785302549471785 -0.035408934340840297 -0.01642705789626638 -0.005940132453998309 0 0 0 0
33000001 -0.028627534278976092 -0.03569020591794277 0.008681573483575478 -0.0010908411364607183 0 0 0 0
34000001 -0.028173509517712348 -0.03609974837845031 -0.00923039123773111 -0.016975098141717496 0 0 0 0
35000001 -0.030225516816662742 -0.03883236511074313 0.002941425180105887 -0.00025081545814135937 0 0 0 0
36000001 -0.030423898773465168 -0.03927995433809209 -0.007380564095495789 0.004175334624250415 0 0 0 0
37000001 -0.03067170586911628 -0.03959557848164201 0.01032310595482024 0.005474190955150243 0 0 0 0
38000001 -0.030825452291427673 -0.04093240198172175 0.00819855289932727 -0.013549532229634207 0 0 0 0
39000001 -0.03303804882239929 -0.04174069741038647 -0.0045622825503359166 -0.01562409703115244 0 0 0 0
40000001 -0.03640296931372266 -0.04231960001765173 0.02739535551041625 0.0032246748793463777 0 0 0 0
41000001 -0.03230354195721625 -0.04301322181325522 -0.015808039656872004 0.003598258643976609 0 0 0 0
42000001 -0.03256119057087804 -0.0439677062959072 0.003383128900851975 0.018331524856283865 0 0 0 0
43000001 -0.03392467926342819 -0.045640812167613266 0.017398587891724757 0.00019974080491816284 0 0 0 0
44000001 -0.03260022399259724 -0.04542861562090833 -0.006301366647616798 -0.006117346457029751 0 0 0 0
45000001 -0.034225976779665795 -0.04578305762512514 -0.0034355167418319474 -0.00834873101186309 0 0 0 0
46000001 -0.03643610605575147 -0.04496192446696307 -0.025435899178893454 -0.010866948239657188 0 0 0 0
47000001 -0.03470722348742301 -0.04734565572933435 -0.004436626926653995 0.012888739283097545 0 0 0 0
48000001 -0.03526863789087265 -0.04779389606526551 0.008410869160982257 0.00042854909096714595 0 0 0 0
49000001 -0.041494056712120767 -0.041716322499668224 0.013031489911088519 -0.017098715215400358 0 0 0 0
50000001 -0.03694161076825047 -0.050077029255928704 0.004483097090485652 -0.011225256718155035 0 0 0 0
51000001 -0.03617585822407204 -0.050535259474542744 -0.007138120217604204 0.0015411111982559685 0 0 0 0
52000001 -0.03676359698504853 -0.05293739745272033 0.0005597624437011481 0.011424187407767761 0 0 0 0
53000001 -0.0385789949412265 -0.051247497160173565 0.00021832242293133217 0.0028900225142377573 0 0 0 0
54000001 -0.037470413209309376 -0.05185523982578764 -0.0022308104907082017 0.0025023259907347535 0 0 0 0
55000001 -0.03873105610320039 -0.05331476525673898 0.0090307313930485 0.00032443228854821905 0 0 0 0
56000001 -0.03856283954138469 -0.052807397703954116 -0.0005165043162320733 -0.0062496799786249425 0 0 0 0
57000001 -0.03877505746305609 -0.05535356117352399 -0.0025310826978736127 0.0006626980668551662 0 0 0 0
58000001 -0.04117454618254306 -0.052757595586950146 -0.005137156166003309 -0.0005493850493801719 0 0 0 0
59000001 -0.04078193928018853 -0.05571681347819145 -0.0023893430309756517 0.00021820981064143971 0 0 0 0
60000001 -0.04065075480825888 -0.05622291609365078 0.000919625970409419 0.0031715407738609753 0 0 0 0
61000001 -0.04059239095947514 -0.05765929665424321 0.0009017571695212309 0.006629913244210633 0 0 0 0
62000001 -0.041687133476084604 -0.057774054233639266 0.00017318645770881923 0.00018191072991125733 0 0 0 0
63000001 -0.04189720063946538 -0.05692426438937543 -0.0005223895376914525 -0.000300941910679187 0 0 0 0
64000001 -0.04150512042705954 -0.05909678482333709 0.0009116803158255863 0.0005216561310570137 0 0 0 0
65000001 -0.042637260324683755 -0.05897020511118131 0.0011100022597580628 0.0027015143997024477 0 0 0 0
66000001 -0.04227259036117673 -0.05932335031349735 0.0012000689735236472 0.0011633425705982413 0 0 0 0
67000001 -0.04365603164994851 -0.05787127286017182 0.0018086501708357114 0.00016532003741796217 0 0 0 0
68000001 -0.04306011641865576 -0.0619827474621465 0.001938133787643002 -0.0007747224687119548 0 0 0 0
69000001 -0.04420770958212791 -0.06068554499279517 -0.0011935792255934553 0.0020403899862965254 0 0 0 0
70000001 -0.04593931776345071 -0.062432531277148665 0.0015904259050313002 -0.0017742687914423809 0 0 0 0
71000001 -0.045748501900789273 -0.06252602025746919 0.0002663813974100257 0.0008549502445366684 0 0 0 0
72000001 -0.04538487607044058 -0.06285580673551674 0.0008860886097155539 0.00023327969738668163 0 0 0 0
73000001 -0.045168538517404794 -0.0631165994509933 0.0011240901128569613 0.00012179546070289336 0 0 0 0
74000001 -0.045820001584934836 -0.0641579527990996 0.0006349784209224283 0.0003287921952988195 0 0 0 0
75000001 -0.04634616989842262 -0.0636869988717309 6.47484556280497e-05 0.0005333077818474329 0 0 0 0
76000001 -0.04625978974747789 -0.06487456539433914 -0.00016925543722108184 0.0005859643103408742 0 0 0 0
77000001 -0.04679727688204083 -0.06470221928473964 0.0009439803593696439 0.00020166882608861663 0 0 0 0
78000001 -0.047216519617883236 -0.0661463839666222 0.00035741854824519997 -0.00016721110295261695 0 0 0 0
79000001 -0.046685102590594545 -0.06731860140410743 0.0005142614832052963 0.0003332651188268645 0 0 0 0
80000001 -0.048433739037751465 -0.06810441895298563 0.0006047805823273747 0.0010289704214806368 0 0 0 0
81000001 -0.04811155997267472 -0.06742441705497697 -0.00014872603873061234 -4.256666463984553e-06 0 0 0 0
82000001 -0.048068975005459987 -0.06754921062874357 0.0002459641981509267 -0.00017433315738748446 0 0 0 0
83000001 -0.04829652459461032 -0.06849824940749423 0.0004530603975371143 -0.00017186970816180286 0 0 0 0
84000001 -0.049556245019717365 -0.06928557670849826 0.00020467014574711265 -0.00029672592404191846 0 0 0 0
85000001 -0.048914771205191665 -0.06932656299263965 -2.854444474728489e-05 -0.00039563801068039247 0 0 0 0
86000001 -0.049389222716988125 -0.06746480944320729 -3.657401756089983e-05 -0.0006904394585145479 0 0 0 0
87000001 -0.049470283351755885 -0.07154158676674577 -0.0001696823746854167 -0.00032463494606605657 0 0 0 0
88000001 -0.05039718271207769 -0.07092324729148759 -0.000596226650869132 8.701176945277133e-05 0 0 0 0
89000001 -0.04947435004735246 -0.07107501553325163 -0.00020630140921015146 -0.000286838940151382 0 0 0 0
90000001 -0.050230229993517526 -0.07289334138763345 0.00043397049391300294 1.5557104167694094e-05 0 0 0 0
91000001 -0.04973091222128228 -0.07221269143552705 0.00020727954546893921 -0.00044553420504573807 0 0 0 0
92000001 -0.05123886202395871 -0.07320461797386214 1.65061276053033e-05 -0.0006548759938035196 0 0 0 0
93000001 -0.05150114901110923 -0.07431351861415209 -0.00023240480731859605 -0.00011229630383566291 0 0 0 0
94000001 -0.05057256730310085 -0.07523786260794195 -0.0003982616708852275 0.00022706813088449614 0 0 0 0
95000001 -0.051428122456194415 -0.07487813028576146 -0.00035655704244258365 -0.00020156548342626146 0 0 0 0
96000001 -0.05186924225721603 -0.07640944446505436 -0.00023314551982066677 8.48098471338317e-05 0 0 0 0
97000001 -0.05215844112148068 -0.07638340047481089 2.8655069400391988e-05 -0.0004707634159404183 0 0 0 0
98000001 -0.051583513525185185 -0.07644332090656183 -0.0009900743673048468 -0.0006786346899947713 0 0 0 0
99000001 -0.05251773767433147 -0.07778180988470026 -0.0003115548678418996 8.625886160328995e-06 0 0 0 0
100000001 -0.05279158700214469 -0.07867803416629118 -0.0002878133276405354 -1.4352726397088495e-05 0 0 0 0
