# HZ S RI R 50
1 0.9596842583762819 0.39116536299045096 -0.08507240917541477 0.00798144433073524 0 0 0 0
1000001 -0.01675413582327084 -0.03684573595998757 4.4095908146939955 3.127312299611364 0 0 0 0
2000001 -0.01728226917920164 -0.013483088304694817 4.98733321293167 -1.350776752464564 0 0 0 0
3000001 -0.01894418701312692 -0.015190012728180128 3.0262476222209775 -3.421381633212111 0 0 0 0
4000001 -0.020264084262302934 -0.009676006911953226 0.5462179636288736 -4.215384983180853 0 0 0 0
5000001 -0.019343803988430344 -0.01114809770314364 -1.4587718054618573 -4.253993058592062 0 0 0 0
6000001 -0.01917375330792705 -0.01152222650419052 -3.0087946577986107 -3.89798403664097 0 0 0 0
7000001 -0.01977250354399802 -0.011312849417728423 -4.099781966064822 -3.265958818239189 0 0 0 0
8000001 -0.014712238259013195 -0.01762367386670088 -4.8048401003310275 -2.381686285935964 0 0 0 0
9000001 -0.016516186147292968 -0.009665083342814924 -5.1827386855435735 -1.3889817268816536 0 0 0 0
10000001 -0.01641063827969154 -0.012742078538401237 -5.246912957702629 -0.3839684899525287 0 0 0 0
11000001 -0.014534024724905881 -0.01929948372998095 -5.139650575105676 0.567521818846724 0 0 0 0
12000001 -0.035124189187537395 -0.0336744025835384 -4.941569552238547 1.4233774283545468 0 0 0 0
13000001 -0.01853366281095243 -0.01451146697110141 -4.488749122279884 2.401827545278837 0 0 0 0
14000001 -0.023416902390426573 -0.016455367874004204 -3.5662787260182034 3.2527430820799457 0 0 0 0
15000001 -0.021874885198934938 -0.017985351076137315 -2.85610415478259 3.276187622426062 0 0 0 0
16000001 -0.019146006199595663 -0.01796944051171271 -2.443699405653766 3.2924973243882545 0 0 0 0
17000001 -0.01987947358481191 -0.019773446340604663 -1.894316790268507 3.1521102251498196 0 0 0 0
18000001 -0.020444208742935257 -0.020590540796989007 -1.3970848846826314 2.943665198689864 0 0 0 0
19000001 -0.02084800764520364 -0.0204874792084631 -0.9959971123342929 2.634335394320422 0 0 0 0
20000001 -0.021554837410682714 -0.021088209249111624 -0.8432148535430697 2.406325152145898 0 0 0 0
21000001 -0.022033142210898176 -0.022202354676261853 -0.5447242475822334 2.1954455616169546 0 0 0 0
22000001 -0.022455438754244092 -0.023145499669613826 -0.24314655427517645 1.9904124163142376 0 0 0 0
23000001 -0.02329268779024137 -0.02380460354111708 -0.17414120044866993 1.8157067515073988 0 0 0 0
24000001 -0.024138611308086016 -0.02431336568856841 -0.09674546782551968 1.6391877503103403 0 0 0 0
25000001 -0.025370575322973387 -0.025072507092726296 -0.025785032957945403 1.4596097835273476 0 0 0 0
26000001 -0.026064720663397534 -0.025592996693739472 0.055202614453782085 1.3136841931491932 0 0 0 0
27000001 -0.02697854310447422 -0.02638629977868794 0.1289491763604748 1.1825558911626883 0 0 0 0
28000001 -0.027696149188832037 -0.02701775716634703 0.18776289937618762 1.0604499105803202 0 0 0 0
29000001 -0.02822163295389153 -0.02764524817242727 0.23314040251487517 0.9451554513456648 0 0 0 0
30000001 -0.028684804018108415 -0.028071794117409975 0.26540144495630424 0.8353963131446014 0 0 0 0
31000001 -0.02953713524963746 -0.02874311085636913 0.28577866929532025 0.7456885971007359 0 0 0 0
32000001 -0.03015265808429129 -0.029498249700444935 0.29223655966443535 0.6451663836546309 0 0 0 0
33000001 -0.029121727288652987 -0.03111926366594646 0.3391491396202834 0.5236682691520872 0 0 0 0
34000001 -0.029006923628906955 -0.03198170823441041 0.3442475128579354 0.4429027420800427 0 0 0 0
35000001 -0.029600722708941565 -0.03271237939656423 0.3246950432406704 0.37299711305988725 0 0 0 0
36000001 -0.03009554753383279 -0.033360119123946194 0.31007776202563125 0.3117623401467085 0 0 0 0
37000001 -0.030593480669135805 -0.0341554917866451 0.29706770462412946 0.25507734759434003 0 0 0 0
38000001 -0.030391502980721453 -0.034079834309389365 0.3065994629320816 0.20262869233296638 0 0 0 0
39000001 -0.030391027024653128 -0.034615868921591825 0.2985268611506898 0.15522099599185724 0 0 0 0
40000001 -0.030346973203506763 -0.03528463183983787 0.29024557555325414 0.1133743439567944 0 0 0 0
41000001 -0.030179891088483603 -0.03522847209374872 0.2885092185832811 0.0812130654890494 0 0 0 0
42000001 -0.02992318453539667 -0.034997593328964176 0.2836646273741427 0.05507295913500146 0 0 0 0
43000001 -0.030073440767963977 -0.03451476407084137 0.27874759987263237 0.035813854404635005 0 0 0 0
44000001 -0.029876936652139575 -0.034476766124401745 0.26597647466287455 0.017288440260520104 0 0 0 0
45000001 -0.029853684781886183 -0.03391277596301196 0.2539750415335751 -0.0027667884910190033 0 0 0 0
46000001 -0.030345986712312256 -0.03335081653243058 0.23646439626290996 -0.020492190015623704 0 0 0 0
47000001 -0.030617032845296863 -0.03342437158827252 0.2155442891732493 -0.033486841737334384 0 0 0 0
48000001 -0.03146730937948881 -0.03271782958984623 0.19345462236705702 -0.043958426808115694 0 0 0 0
49000001 -0.03165525193862864 -0.032938442525044555 0.1684061611945958 -0.05114646319376344 0 0 0 0
50000001 -0.03203654116215058 -0.03262932639257685 0.14492517018864898 -0.05605303860216085 0 0 0 0
51000001 -0.0327303057739331 -0.03273882652905664 0.12419979477896205 -0.06103451560598257 0 0 0 0
52000001 -0.03309167002883829 -0.03233729484995191 0.10325001405517274 -0.06061730573663788 0 0 0 0
53000001 -0.03342444351910543 -0.03238677065615738 0.08337331381987106 -0.057439217036824614 0 0 0 0
54000001 -0.03327698456208295 -0.03207827905538996 0.06517635402869582 -0.05369456808178641 0 0 0 0
55000001 -0.0338054938411419 -0.03176659952848401 0.05066761919239479 -0.045085362860608304 0 0 0 0
56000001 -0.034072024361827234 -0.031125467022222318 0.03891900439581725 -0.03461028929214452 0 0 0 0
57000001 -0.03426177473872428 -0.030964257558716016 0.02920354909526367 -0.02472385468053471 0 0 0 0
58000001 -0.03445800324969495 -0.030553592542705007 0.023416612951310093 -0.01627059295753602 0 0 0 0
59000001 -0.034788292907362815 -0.030498486474475846 0.020856422640078667 -0.007441955222067 0 0 0 0
60000001 -0.03444208497711161 -0.030658338053130414 0.020311503774250568 3.860177595015448e-05 0 0 0 0
61000001 -0.034254144885478885 -0.030266534653173898 0.01965428346277226 0.004818055712503912 0 0 0 0
62000001 -0.034097169478516855 -0.030361721544164853 0.019958454439369926 0.01004049015549424 0 0 0 0
63000001 -0.03369223183679613 -0.030137313617930386 0.020566671036841646 0.013669005604214652 0 0 0 0
64000001 -0.033104291580296034 -0.030114397505612657 0.020211389069583238 0.016581230593227074 0 0 0 0
65000001 -0.03287040301032326 -0.03029327388326916 0.021214443645188256 0.019811825673395508 0 0 0 0
66000001 -0.03250564492483192 -0.030280743888478828 0.022676237139613382 0.022551718166822703 0 0 0 0
67000001 -0.031879173987911825 -0.030341987388230362 0.024581400399458626 0.025087801243578355 0 0 0 0
68000001 -0.03161411528928751 -0.030705372982983783 0.025917105135836574 0.026944908335111963 0 0 0 0
69000001 -0.03133341270867547 -0.030677076363617554 0.02757917796742651 0.029887025921427265 0 0 0 0
70000001 -0.030613300730311918 -0.030842158660197076 0.029474322138229356 0.0315175744562447 0 0 0 0
71000001 -0.029818538184382105 -0.030963752822983324 0.03320032838614869 0.03382435113028486 0 0 0 0
72000001 -0.02929327361023157 -0.031469154751258936 0.03599781804650151 0.03568237042870555 0 0 0 0
73000001 -0.02855668881706174 -0.03150008902749288 0.040113853230634794 0.03729081175561709 0 0 0 0
74000001 -0.0278115913217652 -0.03172954953768917 0.04521758131027815 0.038733182722464336 0 0 0 0
75000001 -0.027283453835020233 -0.03222179126558431 0.05234893057388787 0.03803586734303056 0 0 0 0
76000001 -0.02624327020280487 -0.03261891584913696 0.05931186295691888 0.035491966811155545 0 0 0 0
77000001 -0.02565215668549542 -0.03325497366686622 0.06514289246000285 0.027403652573885287 0 0 0 0
78000001 -0.02499335243284412 -0.033833597299127265 0.063670250259062 0.020941157841314655 0 0 0 0
79000001 -0.023872057236009193 -0.03455208342743714 0.06072564470478844 0.017836099984963057 0 0 0 0
80000001 -0.023073626395836103 -0.035209046670904666 0.06147195041723357 0.018908278514351194 0 0 0 0
81000001 -0.02199357118771118 -0.035773846843939076 0.06379514126150918 0.01828242175259612 0 0 0 0
82000001 -0.02152932751438615 -0.036871489733757576 0.06662060496473875 0.013602197289720681 0 0 0 0
83000001 -0.020679896127710606 -0.03764496001906586 0.06516333895802628 0.010529436230015751 0 0 0 0
84000001 -0.019930858715333195 -0.038841051650671414 0.06330749513789528 0.01122018477656597 0 0 0 0
85000001 -0.0193003209355297 -0.03966707683929992 0.06120609850848175 0.013433537456122272 0 0 0 0
86000001 -0.01844199820839374 -0.04059661348862256 0.061579434154207885 0.018631100684283777 0 0 0 0
87000001 -0.01745545124552961 -0.04195306963601762 0.07034549505122743 0.02402528555347172 0 0 0 0
88000001 -0.017181532603237903 -0.042983422801875386 0.07814897233644084 0.025086333084313534 0 0 0 0
89000001 -0.016280754971232103 -0.04444867662960353 0.08574500787339485 0.02649364826306999 0 0 0 0
90000001 -0.015440787633392067 -0.04551016657763269 0.09609211537489194 0.02590957160940089 0 0 0 0
91000001 -0.015168831715984338 -0.046652429702223185 0.10702019100642751 0.02474735203445058 0 0 0 0
92000001 -0.014485593432986903 -0.04851395924856246 0.11677656360123514 0.024666968793326235 0 0 0 0
93000001 -0.014030149760382362 -0.0496208429624082 0.13294490472850365 0.029731909433358288 0 0 0 0
94000001 -0.013598330215383066 -0.05110320242648 0.16286345221472218 0.03167864971129286 0 0 0 0
95000001 -0.013252723912452828 -0.0526678154716223 0.2050441708162153 0.021643204926353146 0 0 0 0
96000001 -0.012568209498527695 -0.05373646562482675 0.25907288626693553 -0.013501394257322486 0 0 0 0
97000001 -0.012717704176702885 -0.05570317522763535 0.31070587258177046 -0.08673403895957155 0 0 0 0
98000001 -0.012543408788891059 -0.05717761166336449 0.32308476081131016 -0.2118840408857109 0 0 0 0
99000001 -0.010607331584223343 -0.057910511372260234 0.2375456994332406 -0.3402880123628201 0 0 0 0
100000001 -0.012837186955740256 -0.06074677746570655 0.09237507638596448 -0.3840479867693114 0 0 0 0
