# HZ S RI R 50
1 0.6816403719244812 0.15342930554485087 -8.044823906113178 -5.454939807113853 0 0 0 0
1000001 -0.017349254185840324 -0.036798692696399786 0.3059281203832217 1.5549395081171455 0 0 0 0
2000001 -0.018969269633156413 -0.020704703137253 1.3111617102795916 -0.5985347389243715 0 0 0 0
3000001 -0.018031818048964917 -0.016787948094920138 -0.27189387993783165 -1.3056499203797496 0 0 0 0
4000001 -0.01921231773180121 -0.015769732485220258 -0.6124887185295164 0.03997311065224251 0 0 0 0
5000001 -0.02009126086101499 -0.013965952486867933 -0.14285642222197328 -0.17049667439282296 0 0 0 0
6000001 -0.01849934874605818 -0.014763767912738214 -0.3976078133832079 -0.10793831440898131 0 0 0 0
7000001 -0.020534859877534145 -0.015767983058035732 -0.37631958812372407 0.42937150255931894 0 0 0 0
8000001 -0.024221475819507843 -0.013746817448806419 0.2944916656940188 0.25222241118495803 0 0 0 0
9000001 -0.02009640931365401 -0.013698486331704934 -0.09923171455618308 0.1350406901603405 0 0 0 0
10000001 -0.020169050926200877 -0.017922413776720835 -0.3129299405108494 0.4630322446722543 0 0 0 0
11000001 -0.02262752074548312 -0.014851946437350374 0.6482963594629286 0.2999955854828517 0 0 0 0
12000001 -0.018982704782515344 -0.017814401705458376 0.4269489980029133 -0.634072614112168 0 0 0 0
13000001 -0.021159763854317847 -0.016917500692508674 -0.2998262469173329 -0.42431392985739325 0 0 0 0
14000001 -0.02122100133651774 -0.019977936389767435 0.13018100706233085 -0.39745996752147006 0 0 0 0
15000001 -0.02263465772934183 -0.02195674094102425 -0.5865844184909935 -0.2391548367998298 0 0 0 0
16000001 -0.022899262737530422 -0.02286715444793851 -0.518476555125043 0.3175636248305176 0 0 0 0
17000001 -0.024150516898826198 -0.023606393921404397 0.2596712739973249 0.4754684527069711 0 0 0 0
18000001 -0.02457374100969219 -0.02387749502033401 0.0581479449495859 0.12069903058665164 0 0 0 0
19000001 -0.02381520327920532 -0.022382502844927387 0.006662602988748314 0.30019673907123823 0 0 0 0
20000001 -0.02385258703126103 -0.0256911644312612 0.23523834744574268 -0.003759544615665255 0 0 0 0
21000001 -0.0283772308997055 -0.024771968907073436 0.17865529827961618 -0.29199980973470124 0 0 0 0
22000001 -0.024925880031229808 -0.026853108938025973 0.0015747768223138717 -0.1256640493873935 0 0 0 0
23000001 -0.02520233796885577 -0.02773293616174188 -0.005651288579189245 -0.23456924148312977 0 0 0 0
24000001 -0.026606065622022956 -0.029189902437634554 -0.2918842587146178 -0.06091081688324562 0 0 0 0
25000001 -0.02713951747206105 -0.028059364037331575 -0.2066503100926649 0.20450346387299942 0 0 0 0
26000001 -0.02682796212421738 -0.032040782085186174 0.18490940369846587 0.2531197500676465 0 0 0 0
27000001 -0.025063404374644292 -0.03125159424939704 -0.047224389580906606 -0.11284872288613375 0 0 0 0
28000001 -0.026293346825532388 -0.030539484973390617 0.03507046210456975 -0.03133255377117831 0 0 0 0
29000001 -0.02712096084128438 -0.033900824538874545 0.04264114571326986 -0.09081515090549512 0 0 0 0
30000001 -0.028515152384671207 -0.034094693937600715 -0.0411256462844794 -0.15340056887233636 0 0 0 0
31000001 -0.028852124977652514 -0.0355202686754624 -0.06542835637491415 0.06217929698243355 0 0 0 0
32000001 -0.02794421480769239 -0.035940831360076836 -0.05362555555231549 -0.05916748278110079 0 0 0 0
33000001 -0.028985044380031372 -0.03648763937871268 0.028662329086525606 -0.006366322765746989 0 0 0 0
34000001 -0.028503133809893926 -0.03670343179162888 -0.0034008921623464436 -0.09635692061481245 0 0 0 0
35000001 -0.030265696261146714 -0.03928336724168316 -0.024027708384249818 -0.009939427998803424 0 0 0 0
36000001 -0.03060962211820691 -0.04003229666388557 -0.036217385432834814 -0.004911212103906005 0 0 0 0
37000001 -0.031115328066768783 -0.040301993168602675 -0.023250755439977563 0.033923076677427604 0 0 0 0
38000001 -0.030960095929389267 -0.04152198220123434 0.023634708969639144 0.005521742550978335 0 0 0 0
39000001 -0.03283898742261072 -0.04235809833549026 0.028660290340688017 -0.018542268322730447 0 0 0 0
40000001 -0.03620535998579102 -0.04367332671645235 -0.048998219931349805 -0.1277567554805513 0 0 0 0
41000001 -0.03244207708379871 -0.04386442386785293 0.04021282289563615 -0.03219081714731229 0 0 0 0
42000001 -0.0326552107347186 -0.04463268486808051 -0.05132040721219051 -0.07839843373779633 0 0 0 0
43000001 -0.03414437290530698 -0.046348285560215745 -0.10125653674479795 -0.0017319678197430515 0 0 0 0
44000001 -0.03283962271915529 -0.04631126995472401 0.01752454322840309 0.03497628669713763 0 0 0 0
45000001 -0.034110658584363705 -0.04623293097653262 -0.027260092670109926 0.04659404092056032 0 0 0 0
46000001 -0.03764409545600124 -0.04616849545661452 0.038795318586061306 0.0870644787468481 0 0 0 0
47000001 -0.034993401794904566 -0.04808519351385127 0.025320311368118662 -0.041529741803628915 0 0 0 0
48000001 -0.03563397802683456 -0.04848792124835077 -0.04130993046003377 -0.04875216601946754 0 0 0 0
49000001 -0.04324590094758283 -0.04330298804977306 -0.3715863909193492 -0.0975731594132661 0 0 0 0
50000001 -0.036818042944751786 -0.0509765336081188 -0.05294203546680773 -0.013713662262624146 0 0 0 0
51000001 -0.03638942460096842 -0.051256946367100285 -0.018847169545509017 0.04066055515168416 0 0 0 0
52000001 -0.03715839842311341 -0.05287685859146695 0.022779609451321355 0.04114911068494487 0 0 0 0
53000001 -0.03874513533709364 -0.05226647386546989 -0.011251536648046127 0.013649614202449903 0 0 0 0
54000001 -0.03729495936459148 -0.05268232312865877 0.0008325924123262177 0.007580393172282703 0 0 0 0
55000001 -0.03764783010891372 -0.053982851710960005 0.059683149917750436 0.04006940750922979 0 0 0 0
56000001 -0.038664784197728855 -0.0539103048688109 -0.002026117957398546 -0.025469421132197027 0 0 0 0
57000001 -0.03866269095562577 -0.055903189154163924 -0.014410550091614488 0.009839539103001012 0 0 0 0
58000001 -0.04626662339737686 -0.05381528739709047 0.19470324563630909 0.11740437565350097 0 0 0 0
59000001 -0.04038059596536405 -0.056640484793633164 -0.005630406244821731 0.00928867371131674 0 0 0 0
60000001 -0.04066205650348608 -0.05710015224285802 0.003652339451822744 0.02880412660891222 0 0 0 0
61000001 -0.04085549168724887 -0.05816735095996261 6.673362161696388e-05 0.04130466790576666 0 0 0 0
62000001 -0.041812822222189246 -0.05890762101223794 0.005501595554679495 0.005606158479291566 0 0 0 0
63000001 -0.041789802027533705 -0.05817564171571745 0.018917709943856886 -0.018481131727245807 0 0 0 0
64000001 -0.04071758449389848 -0.059698467920732384 -0.01438291486238684 0.004684056593009737 0 0 0 0
65000001 -0.042533088476546195 -0.06001764409255409 -0.009820077918868573 -0.011422396664672058 0 0 0 0
66000001 -0.04278665242394617 -0.060332415608260685 -0.009535772128979625 -0.0017752569227093696 0 0 0 0
67000001 -0.0411681629851248 -0.061685011775069035 -0.022742633779147602 -0.019161371641852436 0 0 0 0
68000001 -0.042980939381923294 -0.062472708714548145 -0.007203061620230346 0.0033717995375378606 0 0 0 0
69000001 -0.04426768420567932 -0.06170003571480725 0.03360383116563336 -0.019628165035436494 0 0 0 0
70000001 -0.045237219235056594 -0.06404075427984136 -0.019284029794961546 -0.01818066574114916 0 0 0 0
71000001 -0.04587668148775369 -0.06361181732580229 0.0033410697941356105 -0.007664685916957412 0 0 0 0
72000001 -0.045296863972328696 -0.06433357648664792 -0.004049078815158648 -0.012760090019746354 0 0 0 0
73000001 -0.04516509269622533 -0.06407122703937551 0.0003175355020666955 -0.020630862956295525 0 0 0 0
74000001 -0.04573846116128008 -0.06515190932691735 0.0008975611553790873 -0.017109972016475326 0 0 0 0
75000001 -0.04672759746033684 -0.06495269084760869 0.0068594093516468405 -0.008769044300979209 0 0 0 0
76000001 -0.045213676926140096 -0.06794846343236902 0.030645576994471704 0.05467347358593485 0 0 0 0
77000001 -0.04690431290652495 -0.06600979023205784 0.01782572531727241 -0.018138007384054293 0 0 0 0
78000001 -0.04703649349603088 -0.06714556248287894 -0.013872663904048227 -0.029878905066068346 0 0 0 0
79000001 -0.04654865053625256 -0.06786040447991294 -0.001502143862446562 -0.007038631922136899 0 0 0 0
80000001 -0.04804740362291782 -0.06959762596773601 0.018163250163906346 -0.021422165885398067 0 0 0 0
81000001 -0.04775611696212294 -0.06863768451827496 -0.016296256896763783 0.0036385734829852702 0 0 0 0
82000001 -0.048147329340995665 -0.06856599097669346 0.005080196849992999 -0.0014186068848863918 0 0 0 0
83000001 -0.04874950701123942 -0.06970115188812058 0.005413882911164619 -0.016682239005014733 0 0 0 0
84000001 -0.04938572006586787 -0.07087971644320218 -0.012746119685625532 -0.026999077992422828 0 0 0 0
85000001 -0.04741621160918569 -0.07117745025425662 -0.010679519168604172 0.009699146498537687 0 0 0 0
86000001 -0.04951134289301592 -0.06963572025655881 -0.028552636393513447 -0.00747817910648315 0 0 0 0
87000001 -0.049393934680122493 -0.07235513051343927 -0.015988414126102194 -0.003380261144153839 0 0 0 0
88000001 -0.05037902455633031 -0.07256528520020519 -0.006296360129021369 0.0012223587107941748 0 0 0 0
89000001 -0.05020816955296449 -0.07201802780217217 -0.01523412525614565 -0.005517074823293975 0 0 0 0
90000001 -0.05044473986305276 -0.0742524322841777 -0.004110313014616529 -0.00973770978096991 0 0 0 0
91000001 -0.0513663360792336 -0.0738643603730278 -0.002856033881294448 -0.02127728117155463 0 0 0 0
92000001 -0.05069635564160076 -0.07449302204484633 -0.015789978910316683 -0.01833299551702313 0 0 0 0
93000001 -0.05149351597988931 -0.07571994543014533 -0.008594950094555794 -0.014282577628536575 0 0 0 0
94000001 -0.05054640879037456 -0.07693192114451174 0.012149740417675244 -0.01673673820277021 0 0 0 0
95000001 -0.05173214045454818 -0.07695968774391411 -0.005995592868222503 -0.008320529744844108 0 0 0 0
96000001 -0.051578548901862815 -0.07773261531056615 -0.0008171079281046446 -0.006593898179237187 0 0 0 0
97000001 -0.05226678242081154 -0.07811294753680834 0.012536870964336819 -0.014104124446554702 0 0 0 0
98000001 -0.05304076268973505 -0.07806771374366946 -0.011648761555965618 0.015181187095306293 0 0 0 0
99000001 -0.052498214938213765 -0.07937880622439766 0.004422858985858717 -0.02039406423091685 0 0 0 0
100000001 -0.052771527539332 -0.08026871409958941 0.001688538344518647 -0.01806904609459018 0 0 0 0
