# HZ S RI R 50
1 0.9415971618341125 -0.21425999383414274 -9.236152026690776 -7.314110937761125 0 0 0 0
1000001 -0.009227660115273333 0.0002326973469031585 -0.030306631811959153 0.06298120247426134 0 0 0 0
2000001 -0.008861966609023917 0.00033246633689408594 0.15227922074450662 0.028021437933044707 0 0 0 0
3000001 -0.007898318668388934 -0.0004972562495789124 0.08807967295620994 -0.3420454491682047 0 0 0 0
4000001 -0.007601629336149412 -0.0008230177599907087 -0.05954272081039111 -0.03246688315230097 0 0 0 0
5000001 -0.01115634637029433 0.00010480635067732187 -0.01400230826982174 -0.04026970610409114 0 0 0 0
6000001 -0.00673200941990996 -0.0013158632700854633 -0.08458040041858199 -0.07946658972070306 0 0 0 0
7000001 -0.006795657208179628 -0.0018098260910609548 -0.0876886077330164 0.035183842799238155 0 0 0 0
8000001 -0.008678490730771635 -0.0027701306710220443 0.058147002970963375 0.07246720911998919 0 0 0 0
9000001 -0.006222555112035877 -0.0006674117031897657 -0.0820771134798538 -0.055742266390899284 0 0 0 0
10000001 -0.0038831027024711106 -0.002692294011443099 0.014232935363386375 0.05901599602054626 0 0 0 0
11000001 -0.005428106342982622 -0.003333697599999158 0.13434559592600803 0.04588923744105995 0 0 0 0
12000001 -0.0047617318309047365 -0.004996121696708016 0.06866352618632966 -0.1867515748817913 0 0 0 0
13000001 -0.004266255907601443 -0.005504242530251817 -0.03341646495344188 -0.0764434399388588 0 0 0 0
14000001 -0.0038741697112323974 -0.006342140757155693 0.03433424176646026 -0.09802567086122561 0 0 0 0
15000001 -0.00307870470590733 -0.007037399828346055 -0.21706847054286776 -0.06107494249939171 0 0 0 0
16000001 -0.0023282427053706836 -0.008023190862188735 -0.1312134515047779 0.17476577466562018 0 0 0 0
17000001 -0.0020099191100823198 -0.008676596578209175 0.14266719409325615 0.11920174757982555 0 0 0 0
18000001 -0.0014463758998550839 -0.009363103649228167 0.049664583926975044 0.04131146371881961 0 0 0 0
19000001 -0.0012026377394203653 -0.010205832955684167 0.10346124882018513 -0.0178865097252654 0 0 0 0
20000001 0.000374572104334725 -0.01104051367561289 0.038365987041653817 -0.18414595778870715 0 0 0 0
21000001 7.401238364276776e-05 -0.013131605958232158 -0.22802052174887685 -0.02635700452527554 0 0 0 0
22000001 0.0010091142802409717 -0.012547019867797259 -0.0314226696111675 0.042226919872115666 0 0 0 0
23000001 0.0024698817765386556 -0.013986792233658894 -0.06441374826421928 0.03473734762001232 0 0 0 0
24000001 0.003621148991883024 -0.01498796826622078 -0.021768456034171352 0.10341361463926636 0 0 0 0
25000001 0.003976518429076244 -0.01674820037832485 0.07129054503992195 0.06592358563180864 0 0 0 0
26000001 0.006697839341792573 -0.016823119351510565 0.027391294745314515 -0.062252535330149225 0 0 0 0
27000001 0.006041103430820767 -0.01765507951110563 0.04895235513414189 -0.04667842472684469 0 0 0 0
28000001 0.0070098819882203 -0.021092452427707617 -0.03560872990196442 -0.008296693306554035 0 0 0 0
29000001 0.009406037040509074 -0.021555903212010667 -0.06967338202981019 0.029942701122475306 0 0 0 0
30000001 0.010564468366897927 -0.02456613776082734 -0.019450706441226453 0.04685662732257286 0 0 0 0
31000001 0.01174047538127199 -0.027010674506154856 0.025763411444518425 0.04907054546590068 0 0 0 0
32000001 0.013608905188523939 -0.02876065800464055 0.029076395448476552 0.01620686194914566 0 0 0 0
33000001 0.014272301711983086 -0.03186924975951347 0.013028716398474516 -0.025431090451642466 0 0 0 0
34000001 0.014779895658076395 -0.03431909118932831 0.018289884706875034 -0.006348447011907531 0 0 0 0
35000001 0.016041601067308224 -0.03915501429396898 -0.0027365849969194778 -0.02064315344316443 0 0 0 0
36000001 0.01666966453833127 -0.04297776016699858 0.02298498283786893 0.026712690916792944 0 0 0 0
37000001 0.01654618993897669 -0.04706794044892507 0.010733481514398303 -0.044983601929448336 0 0 0 0
38000001 0.016726519907263003 -0.051233998519255676 -0.031788066894431366 -0.01456486847636833 0 0 0 0
39000001 0.015266701287524474 -0.05645336153013421 -0.022419867952042902 0.017738144312568604 0 0 0 0
40000001 0.01329708589130268 -0.06277458902324093 0.06900816081041927 -0.12262143427718997 0 0 0 0
41000001 0.012795430923163924 -0.06548553753256713 0.028044257956072256 0.028228418607741366 0 0 0 0
42000001 0.010351332299123508 -0.06992020227686953 0.026830442102198378 -0.03235352056143829 0 0 0 0
43000001 0.007173781649449244 -0.07520918379992957 -0.029903605453928048 -0.054260517918589976 0 0 0 0
44000001 0.0041030031849729085 -0.07819983128722437 -0.020417716886624367 0.021307115406339765 0 0 0 0
45000001 -0.000733845859603701 -0.08160919449031186 -0.03517380635328118 0.02450819268243963 0 0 0 0
46000001 -0.00868627862642278 -0.08493619343329863 -0.06294940850920261 0.03923535398834744 0 0 0 0
47000001 -0.010490289766510535 -0.08809483840260302 0.019941821792794433 0.00971691112514875 0 0 0 0
48000001 -0.016204910846454423 -0.0893630481528189 -0.003995337914877897 -0.02108251851680536 0 0 0 0
49000001 -0.029775748109196372 -0.08818054759274484 -0.1572528357446108 -0.022528448828804216 0 0 0 0
50000001 -0.02725553526223042 -0.09227155113346379 -0.023779847698307797 -0.015446334426905696 0 0 0 0
51000001 -0.03208976520497616 -0.09234810358390899 -0.006381863634639017 0.03212991042932304 0 0 0 0
52000001 -0.037763072270779866 -0.09159597070824772 0.02212186889122389 0.0356313700208398 0 0 0 0
53000001 -0.04353610691981816 -0.08949090968679821 0.005512117737509582 0.015179404266274597 0 0 0 0
54000001 -0.04652697696283727 -0.08824528567018497 0.004055201309063448 -0.0024233111680147237 0 0 0 0
55000001 -0.050675800216218196 -0.08606402964991755 0.049457789659590946 0.013139538285746462 0 0 0 0
56000001 -0.05426700817760503 -0.08293341512730469 -0.010110548756691307 -0.011263116750972094 0 0 0 0
57000001 -0.05886869713264892 -0.08114586702449926 0.0009170824589093177 0.008048933096009032 0 0 0 0
58000001 -0.06624198878280389 -0.0732629668246522 0.16969473458010928 0.03279058585266587 0 0 0 0
59000001 -0.06467187228246728 -0.0741479006535932 0.00392886382881796 0.007182664127434096 0 0 0 0
60000001 -0.0661174904265074 -0.0708009776712921 0.020637892998766033 0.005838564058428131 0 0 0 0
61000001 -0.06787795817513496 -0.06791584645830326 0.022422481852722047 0.00960674599209962 0 0 0 0
62000001 -0.06917959499267964 -0.06421314990914104 0.009563791616148037 -0.005862856196270073 0 0 0 0
63000001 -0.06927438432621123 -0.06119843446355032 -0.007021331101380704 -0.010322841735780535 0 0 0 0
64000001 -0.06942716913462302 -0.05940644830967602 0.006297956661420407 0.007700304231821351 0 0 0 0
65000001 -0.06930539979517644 -0.05520253428158499 0.0022327395773055728 -0.00010148008474304323 0 0 0 0
66000001 -0.07000577716914709 -0.05237829864432238 0.00390941877132972 -0.0007067026465675788 0 0 0 0
67000001 -0.062487035870645476 -0.0511861115266897 -0.14219998297292827 -0.052649412519040706 0 0 0 0
68000001 -0.0693372989088613 -0.048360252183824434 0.0003581425945714053 -0.008149387848878836 0 0 0 0
69000001 -0.06812518697663526 -0.04530334182398333 -0.014301327888423131 -0.013141878430969681 0 0 0 0
70000001 -0.06829046057713299 -0.04371256450479364 -0.01399431053734011 0.0015211649010614344 0 0 0 0
71000001 -0.06664686830000008 -0.04132380463639457 0.005710300858506479 -0.006401420306603171 0 0 0 0
72000001 -0.06588864160743423 -0.040359310922067425 -0.0026991210634196 0.0018070343123273932 0 0 0 0
73000001 -0.06403326260657817 -0.03904837472713027 -0.011403878737019115 -0.00953077677024792 0 0 0 0
74000001 -0.06315538159976727 -0.03732151265674431 -0.015579564153087738 -0.0078417211332036 0 0 0 0
75000001 -0.06161615691422834 -0.03610732127300297 -0.01658889470763018 -0.003698470994104353 0 0 0 0
76000001 -0.059628337919916403 -0.03897533094555833 0.017442161989770825 0.09667084547341384 0 0 0 0
77000001 -0.05926802592299552 -0.034620338711033906 -0.010907872201311423 -0.0010350738662182812 0 0 0 0
78000001 -0.058142841777047274 -0.03393170111714727 0.005461121089121475 0.0004500569072604634 0 0 0 0
79000001 -0.056584878748916954 -0.03413893853182945 -0.008927443785352073 -0.023032751013145652 0 0 0 0
80000001 -0.056263365629853256 -0.032710243070258646 -0.008279346045104741 -0.013609973892629346 0 0 0 0
81000001 -0.05450152257717301 -0.03277473271084163 0.0010351551971633283 -0.005427280575548545 0 0 0 0
82000001 -0.053034784740079666 -0.03254895220340512 -0.0166270853494523 0.002955841771856352 0 0 0 0
83000001 -0.052267949262058064 -0.032268717047847395 -0.006038422310226458 0.005642267598342095 0 0 0 0
84000001 -0.051455248249855 -0.032202646287487535 -0.0005789614511230111 -3.677655398038755e-05 0 0 0 0
85000001 -0.05114873039015895 -0.035148754899939946 0.06532339386899719 0.002073420791446365 0 0 0 0
86000001 -0.04862783162713163 -0.03244851822896713 0.00539497962033638 -0.011901110398084632 0 0 0 0
87000001 -0.047966627997929306 -0.03282345286107567 -0.0018070652236326591 -0.008944935653879488 0 0 0 0
88000001 -0.04703028379636611 -0.03273084529523987 -0.002563343932895177 -0.011410383841720658 0 0 0 0
89000001 -0.04555454218829534 -0.03330279495172342 0.005402020629540548 0.00696330528227163 0 0 0 0
90000001 -0.045416276120797 -0.03343794978630991 -0.004082990568014142 -0.0009095023853883575 0 0 0 0
91000001 -0.04396995466690595 -0.0335637940967323 0.005096020227929434 -0.011039148793508636 0 0 0 0
92000001 -0.04291720732468108 -0.03451806430521987 0.0012242291383656202 -0.011453115843775633 0 0 0 0
93000001 -0.04259579106103825 -0.03473836714030791 -0.004336431001840296 -0.0060890031176065226 0 0 0 0
94000001 -0.04233909791641105 -0.03524375991264178 -0.011461847791690596 -0.03113419554653106 0 0 0 0
95000001 -0.041270288043542415 -0.03595804055762059 0.0008763904914350697 -0.007491660805128625 0 0 0 0
96000001 -0.04072586152993358 -0.03661189259269655 0.002466621780388625 -0.008999435721846232 0 0 0 0
97000001 -0.03949842749970015 -0.036847349612160026 0.0037834713159516516 -0.013910889257810262 0 0 0 0
98000001 -0.03869253436646239 -0.037474064817901276 0.014782240526510141 -0.001835614990498731 0 0 0 0
99000001 -0.038782423306146875 -0.03845221935760286 -0.002824782267395424 -0.010790533606953678 0 0 0 0
100000001 -0.03811707539212118 -0.039072415469607116 -0.0011247281057731099 -0.012401692616987823 0 0 0 0
