
**** 01/10/25 21:55:29 **** PSpice 23.1.0 (30 January 2024) *** ID# 0 ********

 ** Profile: "SCHEMATIC1-TransientAnalysis"  [ E:\Onedrive\Juan\Documentos\Descargas\sbomc90(1)\opa2675-pspicefiles\schematic1\transi


 ****     CIRCUIT DESCRIPTION


******************************************************************************




** Creating circuit file "transientanalysis.cir" 
** WARNING: THIS AUTOMATICALLY GENERATED FILE MAY BE OVERWRITTEN BY SUBSEQUENT SIMULATIONS

*Libraries: 
* Profile Libraries :
* Local Libraries :
.LIB "../../../OPA2675.lib" 
* From [PSPICE NETLIST] section of C:\cds_spb_home\cdssetup\OrCAD_PSpiceTIPSpice_Install\23.1.0\PSpice.ini file:
.lib "nom_pspti.lib" 
.lib "nom.lib" 

*Analysis directives: 
.TRAN  0 100ns 0 0.1e-9 
.OPTIONS ADVCONV
.OPTIONS FILEMODELSEARCH
.PROBE64 V(alias(*)) I(alias(*)) W(alias(*)) D(alias(*)) NOISE(alias(*)) 
.INC "..\SCHEMATIC1.net" 



**** INCLUDING SCHEMATIC1.net ****
* source OPA2675
V_V1         VCC 0 6Vdc
V_V2         VEE 0 -6Vdc
R_Rf         N00597 OUT  402 TC=0,0 
R_Rg         0 N00597  133 TC=0,0 
R_Rl         0 OUT  100 TC=0,0 
C_C1         0 OUT  1.5e-12  TC=0,0 
V_V3         N01029 0  AC 1
+SIN 0 2 50e6 0 0 0
X_U1         N01029 N00597 OUT VCC VEE 0 0 OPA2675

**** RESUMING transientanalysis.cir ****
.END

**** 01/10/25 21:55:29 **** PSpice 23.1.0 (30 January 2024) *** ID# 0 ********

 ** Profile: "SCHEMATIC1-TransientAnalysis"  [ E:\Onedrive\Juan\Documentos\Descargas\sbomc90(1)\opa2675-pspicefiles\schematic1\transi


 ****     Diode MODEL PARAMETERS


******************************************************************************




               X_U1.X_U1.DVN   X_U1.X_U3.DVNF  X_U1.X_U4.DVNF  
          IS  100.000000E-18  100.000000E-18  100.000000E-18 
          KF  100.000000E-12  100.000000E-12  100.000000E-12 


**** 01/10/25 21:55:29 **** PSpice 23.1.0 (30 January 2024) *** ID# 0 ********

 ** Profile: "SCHEMATIC1-TransientAnalysis"  [ E:\Onedrive\Juan\Documentos\Descargas\sbomc90(1)\opa2675-pspicefiles\schematic1\transi


 ****     Resistor MODEL PARAMETERS


******************************************************************************




               X_U1.R_NOISELESS 
  T_Measured   27            
   T_Current -273.15         
           R    1            


**** 01/10/25 21:55:29 **** PSpice 23.1.0 (30 January 2024) *** ID# 0 ********

 ** Profile: "SCHEMATIC1-TransientAnalysis"  [ E:\Onedrive\Juan\Documentos\Descargas\sbomc90(1)\opa2675-pspicefiles\schematic1\transi


 ****     Voltage Controlled Switch MODEL PARAMETERS


******************************************************************************




               X_U1.X_S11._S11 X_U1.X_S12._S12 X_U1.X_S29._S29 X_U1.X_S30._S30 
         RON    1.000000E-03    1.000000E-03    1.000000E+09    1            
        ROFF    1               1               1               1.000000E-06 
         VON    1.3             1.3             2             100.000000E-06 
        VOFF    1               1                .8             0            


               X_U1.X_S31._S31 X_U1.X_S36._S36 X_U1.X_S37._S37 X_U1.X_S38._S38 
         RON    1               1.000000E-03    1.000000E-03    1.000000E+09 
        ROFF    1.000000E-06    2.000000E+03    2.000000E+03    1.000000E-03 
         VON  100.000000E-06     .05             .05            2            
        VOFF    0               -.05            -.05             .8          


               X_U1.X_S39._S39 X_U1.X_S40._S40 X_U1.X_S41._S41 X_U1.X_S42._S42 
         RON     .2              .2             1.000000E-03    1.000000E-03 
        ROFF    1.2             1.2             2.000000E+03    2.000000E+03 
         VON     .01             .01             .1              .1          
        VOFF    -.01            -.01            -.1             -.1          


**** 01/10/25 21:55:29 **** PSpice 23.1.0 (30 January 2024) *** ID# 0 ********

 ** Profile: "SCHEMATIC1-TransientAnalysis"  [ E:\Onedrive\Juan\Documentos\Descargas\sbomc90(1)\opa2675-pspicefiles\schematic1\transi


 ****     Current Controlled Switch MODEL PARAMETERS


******************************************************************************




               X_U1.X_W1._W1   X_U1.X_W2._W2   
         RON    1.000000E+06    1.000000E+06 
        ROFF    1.000000E-03    1.000000E-03 
         ION    5               5            
        IOFF    4.7             4.7          


**** 01/10/25 21:55:29 **** PSpice 23.1.0 (30 January 2024) *** ID# 0 ********

 ** Profile: "SCHEMATIC1-TransientAnalysis"  [ E:\Onedrive\Juan\Documentos\Descargas\sbomc90(1)\opa2675-pspicefiles\schematic1\transi


 ****     INITIAL TRANSIENT SOLUTION       TEMPERATURE =   27.000 DEG C


******************************************************************************



 NODE   VOLTAGE     NODE   VOLTAGE     NODE   VOLTAGE     NODE   VOLTAGE


(  OUT)     .0236  (  VCC)    6.0000  (  VEE)   -6.0000  (N00597)     .0065     

(N01029)    0.0000 (X_U1.MID) 72.20E-12                  (X_U1.AOL2)     .0239  

(X_U1.AOL3)     .0239                 (X_U1.CMRR)-18.83E-09                     

(X_U1.CREF)   27.0000                 (X_U1.IMON) 278.9E-06                     

(X_U1.SLEW)     .0239                 (X_U1.ZOUT)     .0236                     

(X_U1.PSRRM)    -.0100                (X_U1.PSRRP)     .0070                    

(X_U1.TEMPC)   28.0000                (X_U1.VCC_B)    5.9940                    

(X_U1.VEE_B)   -5.9940                (X_U1.ZOUTL)     .0236                    

(X_U1.AOLOUT)     .0239               (X_U1.PREMID) 72.19E-12                   

(X_U1.X_U1.3)    0.0000               (X_U1.X_U1.4)    0.0000                   

(X_U1.X_U1.5)    0.0000               (X_U1.X_U1.6)    0.0000                   

(X_U1.X_U1.7)     .8338               (X_U1.X_U1.8)     .8338                   

(X_U1.X_U3.3)    0.0000               (X_U1.X_U3.4)    0.0000                   

(X_U1.X_U3.5)    0.0000               (X_U1.X_U3.6)    0.0000                   

(X_U1.X_U3.7)     .8338               (X_U1.X_U3.8)     .8338                   

(X_U1.X_U4.3)    0.0000               (X_U1.X_U4.4)    0.0000                   

(X_U1.X_U4.5)    0.0000               (X_U1.X_U4.6)    0.0000                   

(X_U1.X_U4.7)     .8338               (X_U1.X_U4.8)     .8338                   

(X_U1.N460322) 278.9E-06              (X_U1.N461004)-278.9E-12                  

(X_U1.N462608)    -.0019              (X_U1.N463406)    -.0105                  

(X_U1.N463410)    -.0105              (X_U1.N463418)     .0065                  

(X_U1.N465370)   -5.9862              (X_U1.N465486)   -6.0000                  

(X_U1.N505726)  -25.5810              (X_U1.N516672)     .0239                  

(X_U1.N938010)    -.0105              (X_U1.N940824)    3.5940                  

(X_U1.N940832)   -3.5940              (X_U1.N956734)     .0239                  

(X_U1.N956866)     .0239              (X_U1.N956884)     .0239                  

(X_U1.N956892)     .0239              (X_U1.N957030) 72.20E-12                  

(X_U1.N957036) 72.20E-12              (X_U1.N957042)     .0239                  

(X_U1.N957214)     .0239              (X_U1.N957264)     .0239                  

(X_U1.N959235)     .0065              (X_U1.N973734)     .0239                  

(X_U1.N973764)     .0239              (X_U1.N973790)     .0239                  

(X_U1.VCC_CLP)    4.8937              (X_U1.VEE_CLP)   -4.8946                  

(X_U1.N1346042)   17.9640             (X_U1.N1410320)     .0236                 

(X_U1.N1410360)     .0239             (X_U1.N1415236)     .0236             




    VOLTAGE SOURCE CURRENTS
    NAME         CURRENT

    V_V1        -1.683E-02
    V_V2         1.655E-02
    V_V3         5.000E-06
    X_U1.V_V14   0.000E+00
    X_U1.V_VCMH   0.000E+00
    X_U1.V_VCML   0.000E+00
    X_U1.X_H4.VH_H4   2.789E-04
    X_U1.X_W1.VW_W1  -1.229E-17
    X_U1.X_W2.VW_W2   0.000E+00

    TOTAL POWER DISSIPATION   2.00E-01  WATTS



          JOB CONCLUDED

**** 01/10/25 21:55:29 **** PSpice 23.1.0 (30 January 2024) *** ID# 0 ********

 ** Profile: "SCHEMATIC1-TransientAnalysis"  [ E:\Onedrive\Juan\Documentos\Descargas\sbomc90(1)\opa2675-pspicefiles\schematic1\transi


 ****     JOB STATISTICS SUMMARY


******************************************************************************



  Total job time (using Solver 1)   =         .45
