!  INFINEON TECHNOLOGIES Silicon Discrete Components
!  BGA616
!  Vcc=6.0V, Rbias=33Ohm, I=60mA
!  Date:              27 Jun 2001
#  GHz  S  MA  R  50
! f           S11            S21            S12            S22
! GHz     Mag   Ang      Mag   Ang      Mag   Ang      Mag   Ang
0.1	0.0788	36.19	9.3218	177.86	0.0758	-0.14	0.1072	1.01
0.2	0.0822	10.48	9.3036	173.81	0.0756	0.98	0.1071	-1.23
0.3	0.0846	10.25	9.2417	169.9	0.0749	0.82	0.1086	-0.98
0.4	0.0824	15.13	9.1939	166.6	0.0749	2.54	0.1082	-3.78
0.5	0.0879	18.06	9.1664	163.32	0.0751	3.9	0.1067	-4.43
0.6	0.0888	17.94	9.0876	160.15	0.0748	4.42	0.1052	-7.02
0.7	0.0904	21.75	8.8267	156.81	0.0756	5.71	0.1028	-7.73
0.8	0.0981	15.71	8.8024	153.54	0.0752	6.14	0.0999	-10.37
0.9	0.1024	23.87	8.6636	150.78	0.0756	7.16	0.0953	-11.24
1	0.1033	19.98	8.5448	147.57	0.0762	8	0.0937	-13.95
1.1	0.0999	23.21	8.4353	144.38	0.0769	8.7	0.0889	-14.62
1.2	0.1103	22.36	8.3023	141.78	0.0772	9.28	0.086	-16.68
1.3	0.1115	21.5	8.1903	138.7	0.0778	9.99	0.0831	-17.94
1.4	0.1134	20.4	8.0733	135.42	0.0782	10.64	0.08	-20.71
1.5	0.1043	21.71	7.9314	132.98	0.0789	11.67	0.0774	-21.88
1.6	0.1159	18.58	7.8136	130.52	0.0801	12.15	0.0735	-24.85
1.7	0.119	20.35	7.7117	127.46	0.0805	12.36	0.0694	-27.1
1.8	0.1113	13.57	7.5448	125.07	0.082	13.12	0.0666	-29.76
1.9	0.1167	14.96	7.5128	122.85	0.0825	13.94	0.0637	-32.49
2	0.1201	15.41	7.3944	120.06	0.0831	14.51	0.0578	-35.77
2.1	0.1249	11.67	7.2669	117.65	0.0846	14.57	0.0543	-37.97
2.2	0.1145	11.18	7.1557	115.06	0.0857	15.1	0.0501	-41.18
2.3	0.1129	12.43	7.0162	112.97	0.0869	15.58	0.0467	-44.89
2.4	0.1094	10.91	6.908	110.63	0.0884	16.41	0.0419	-49.5
2.5	0.1043	9.33	6.8069	108.31	0.0897	16.34	0.0365	-54.69
2.6	0.1092	5.9	6.6673	105.99	0.0913	16.77	0.0315	-58.84
2.7	0.1062	5.94	6.5584	103.78	0.0932	17.09	0.0266	-66.19
2.8	0.1053	9.62	6.4573	101.51	0.0945	17.34	0.0218	-75.26
2.9	0.0965	10.48	6.3702	99.39	0.096	17.46	0.0179	-96.81
3	0.0875	7.38	6.2842	97.25	0.0969	18.17	0.0165	-116.16
3.1	0.0898	7.18	6.183	95.48	0.0987	18.42	0.0187	-140.66
3.2	0.0879	3.62	6.0457	93.49	0.0995	18.31	0.0215	-154.96
3.3	0.0816	7.06	5.9546	91.27	0.1015	18.38	0.0264	-170.25
3.4	0.0799	4.83	5.8614	89.25	0.103	18.49	0.0327	-177.96
3.5	0.0769	-0.17	5.7763	86.9	0.1054	18.59	0.0398	176.63
3.6	0.0735	8.68	5.6748	84.99	0.1065	18.38	0.0478	172.39
3.7	0.0656	6.34	5.6131	83	0.1086	18.66	0.0557	171.63
3.8	0.0647	8.99	5.5322	81.26	0.1104	18.55	0.0644	168.42
3.9	0.0528	8.74	5.4444	79.14	0.1116	18.58	0.073	167.01
4	0.0512	20.92	5.3567	77.5	0.1136	18.33	0.0831	164.44
4.1	0.0408	9.96	5.2541	75.54	0.1156	18.14	0.0929	162.82
4.2	0.0393	25.85	5.1946	73.72	0.1176	17.95	0.1025	162.06
4.3	0.0342	30.39	5.1174	71.53	0.1194	17.25	0.1108	159.47
4.4	0.03	40.84	5.0746	69.54	0.1217	17.38	0.1209	158.26
4.5	0.0285	50.55	5.02	67.76	0.1243	17.08	0.1292	155.23
4.6	0.0281	63.67	4.9499	66.04	0.126	17.05	0.1385	154.71
4.7	0.0322	73.51	4.8562	64.56	0.1279	16.89	0.1451	153.12
4.8	0.0347	83.37	4.7891	62.88	0.1293	16.42	0.151	151.1
4.9	0.0371	113.21	4.7266	60.95	0.1311	16.02	0.1579	149.47
5	0.0422	107.8	4.6655	59.33	0.1333	15.79	0.1644	147.08
5.1	0.0428	121.2	4.5936	57.18	0.1355	15.16	0.1697	145.28
5.2	0.0553	119.56	4.5441	55.44	0.1372	14.86	0.1765	143.29
5.3	0.0597	112.76	4.5009	53.73	0.1398	14.39	0.1795	142.05
5.4	0.0588	125.2	4.4259	52.14	0.1405	14.19	0.1863	139.56
5.5	0.0683	128.47	4.3496	50.32	0.143	13.29	0.1907	138.09
5.6	0.0714	133.24	4.3097	48.79	0.145	13.11	0.1974	136.28
5.7	0.0806	137.81	4.2355	46.88	0.1478	12.38	0.2024	134.7
5.8	0.0851	134.11	4.1976	45.17	0.1489	12.04	0.2094	132.45
5.9	0.0969	134.9	4.1433	43.14	0.1507	11.12	0.2161	130.94
6	0.096	137.35	4.1016	41.54	0.1538	10.6	0.2237	128.98
6.1	0.0998	135.16	4.0574	39.91	0.156	10.04	0.2291	127.55
6.2	0.1132	136.29	3.9875	38.46	0.1572	9.32	0.2349	125.93
6.3	0.109	133.26	3.955	36.85	0.1595	8.95	0.2412	124.27
6.4	0.1252	131.22	3.8958	35.19	0.1607	8.59	0.2469	123.02
6.5	0.1279	131.63	3.8402	33.37	0.1634	7.77	0.2557	121.19
6.6	0.1348	130.64	3.7993	31.99	0.1643	7.28	0.2617	120.28
6.7	0.144	128.27	3.751	30.22	0.1665	6.69	0.2678	119.46
6.8	0.1536	124.85	3.7017	29.13	0.1687	6.19	0.2732	118.28
6.9	0.149	125.33	3.6547	27.57	0.171	5.4	0.2772	117.49
7	0.1586	122.66	3.6045	25.98	0.1734	4.83	0.2858	116.27
7.1	0.1635	124.22	3.5698	24.29	0.1757	4.53	0.2919	116.3
7.2	0.1704	122.17	3.5416	22.68	0.1777	3.68	0.2985	115.05
7.3	0.1649	121.04	3.5188	21.31	0.1804	3.08	0.3045	115.09
7.4	0.1722	118.21	3.4774	19.51	0.1828	2.36	0.3128	114.41
7.5	0.179	119.62	3.457	17.57	0.1851	1.64	0.3185	113.52
7.6	0.1835	117.39	3.4586	16.62	0.1865	0.93	0.328	112.78
7.7	0.2035	114.7	3.376	14.72	0.1891	-0.21	0.3371	111.79
7.8	0.2112	115	3.3698	12.96	0.1901	-1.28	0.3467	110.74
7.9	0.2212	113.55	3.3289	11.01	0.1937	-2.25	0.3574	109.14
8	0.2356	113.53	3.2953	9.33	0.195	-3.05	0.3679	108.19
