# HZ S RI R 50
1 0.7223960290995622 0.08834843772794593 0.0011981555725207862 0.0008726873468859698 0 0 0 0
1000001 -0.008555104771515332 0.00044757493754928697 0.0031036832272381704 0.0018935871936105535 0 0 0 0
2000001 -0.007992089146533632 -0.00019892453804649807 0.0026285742452682613 0.004156905548198428 0 0 0 0
3000001 -0.00848981212584901 1.3967703501960757e-05 0.001721033543368385 0.00631959361585186 0 0 0 0
4000001 -0.007895869201460267 0.0001011520132840009 0.00047518173060516526 0.009110175512141236 0 0 0 0
5000001 -0.007603365436972108 0.00017315484349410566 -0.0009394683377102508 0.012182970763668236 0 0 0 0
6000001 -0.007178022831625422 -0.00029771131992228553 -0.0026302873798701183 0.015594550821188168 0 0 0 0
7000001 -0.007293124059267475 -0.00044447655717628955 -0.004536287158905968 0.019767942206020437 0 0 0 0
8000001 -0.00944454473577536 -0.0007895265534760509 -0.006145165604843507 0.024701920994882977 0 0 0 0
9000001 -0.007173211481371627 0.0012163244849202033 -0.007957589846774511 0.030552775519621433 0 0 0 0
10000001 -0.005248363191353997 -0.0015183307889425927 -0.009348736995892764 0.037040625071482314 0 0 0 0
11000001 -0.006070901024250051 -0.0007854050356615654 -0.01026255370404895 0.044405170712760664 0 0 0 0
12000001 -0.00643253166365789 -0.0025349897642465936 -0.010883384726234208 0.05271593297913974 0 0 0 0
13000001 -0.005787271905754831 -0.0024274988123747787 -0.01074122204403748 0.0620888412736156 0 0 0 0
14000001 -0.005787586656055153 -0.003172059239083132 -0.009889016674296473 0.07272737598094293 0 0 0 0
15000001 -0.006053833297574765 -0.003906151151515727 -0.0074675438237741445 0.08414596860608138 0 0 0 0
16000001 -0.005560255083345072 -0.004194524366784738 -0.003964143493719604 0.09615553533857835 0 0 0 0
17000001 -0.0060721577718077565 -0.00531633658460586 0.0014929311349483674 0.10968759907907306 0 0 0 0
18000001 -0.005470958008384732 -0.005608420743988232 0.00845069785140392 0.12363193536950663 0 0 0 0
19000001 -0.005652048004884889 -0.006056745275616999 0.017668771526767574 0.13811413136748765 0 0 0 0
20000001 -0.005363577163431959 -0.0065643481871908585 0.029540320224137204 0.15304604464361934 0 0 0 0
21000001 -0.005515589075222336 -0.007367709336251558 0.04391745355673163 0.16794432187729777 0 0 0 0
22000001 -0.0055597497471921485 -0.007968400291827266 0.0613072786410646 0.1826030638966248 0 0 0 0
23000001 -0.005713657131785456 -0.008831729640552635 0.08212304825286951 0.19705591889580135 0 0 0 0
24000001 -0.00538684927031305 -0.009188766634904018 0.10597636418111087 0.20989765410442918 0 0 0 0
25000001 -0.005422522300658645 -0.010192268887236398 0.13381341751582607 0.2213439527796761 0 0 0 0
26000001 -0.005388704508075103 -0.01096257196581959 0.16493322181643644 0.23027118844660974 0 0 0 0
27000001 -0.005743585239465525 -0.0117095812482818 0.20005671987610488 0.2360965801407012 0 0 0 0
28000001 -0.005709842075649199 -0.012939689837837283 0.23855714811952364 0.23797875112896044 0 0 0 0
29000001 -0.005651245956027311 -0.013965356489840392 0.2804493928125352 0.2356324667701298 0 0 0 0
30000001 -0.005692729346092123 -0.014920792119858774 0.32514419078938755 0.22723620757455634 0 0 0 0
31000001 -0.006017925096039119 -0.016684348265190965 0.3716568070414189 0.21232846454430793 0 0 0 0
32000001 -0.006368356032408561 -0.0181825668986499 0.4197813482215876 0.19038456198091885 0 0 0 0
33000001 -0.006884797133175415 -0.019788385524096376 0.4680647925392847 0.1601856754071435 0 0 0 0
34000001 -0.007920523215151732 -0.021877612143137066 0.5151738978637984 0.12203370139406139 0 0 0 0
35000001 -0.009334686433567024 -0.024270029364914084 0.5598908891001677 0.0744346727703033 0 0 0 0
36000001 -0.011257271415958812 -0.026446912528543507 0.6006222724797413 0.017679590942656444 0 0 0 0
37000001 -0.01384054990181434 -0.028754070203920883 0.6351740666488389 -0.04788371110872136 0 0 0 0
38000001 -0.017261642074537092 -0.030863089519186274 0.662197576763036 -0.12171385913196218 0 0 0 0
39000001 -0.021591377425143096 -0.03207650330986396 0.6793421526842368 -0.203136427306763 0 0 0 0
40000001 -0.02645350266718822 -0.032995303676438104 0.6852990213828578 -0.2910579534534729 0 0 0 0
41000001 -0.031741982126668004 -0.0323524232142044 0.6782091692341581 -0.3833437613189073 0 0 0 0
42000001 -0.0372346638151006 -0.030347063731634604 0.6557222433464238 -0.4782355128855001 0 0 0 0
43000001 -0.0426442399600078 -0.027092136591989027 0.6181410549670997 -0.5725095960646756 0 0 0 0
44000001 -0.04732189732898782 -0.022131654056334986 0.5634743683552119 -0.6633907663536691 0 0 0 0
45000001 -0.05071923068098831 -0.015590285574186808 0.49267025507728834 -0.7470040635744654 0 0 0 0
46000001 -0.05297984185118273 -0.008318751242735064 0.40724139071738696 -0.8187899036950472 0 0 0 0
47000001 -0.05267658224847397 -0.0008808506460392929 0.3097228060431833 -0.8772823958752831 0 0 0 0
48000001 -0.05030145214377678 0.007573739015037068 0.20285261401911997 -0.9185240969052637 0 0 0 0
49000001 -0.04612500165484691 0.014257305936113913 0.09062458874829804 -0.9410385446165505 0 0 0 0
50000001 -0.04005572012333351 0.01998803378571344 -0.022054624711488266 -0.9448574627325846 0 0 0 0
51000001 -0.032735811945102625 0.024169826656665356 -0.13154154235549007 -0.9312029116609765 0 0 0 0
52000001 -0.02444614535278275 0.02627297530554379 -0.2342920095015507 -0.9017444756886005 0 0 0 0
53000001 -0.016064939379485593 0.02577917576610757 -0.32828619320671076 -0.8584760576437609 0 0 0 0
54000001 -0.007931234927963564 0.02359521796487682 -0.4119439738013233 -0.8054141199651379 0 0 0 0
55000001 -0.0008148234727607617 0.019534969241753374 -0.48366002911061795 -0.7443091364375475 0 0 0 0
56000001 0.005000442285292183 0.013855672182233868 -0.5443186319121741 -0.6779796548872341 0 0 0 0
57000001 0.009125343493149382 0.006908077302234586 -0.5944042513294141 -0.6078428735441324 0 0 0 0
58000001 0.011577881034538261 -0.0001909992221576518 -0.6343490831883061 -0.536466207859254 0 0 0 0
59000001 0.012326487502732924 -0.0077895881558525245 -0.6644519890011577 -0.4646828278162193 0 0 0 0
60000001 0.01154838990172539 -0.015445246699934124 -0.6862179064949988 -0.3935759748580131 0 0 0 0
61000001 0.009448110444198979 -0.02195095880526803 -0.6998518748884813 -0.3238733596415891 0 0 0 0
62000001 0.006148179139704987 -0.027913204829350672 -0.7065614106296836 -0.25590342654808307 0 0 0 0
63000001 0.0017655126852692692 -0.03298186740190987 -0.7070968137192233 -0.19074602303071528 0 0 0 0
64000001 -0.0032139931749642888 -0.036856422068303196 -0.7012479327234484 -0.12824760649459993 0 0 0 0
65000001 -0.008491109678953326 -0.0398882139245624 -0.690641911957559 -0.06917239232852596 0 0 0 0
66000001 -0.014070646011634819 -0.041803054849662714 -0.674771175279401 -0.013502067483472026 0 0 0 0
67000001 -0.019407580444059467 -0.04291690075999359 -0.6543627683741818 0.03874516368992226 0 0 0 0
68000001 -0.024776010866296713 -0.04317654890423836 -0.6304646846483724 0.08631120865313463 0 0 0 0
69000001 -0.029839349402875 -0.04270081314454432 -0.6039656288847866 0.13007325760148147 0 0 0 0
70000001 -0.03445862911099439 -0.04121080340189901 -0.5747928813441314 0.16950392179995502 0 0 0 0
71000001 -0.0387295092811893 -0.03977490491890898 -0.543364129049527 0.20429633675267725 0 0 0 0
72000001 -0.04233142698898908 -0.0376562886442063 -0.5108642898094774 0.23523955696205004 0 0 0 0
73000001 -0.045795394181089716 -0.03507878114047887 -0.47720095351667857 0.26190669706192277 0 0 0 0
74000001 -0.04870362163859524 -0.03224765151757219 -0.44283127564325686 0.2846472356878522 0 0 0 0
75000001 -0.05136862327981349 -0.029496593587743626 -0.4092569900418527 0.3037593579078342 0 0 0 0
76000001 -0.05321031844016425 -0.026573471172238027 -0.3754013337196746 0.31922540997136 0 0 0 0
77000001 -0.05525406771420064 -0.02386671804061012 -0.34186140591873615 0.33159865100591995 0 0 0 0
78000001 -0.0573949796017516 -0.022382329605471197 -0.31032713146754787 0.34097051279979596 0 0 0 0
79000001 -0.05728473238857161 -0.018143133115421522 -0.2782514864413783 0.34756459633149445 0 0 0 0
80000001 -0.057767765579050015 -0.01517575549764114 -0.24795362824375092 0.3518271018678722 0 0 0 0
81000001 -0.058138814297192226 -0.012571436870908217 -0.21892180383247412 0.35387261733512354 0 0 0 0
82000001 -0.05803687929409708 -0.009866518714006045 -0.19098094313012834 0.35384151896735944 0 0 0 0
83000001 -0.05803405739517494 -0.007831609654596536 -0.16449922305388526 0.3520187875699722 0 0 0 0
84000001 -0.05875632173826581 -0.005790896080294291 -0.1399205109872809 0.3490016520465554 0 0 0 0
85000001 -0.057840631877753755 -0.0034321962104855363 -0.11624527415575672 0.344112675356797 0 0 0 0
86000001 -0.05711684662611972 -0.0007785981286001969 -0.09427185660230016 0.3386057810257995 0 0 0 0
87000001 -0.05687876716329587 0.0004463704650066076 -0.07377636840796607 0.331894270368537 0 0 0 0
88000001 -0.056204548256187876 0.002584894449698497 -0.054962595815354696 0.32395179348795816 0 0 0 0
89000001 -0.05542764485022445 0.003760072833709898 -0.03689519812392066 0.31595166737414065 0 0 0 0
90000001 -0.0547191819249476 0.005175700178489334 -0.019950569857715063 0.3069725526074637 0 0 0 0
91000001 -0.05381345306732743 0.0070514351989538395 -0.0049303771073374286 0.2978314336596672 0 0 0 0
92000001 -0.053166709900950855 0.007915905136513952 0.009345583358492057 0.288162397466382 0 0 0 0
93000001 -0.05211847204798801 0.009195192173305517 0.022111856701501793 0.2780830780318921 0 0 0 0
94000001 -0.051121323582959496 0.010301231882215954 0.034382421575085316 0.2679734270858629 0 0 0 0
95000001 -0.05038518317036806 0.010976849867297148 0.04516224205739309 0.25754817315911616 0 0 0 0
96000001 -0.049768660174571946 0.011912087282086606 0.05474033716918322 0.24725722504137662 0 0 0 0
97000001 -0.04828442417717982 0.012626707294869713 0.06382357477253321 0.23689339841592222 0 0 0 0
98000001 -0.04752258544630892 0.013363731327635754 0.0723596305669149 0.22675913522152694 0 0 0 0
99000001 -0.04721465157788577 0.014089556722951542 0.0795095163187298 0.21668310736256927 0 0 0 0
100000001 -0.04603703273155759 0.014592741167602478 0.08613060121595387 0.20643592557943088 0 0 0 0
