# HZ S RI R 50
500000000 -0.6955249163609517 0.294067145295641 0.06793020327972278 -0.041919358272682096 0 0 0 0
510000000 -0.5984727646783632 0.401235558538113 0.054602390108668394 -0.04689018605136794 0 0 0 0
520000000 -0.49838330426486854 0.487045206798378 0.04419456087338307 -0.05797285196528691 0 0 0 0
530000000 -0.38538419182726685 0.5465299945194781 0.03209206245302017 -0.07182826859779451 0 0 0 0
540000000 -0.2861054318818858 0.5996334011852141 0.004598861716985186 -0.07060962530120526 0 0 0 0
550000000 -0.16959867243279755 0.6345220894345048 -0.022176187711499703 -0.07978435880058195 0 0 0 0
560000000 -0.04685274803360327 0.6568282549122237 -0.04547754896612781 -0.06521985913487842 0 0 0 0
570000000 0.07797636042272932 0.6533574106756104 -0.059007539797821654 -0.036576320639286314 0 0 0 0
580000000 0.1939745388308278 0.6297723429052583 -0.052680354438866116 -0.00448458351310814 0 0 0 0
590000000 0.3002290084364679 0.5959058710155319 -0.03856525523614938 0.0041227853035718815 0 0 0 0
600000000 0.4062842556522783 0.5433970415363502 -0.029966061592332054 0.005268324964328078 0 0 0 0
610000000 0.5029512379678251 0.47889586169653653 -0.022313961552239442 0.000638518112986008 0 0 0 0
620000000 0.5948484800982964 0.4006048964791091 -0.020690492217352214 -0.004223157352324083 0 0 0 0
630000000 0.6777662374804689 0.3067914306410134 -0.01863313307977486 -0.0025821519206414914 0 0 0 0
640000000 0.751272332881489 0.19559799188204122 -0.016643765889567733 -0.0028274003881170523 0 0 0 0
650000000 0.7843832849780477 0.09665175991609337 -0.018326264668543552 -0.004398916834053145 0 0 0 0
660000000 0.8373355719887751 -0.07014535885717711 -0.02052238683654658 -0.002225542567893951 0 0 0 0
670000000 0.8452022372807604 -0.21568674770222335 -0.018613488403983833 -0.00015643636253640132 0 0 0 0
680000000 0.8219147536674926 -0.3657170394834323 -0.022985031907356866 0.0017974524347073046 0 0 0 0
690000000 0.7716815750553201 -0.5176531057183706 -0.023590871258169364 0.005366366816242722 0 0 0 0
700000000 0.692910195387531 -0.6623200339752714 -0.023554777690188006 0.011564555366126394 0 0 0 0
710000000 0.5840779510011594 -0.7845308772972438 -0.023801311424463446 0.017541995252208998 0 0 0 0
720000000 0.44872892253708696 -0.8904808341458973 -0.01807021974482382 0.02158375868386212 0 0 0 0
730000000 0.28675223168890396 -0.9670705283164844 -0.013521294164183377 0.026418412316440255 0 0 0 0
740000000 0.11026016567414813 -1.0045999320257837 -0.002583942618711246 0.029336870806108653 0 0 0 0
750000000 -0.07438249594525559 -0.9973483912880512 0.0047212037311813 0.027629669764294026 0 0 0 0
760000000 -0.2489939502991471 -0.9504724503863698 0.008345549223656495 0.021455194910265523 0 0 0 0
770000000 -0.403846711387504 -0.8642731990331419 0.01489603947831694 0.019697572602407787 0 0 0 0
780000000 -0.5344762295778287 -0.7485783073143584 0.016421479838049 0.006807938711720651 0 0 0 0
790000000 -0.6244070539304033 -0.6124660093038673 0.01730453770047845 0.004775910880519851 0 0 0 0
800000000 -0.68240071256876 -0.4670370956057451 0.010935004772868729 0.00713644542620883 0 0 0 0
810000000 -0.6428094123832628 -0.4734977298632081 0.006782610695338904 0.003570693790245257 0 0 0 0
820000000 -0.6122442471897485 -0.4496811668259703 0.00791530587484991 0.007449690697672963 0 0 0 0
830000000 -0.5725113796997686 -0.4510467864978704 0.005736254101305565 0.0009945006375907867 0 0 0 0
840000000 -0.5481898282925448 -0.4489466075442686 0.007676929718012931 0.007948361231910011 0 0 0 0
850000000 -0.5246542513557562 -0.4490782699239085 -0.00033459768431454465 0.00721268989043058 0 0 0 0
860000000 -0.4945461465096362 -0.44924517806858616 -0.0029209424603070825 0.009385696127831243 0 0 0 0
870000000 -0.4689779784448965 -0.4650926247453642 -0.0041785341422554655 0.009150431105668653 0 0 0 0
880000000 -0.45721607580267665 -0.4673515279277146 -0.005682015020382752 -0.0008771778755477463 0 0 0 0
890000000 -0.430630964558452 -0.46125795808483083 -0.018613185938549485 -0.000908162288690756 0 0 0 0
900000000 -0.41290294555440715 -0.46499235768349184 -0.022676284015243586 -0.005293249176473794 0 0 0 0
910000000 -0.3293214931150231 -0.5232157936380256 -0.04480088337748828 -0.011501462717620752 0 0 0 0
920000000 -0.34892543242540963 -0.509619315867894 -0.046858133337809256 -0.012920841390740189 0 0 0 0
930000000 -0.29638980531518516 -0.5234242592443779 -0.053902669263769576 -0.012479379711010478 0 0 0 0
940000000 -0.28222499334545453 -0.5419223420403646 -0.05703403791546209 0.007939301702196408 0 0 0 0
950000000 -0.2559125243611453 -0.5581711018658706 -0.051071998895189374 0.04231118877709199 0 0 0 0
960000000 -0.21643078736906576 -0.5558357802603471 -0.026475639643343124 0.05359719436076716 0 0 0 0
970000000 -0.21594789173248444 -0.5614964077880849 -0.010608516370052529 0.0674521812105684 0 0 0 0
980000000 -0.18557043507873716 -0.5904879455602514 -7.714208309501057e-05 0.05302054028922806 0 0 0 0
990000000 -0.1603320375475073 -0.5819035221311 0.0012174788901549308 0.03862322544816021 0 0 0 0
1000000000 -0.15870111752170757 -0.5934257723722216 -0.012400722322420388 0.026846580156625766 0 0 0 0
1010000000 -0.20842466430888482 -0.5985394973809417 -0.014992284297481107 0.024184201399551433 0 0 0 0
1020000000 -0.2664178206783558 -0.6036614008301868 -0.02371526872450605 0.01722065970803372 0 0 0 0
1030000000 -0.33369355848267085 -0.6013256255252708 -0.03499873692878306 0.023030378405416656 0 0 0 0
1040000000 -0.40926249344837295 -0.599845481135414 -0.04003325754906683 0.032775431412538414 0 0 0 0
1050000000 -0.49941745590549863 -0.5821506448732727 -0.037551713424051184 0.04301879635500075 0 0 0 0
1060000000 -0.6095901889733482 -0.5544025382006645 -0.033221877846757286 0.05884670575505748 0 0 0 0
1070000000 -0.7347620660476476 -0.5122116329140952 -0.014569900406169935 0.07568301567492362 0 0 0 0
1080000000 -0.9166986305356513 -0.45754785297371636 -0.007505330593720677 0.08455975023405568 0 0 0 0
1090000000 -1.1515923901568654 -0.3119351890258534 0.012489841706183866 0.0774969857198184 0 0 0 0
1100000000 -1.4861310289500047 -0.05298751873928846 0.041767098808351916 0.06840800899230913 0 0 0 0
1110000000 -1.8530028498306315 0.6108477090993493 0.07934403711445234 0.05846522611375385 0 0 0 0
1120000000 -1.6240838359286378 2.0190171080230743 0.1068606005760929 0.009150654187368303 0 0 0 0
1130000000 0.2168101696885324 2.522170833021932 0.05299739311511515 -0.058511278430806085 0 0 0 0
1140000000 1.2609406486737704 1.5093172382850741 0.010017138076557582 -0.03368161372068408 0 0 0 0
1150000000 1.28704154302669 0.6430393488493089 0.014570488579503205 0.0015661550137161817 0 0 0 0
1160000000 1.0951342870376153 0.1956843138353242 0.031911609789493055 0.010191395354366015 0 0 0 0
1170000000 0.8891033534231353 -0.08478924416706493 0.05941564370483248 0.006086040380426098 0 0 0 0
1180000000 0.7626473271444651 -0.18214702883333828 0.06476995707612522 -0.018384999591155936 0 0 0 0
1190000000 0.6528949380431807 -0.2659397811921169 0.06596041497041166 -0.046999352223200314 0 0 0 0
1200000000 0.5501552487953771 -0.32628859598563326 0.07057277148717514 -0.06466719142356708 0 0 0 0
1210000000 0.47091721221743965 -0.36665530735706686 0.05680323844911927 -0.10094097096374909 0 0 0 0
1220000000 0.40202059289542785 -0.39550841299197076 0.04236911844895298 -0.12819787173911623 0 0 0 0
1230000000 0.3462452519409597 -0.42020392801354495 0.009616653379054672 -0.13865875293369406 0 0 0 0
1240000000 0.29484397295102865 -0.43810755567547977 -0.012100643403922723 -0.14585277351707876 0 0 0 0
1250000000 0.24761690426634841 -0.44991989435976565 -0.04827117988300468 -0.1352645553463554 0 0 0 0
1260000000 0.20779655564388397 -0.45781395235230715 -0.08918179714942832 -0.13694905234280785 0 0 0 0
1270000000 0.16610152630230524 -0.46889476861680657 -0.1205205726712732 -0.12683358171271808 0 0 0 0
1280000000 0.13388609457086348 -0.4768985962764005 -0.135425447758156 -0.11861861692400881 0 0 0 0
1290000000 0.09516638520452776 -0.4798023834022933 -0.16093322429243212 -0.09040510619804512 0 0 0 0
1300000000 0.06315017922007861 -0.48032874472715986 -0.19022215968745176 -0.054866146833133816 0 0 0 0
1310000000 0.027604944612769577 -0.4815540442768225 -0.193668685876996 -0.01705301010704702 0 0 0 0
1320000000 -0.004650738442138279 -0.48444473359348855 -0.20682795565447853 0.009467577746855582 0 0 0 0
1330000000 -0.029140228164741915 -0.47751083538887684 -0.22895004771674365 0.052054712516920135 0 0 0 0
1340000000 -0.05875559087878196 -0.47148948971230453 -0.22879742292428515 0.08705736940400802 0 0 0 0
1350000000 -0.10236504172781585 -0.4576858884073141 -0.22399074923194207 0.13116856202778812 0 0 0 0
1360000000 -0.13011546652449074 -0.4511435393283877 -0.20410596815218937 0.18100202383592182 0 0 0 0
1370000000 -0.16688571854032047 -0.4312073917860396 -0.18756654739324088 0.22395797483545357 0 0 0 0
1380000000 -0.21467573329800724 -0.399113891654695 -0.14153746810558568 0.27519897696629014 0 0 0 0
1390000000 -0.25627710096574935 -0.37657947388304813 -0.08388121342757278 0.3098482607237813 0 0 0 0
1400000000 -0.2882268104618196 -0.31405662821284513 -0.06589104370088296 0.37386090456819276 0 0 0 0
1410000000 -0.3422966357554072 -0.2515968241919927 0.021204441244062032 0.37118799309665973 0 0 0 0
1420000000 -0.4140301625732993 -0.1835100319925402 0.11642334800253981 0.41588022920076845 0 0 0 0
1430000000 -0.4390578883016371 -0.057276652562600595 0.24424523301211695 0.40082173915711816 0 0 0 0
1440000000 -0.5070642495697598 0.14713688757862295 0.3476020901500737 0.3195391612934213 0 0 0 0
1450000000 -0.43138624068303155 0.43695165160395916 0.4322802190419852 0.2706201476643101 0 0 0 0
1460000000 -1.0937717137574388 0.08074803454720145 0.7282855394639495 0.3804556759809687 0 0 0 0
1470000000 -2.6377923627986686 1.0621245957034064 1.0835272266113578 -0.11091788126690488 0 0 0 0
1480000000 0.03877560665837712 1.6006474874748673 0.32302222011074205 -0.32108886007582044 0 0 0 0
1490000000 0.684620741080627 2.1169883743438027 0.062494816138760345 -0.3985396041221216 0 0 0 0
1500000000 1.3946079433777339 0.5652052082776754 0.07795472192390793 0.010703150581559264 0 0 0 0
