# HZ S RI R 50
500000000 -0.650926402356225 0.3140856469928738 13.95636295698005 8.547053241353563 0 0 0 0
510000000 -0.5406391361764415 0.41933158864228365 16.309486602646597 1.332141253439337 0 0 0 0
520000000 -0.425619689078573 0.4790121704456755 14.651240382871542 -6.647599958307043 0 0 0 0
530000000 -0.3364773226745705 0.5136160296024161 9.013418712554714 -12.696510230591029 0 0 0 0
540000000 -0.25145799222492277 0.5456110157855214 0.4394233265444951 -14.829493419757615 0 0 0 0
550000000 -0.17286151279645398 0.5745631785961921 -7.939277553555966 -11.602258559955375 0 0 0 0
560000000 -0.08840853869722524 0.6083339179670579 -12.546154464926252 -3.9861196061428905 0 0 0 0
570000000 0.010896180787515376 0.6359389426861173 -11.389708351173864 3.987880793247177 0 0 0 0
580000000 0.13175669391310255 0.647934247993272 -6.0712008953039955 8.528143118501145 0 0 0 0
590000000 0.2601538273044093 0.6430914906137754 0.08112853516074914 8.835670764981389 0 0 0 0
600000000 0.3972083383793231 0.5970851669966533 4.330623543966724 6.117798230849423 0 0 0 0
610000000 0.5234186665956403 0.5267073816059087 6.093655065034156 2.494799341903562 0 0 0 0
620000000 0.6351013615515609 0.4310073231121729 5.949093612605095 -0.4988006530123137 0 0 0 0
630000000 0.7269805328620124 0.31398615621366244 5.024169664747405 -2.582295956671927 0 0 0 0
640000000 0.7931120416648325 0.17789985431167185 3.7587424580998388 -4.123037795345034 0 0 0 0
650000000 0.8301344596418182 0.006048784162584217 2.4438004598104994 -5.225682261370827 0 0 0 0
660000000 0.8507564777629958 -0.10299607514425542 0.2588615748485199 -6.034090754210241 0 0 0 0
670000000 0.8427755767828381 -0.25269936285172095 -2.0823739535433727 -6.119318071667054 0 0 0 0
680000000 0.813578061768595 -0.39828995577278553 -4.538431356669335 -5.227117084869309 0 0 0 0
690000000 0.7557289071333995 -0.5391910092846036 -6.678183562827809 -3.2803262805096893 0 0 0 0
700000000 0.6723423254065233 -0.6693207634200106 -8.003169327086228 -0.49385248996409814 0 0 0 0
710000000 0.5617729462354829 -0.7877114954804413 -8.229194980438121 2.8609424014573386 0 0 0 0
720000000 0.4275411868442337 -0.8841243762094549 -7.144557098006218 6.189192813895272 0 0 0 0
730000000 0.2731298419192182 -0.9522541390326053 -4.654307617248262 9.023813992440074 0 0 0 0
740000000 0.1040467073414138 -0.9897440915590745 -0.902055741192906 10.677865709153792 0 0 0 0
750000000 -0.07681283867211613 -0.9806867233449013 3.4982172047636984 10.470121117620305 0 0 0 0
760000000 -0.24437670012900867 -0.9353256119876817 7.379765355549431 8.322507831887872 0 0 0 0
770000000 -0.3973250749985443 -0.8544268011481398 9.93200317149232 4.720155737196006 0 0 0 0
780000000 -0.5291088345862413 -0.7383587203102852 10.353373062886117 -0.23448953832180464 0 0 0 0
790000000 -0.6151989163434615 -0.6113359057515835 9.46343714597186 -3.6033564287971998 0 0 0 0
800000000 -0.6765687180933211 -0.4712435805061755 7.053525011208528 -6.374571744984537 0 0 0 0
810000000 -0.6363430803701434 -0.47542299511755953 5.895161499930839 -6.820117474854365 0 0 0 0
820000000 -0.6064962509806857 -0.45021430101244564 4.728564227692061 -7.242403103016534 0 0 0 0
830000000 -0.5698568525944804 -0.4557541782657243 3.6613867520950074 -7.5704293785352785 0 0 0 0
840000000 -0.5477433537577236 -0.45188987141933146 2.6254544737153616 -7.78714568172756 0 0 0 0
850000000 -0.5255043849619778 -0.45031994352146976 1.524239632028276 -7.842470662997778 0 0 0 0
860000000 -0.49739193255963726 -0.44967762888381574 0.4938065194494811 -7.7946803998293435 0 0 0 0
870000000 -0.4704070007833622 -0.465516475207878 -0.32685619533789123 -7.545110664164471 0 0 0 0
880000000 -0.4509606793988097 -0.4649632418671035 -2.242876136277996 10.386551545526734 0 0 0 0
890000000 -0.42284587323824957 -0.4528782206485429 1.318284461323956 9.86486602307075 0 0 0 0
900000000 -0.4037800099293049 -0.4709271500101884 4.439490848296591 7.9380056377790185 0 0 0 0
910000000 -0.3328609081545155 -0.5540043742001833 6.523095016055388 5.307183243435483 0 0 0 0
920000000 -0.34208484764348523 -0.5147621113114496 7.3990141773719404 0.8830947494791501 0 0 0 0
930000000 -0.2884799451682941 -0.5276416053057487 6.4489988526223545 -3.020287897153361 0 0 0 0
940000000 -0.2750902201653343 -0.5486941070040693 4.1877742781372715 -6.254002607683803 0 0 0 0
950000000 -0.24761038691221623 -0.5637697075930862 1.1474416717049147 -7.736273706399299 0 0 0 0
960000000 -0.21604868618445025 -0.5605366139893485 -1.7181121981657659 -7.278442526772868 0 0 0 0
970000000 -0.21777377885126517 -0.5664869636742644 -3.861479795802046 -5.444471555442786 0 0 0 0
980000000 -0.1925668105982839 -0.595448590527264 -4.999247193304821 -2.553658234912882 0 0 0 0
990000000 -0.1676535858409528 -0.5848316926115074 -4.573494302827536 0.5414599287425571 0 0 0 0
1000000000 -0.16695081448341584 -0.590243275025699 -3.26692308673854 3.153643293215602 0 0 0 0
1010000000 -0.21646253320277947 -0.5912909357749696 -0.4356490649913747 5.171156832548943 0 0 0 0
1020000000 -0.27321995820471 -0.5871161523903756 2.839552574476304 5.19262411567963 0 0 0 0
1030000000 -0.3318110495881043 -0.5828031185492639 5.376092831345243 3.517350669080609 0 0 0 0
1040000000 -0.40463931129687203 -0.566859417656476 7.936656509637342 1.0128155047986793 0 0 0 0
1050000000 -0.4861197821240806 -0.5492196104414936 6.546421896495452 -1.8359450579266645 0 0 0 0
1060000000 -0.5807598351973894 -0.5284003916138016 5.054527940960926 -3.9849386052361826 0 0 0 0
1070000000 -0.6957251033984059 -0.5036701437749965 3.1058840670488075 -5.372498307761846 0 0 0 0
1080000000 -0.8433881521000616 -0.44457425253585847 0.8914769485500572 -6.016231928127215 0 0 0 0
1090000000 -1.0508586944868004 -0.35664881253344244 -1.5312293914455712 -6.006655619551538 0 0 0 0
1100000000 -1.3311841836712313 -0.13348952155516897 -4.114894165215296 -5.015920033453986 0 0 0 0
1110000000 -1.7056301019387563 0.28922098660917234 -6.50617381328562 -2.620279958553411 0 0 0 0
1120000000 -1.945769597117246 1.4625651624676226 -7.253992216405592 2.110891639460362 0 0 0 0
1130000000 -0.43487965572210474 2.8280152487616075 -2.1760674935292936 5.451331758411631 0 0 0 0
1140000000 1.3121462846304226 1.8893176967389287 1.0423360575572969 2.05135377258914 0 0 0 0
1150000000 1.4378701200407027 0.7880926354720884 -0.08319154316038188 0.21485604567031752 0 0 0 0
1160000000 1.1937323808939029 0.23280389450685066 -1.179038011057371 0.3505144445588415 0 0 0 0
1170000000 0.9232906483595642 -0.047874124920203896 -1.293058576156083 0.999992325688159 0 0 0 0
1180000000 0.8061512660947869 -0.19141484481058837 -1.365404014074954 1.8233837767512038 0 0 0 0
1190000000 0.6731414628088713 -0.29187985497634905 -0.6542852347465873 2.4739318411638878 0 0 0 0
1200000000 0.5644494367067725 -0.34724491366091514 0.34174689300637184 2.7499716078528054 0 0 0 0
1210000000 0.4759857037395851 -0.38389864674808455 1.4642355639912696 2.3152247639135766 0 0 0 0
1220000000 0.4068807440966216 -0.40598025479289235 2.181487700025264 1.3600679295572728 0 0 0 0
1230000000 0.34769488408748694 -0.4279571582942113 2.329581844630354 0.05581034095729631 0 0 0 0
1240000000 0.29814531252526966 -0.4415983200390381 1.8265826692773937 -1.1150033996837496 0 0 0 0
1250000000 0.2513622311312219 -0.45237445235645285 0.8335825187636503 -1.862652944826892 0 0 0 0
1260000000 0.212091852323899 -0.4625155004196279 -0.3592573730143144 -2.0671311540433237 0 0 0 0
1270000000 0.17535612220983723 -0.46906603676009534 -1.4458356255937816 -1.8139378118022087 0 0 0 0
1280000000 0.1378281356743171 -0.4770335336069601 -2.2999356722216575 -1.1319892157608302 0 0 0 0
1290000000 0.10079006215949671 -0.48012976159774295 -2.835090276383879 -0.13012561587142757 0 0 0 0
1300000000 0.06983993363745176 -0.48178465502410367 -3.1047038641936577 0.8039407024209348 0 0 0 0
1310000000 0.036026681540189065 -0.47742198791143275 -2.5822748466988146 2.1084059453235438 0 0 0 0
1320000000 -0.004311356899481753 -0.4766244903847481 -1.8668794538000575 2.9642717183944276 0 0 0 0
1330000000 -0.03805023307634133 -0.46728820859432074 -1.0086969167464714 3.588810842071841 0 0 0 0
1340000000 -0.07179124826619925 -0.45627567393407653 -0.1286319835524854 3.839551553852679 0 0 0 0
1350000000 -0.10241787182766376 -0.4443697020906522 0.705332353937642 3.988630861567809 0 0 0 0
1360000000 -0.13867131781326414 -0.43677548106692254 1.547660135015215 3.9816709718837537 0 0 0 0
1370000000 -0.1755451263329011 -0.4200714955180899 2.359651326852897 3.8075184795134183 0 0 0 0
1380000000 -0.221392314400992 -0.39107329086371395 3.085689362161911 3.3764088913307906 0 0 0 0
1390000000 -0.2592221784522367 -0.3562706598561037 3.730198940560629 2.7188266865624984 0 0 0 0
1400000000 -0.3142202116410254 -0.317943379932618 4.036796664731448 1.8873927882689105 0 0 0 0
1410000000 -0.36209517988818274 -0.2515043606463334 4.316512176995244 0.8382937189631958 0 0 0 0
1420000000 -0.43299143165757303 -0.17114563942373867 4.049606250790552 -0.22519730919926062 0 0 0 0
1430000000 -0.4987475653616476 -0.07631168432996081 3.9796514502328715 -1.2485586771422326 0 0 0 0
1440000000 -0.5378787078456222 0.1450013462069391 2.1127085295012344 -1.9909577508674867 0 0 0 0
1450000000 -0.5053964682148907 0.4447488775640251 0.7157727753162197 -2.188999515730466 0 0 0 0
1460000000 -0.6791855330499333 0.6193045413265593 -9.004273857901431 -2.557385583796235 0 0 0 0
1470000000 -0.5378730615020826 0.9872889353149518 -9.155928017227707 3.1624711273660147 0 0 0 0
1480000000 -0.9820089987533314 0.816696715477737 -10.099791149565547 7.6813322782570435 0 0 0 0
1490000000 -0.580375942612916 2.099819848858044 0.5649008378780289 13.907346600829875 0 0 0 0
1500000000 1.442243700252239 1.3504391267601075 3.2996089137617726 0.8866283686503376 0 0 0 0
